!Keysight Technologies N9923A: A.08.15
!Date: Monday, 19 February 2024 16:37:04
!Timezone: (GMT-05:00) Eastern Time (US & Canada)
!Model: N9923A
!Serial: MY52412730
!GPS Latitude: 
!GPS Longitude: 
!GPS TimeStamp: 0001-01-01 00:00:00Z
!GPS Seconds Since Last Read: 0
!CHECKSUM:2001348730
!Correction: S11(ON Q)S21(ON Q)S12(ON Q)S22(ON Q)
!S2P File: Measurements:S11,S21,S12,S22:
# Hz S DB R 50
1500000000	-13.0151637427506	1.4286577851474	-50.3009799170146	-112.118032435192	-49.8963081495843	-117.611592083072	-13.2399416887404	8.30738860420199	
1500450000	-12.9965983142793	0.232946521915169	-49.0944604464243	-120.890612256744	-48.953303150703	-116.38585794044	-13.2088008436531	7.00897364573522	
1500900000	-12.9824355525017	-0.87416340427316	-50.0184409775295	-118.899446214906	-49.2517062171112	-128.457974511011	-13.198022969318	5.81246781538253	
1501350000	-12.96528532714	-2.07818665873441	-49.8039875078185	-125.532418361057	-49.2317269930435	-129.489323220794	-13.1723582204266	4.54220466193868	
1501800000	-12.9575387012967	-3.27086287391716	-49.9196093431232	-130.268245072061	-49.0226085787992	-134.1401601495	-13.1570574013252	3.37940687615748	
1502250000	-12.9214243715871	-4.46811685265741	-49.9663320878563	-133.921552809047	-49.9104581477782	-134.223658028668	-13.1481461864826	2.19791799456419	
1502700000	-12.9178988373368	-5.66618348339662	-50.3092617943497	-137.086991219525	-49.1913576043288	-133.079180705682	-13.1388883801202	0.901994373086035	
1503150000	-12.8868057819515	-6.83756966926076	-50.0795375901131	-141.212773187595	-50.2945751070866	-141.59102850707	-13.1106016802828	-0.246673997634002	
1503600000	-12.8586455622715	-8.04441294667263	-51.1281930280632	-150.715124730201	-50.3541687072523	-146.501527650947	-13.0882839979463	-1.39142337162448	
1504050000	-12.8426917764559	-9.22835534323529	-50.7514432832802	-150.631792340191	-50.2527207734952	-144.9142996175	-13.0596151693964	-2.47033061240029	
1504500000	-12.8339966427531	-10.5987984574512	-51.1758736837388	-147.38386463259	-51.0303908680484	-149.038144644001	-13.0460860989663	-3.71924912482497	
1504950000	-12.8227353458266	-11.6624071950513	-52.0852079612229	-153.85249914332	-52.0015298843045	-148.42289218308	-13.0397356384454	-4.85912945693074	
1505400000	-12.7981999588617	-12.8014962847728	-51.9959710825828	-152.395680202495	-51.6208986935687	-149.029777894372	-13.0045075674772	-5.99514047566499	
1505850000	-12.786476632774	-14.0452909434487	-50.7439930629654	-149.958986932969	-49.9887442734447	-149.802932290907	-12.975813531062	-7.09451392133123	
1506300000	-12.7548723468111	-15.1531438773439	-52.3858056624821	-153.941388354367	-50.6690471410518	-156.334919680723	-12.9609583523956	-8.22878918266517	
1506750000	-12.7452418211694	-16.3701279902903	-52.4646000894046	-154.773909944561	-51.3719967935748	-158.226215791876	-12.9175570509948	-9.42579344760814	
1507200000	-12.7120043641893	-17.5618910210011	-52.0546844506883	-165.215293302984	-50.8997392306344	-157.351287893747	-12.914145402231	-10.6076299749953	
1507650000	-12.7004568624317	-18.7129506829918	-52.7314136501034	-161.845085997715	-50.6796620656488	-165.339183715317	-12.8791390140314	-11.7354697355102	
1508100000	-12.6613239337159	-19.8830909679493	-52.343973250017	-160.895104936038	-50.826908697098	-166.336920038789	-12.8629429496337	-12.8262268158623	
1508550000	-12.6484998423997	-21.1769118254143	-51.9523732751062	-158.699258824848	-50.4584359895659	-169.560091411141	-12.8280999917156	-14.0237831035592	
1509000000	-12.6072829161748	-22.3717609820353	-52.2781696612664	-164.593606171127	-51.0167724930211	-170.890562608534	-12.7913489955237	-15.0775168150855	
1509450000	-12.5826911765823	-23.5099692517536	-52.2164492198031	-165.242422685553	-51.6984389012138	-177.346200121558	-12.7887025738011	-16.2262326601553	
1509900000	-12.5802359557038	-24.8156576783528	-51.6568127322493	-173.39273952063	-51.6710124450464	-176.939796118348	-12.7478093606725	-17.5011938776489	
1510350000	-12.5376913978913	-26.0451206476406	-52.8640380574762	-168.478831121098	-51.357197998549	-179.023101487975	-12.7088832064169	-18.7116969872765	
1510800000	-12.5242614248069	-27.3071699771028	-52.0846107730338	-173.076333196667	-51.2532635827523	-178.412539185669	-12.677467404161	-19.9476223117354	
1511250000	-12.492914751276	-28.567269425116	-52.014716406758	-172.252466886884	-51.5767284956429	175.826563555563	-12.6643698926703	-21.1726486148607	
1511700000	-12.4765972707088	-29.7746414268883	-52.5606154929326	-176.266173846561	-51.8305572515966	172.393653312332	-12.619625498298	-22.4118904824415	
1512150000	-12.4614581785104	-31.1423229027735	-52.595549852459	-174.391419784919	-52.2340243984644	174.114791603059	-12.6100979001587	-23.5173581159422	
1512600000	-12.4472020060855	-32.3569527706278	-52.4026182177333	176.990848120989	-52.4575025266191	165.635146259577	-12.5838752017166	-24.7277136410076	
1513050000	-12.4293183345689	-33.4838461454859	-53.5878329201679	-176.907955516324	-53.2808245970369	165.818792451044	-12.5608017959785	-25.9392775278273	
1513500000	-12.4206453127827	-34.8240797719148	-51.4663727853156	-179.579037809486	-52.4026799816457	163.156661506465	-12.5390622708109	-27.1856863610357	
1513950000	-12.4019959933944	-35.9603564564828	-52.2138810206292	-178.694563850699	-52.231221259498	160.671489451484	-12.5328277893173	-28.3913992313192	
1514400000	-12.3788025605128	-37.1540903966836	-52.5916731786486	173.647391202261	-52.5116132879126	163.981062388875	-12.5125477666391	-29.5768358725662	
1514850000	-12.3616251627721	-38.3777731217452	-51.9548904097021	175.808307089859	-53.1796922533304	160.842120079459	-12.4843710671104	-30.7687668929193	
1515300000	-12.3592771513542	-39.5573640364822	-51.7747833616362	170.828224844129	-53.7285448839038	163.717323201502	-12.4585005130911	-32.0347874988085	
1515750000	-12.332549277454	-40.73402945269	-51.7259536864614	166.174015425486	-52.6868913501864	162.862648139954	-12.4426698884785	-33.2510537465051	
1516200000	-12.3073439521685	-42.042095216579	-52.6390001698206	168.257895021021	-51.2560004621736	158.465371705545	-12.4301203962815	-34.3238852579675	
1516650000	-12.2951316796892	-43.2333248365749	-51.4710642758767	161.164080163709	-52.3474295853005	162.297487250619	-12.4035069361422	-35.6109815015053	
1517100000	-12.2746382298571	-44.6776374096865	-52.1344761925447	161.489116723399	-52.4724376272276	160.43865788454	-12.374000255946	-36.6501808742246	
1517550000	-12.2675549116972	-45.8641673715937	-51.2150705024249	156.490210682422	-51.7098638032551	154.773357799092	-12.3650408616898	-37.9740802592596	
1518000000	-12.2618854592872	-47.0775522690182	-53.0233335122333	153.661722542677	-51.5190306963201	153.91493847617	-12.31818008727	-39.1904726880379	
1518450000	-12.2642222767942	-48.3216383093126	-52.3834083064332	156.064488310677	-53.3424103567869	155.947555702828	-12.2952878517603	-40.4267292946842	
1518900000	-12.2474496509339	-49.5278166357623	-52.265888208724	149.750855747954	-51.553418498554	150.204029729827	-12.2546547240606	-41.5756222819448	
1519350000	-12.2591384808214	-50.8074464683978	-52.8669806343684	152.548882026873	-52.0342179051482	151.702632919658	-12.2369537323316	-42.8633735105325	
1519800000	-12.2453075034856	-52.0578372233723	-53.0860783018471	152.77911009661	-52.1486352104186	148.921626774931	-12.2249306843484	-44.0692508194664	
1520250000	-12.2396784954116	-53.1936001699126	-52.7738725065648	160.203268705159	-53.5947064729378	148.382872132816	-12.1915666527566	-45.3755399901698	
1520700000	-12.2434900904485	-54.3673136639806	-52.9448798156756	149.215720650357	-52.9208247104771	144.926828621828	-12.1831250750943	-46.6809641364734	
1521150000	-12.2181961707692	-55.5191901151955	-51.7249601821217	152.75742176534	-52.9126293479147	149.191472270995	-12.1647372651298	-48.0205726036002	
1521600000	-12.2246687780744	-56.7030199929085	-52.3762903105128	154.729866195668	-52.7176731595698	143.806875300498	-12.145705282964	-49.3273603565669	
1522050000	-12.2023619826402	-57.9511044196824	-51.6882420549486	155.878274369912	-53.3079236323097	148.245419953377	-12.1293888278234	-50.5010909297225	
1522500000	-12.188766906822	-59.0465184829631	-52.3356624998377	153.938365031976	-53.8494194051955	145.148185222947	-12.1297741887807	-51.8807977724623	
1522950000	-12.1895162394221	-60.1860024068849	-50.5894138703483	150.024312341547	-52.1693761004972	150.948323292582	-12.1251891117994	-53.2194676216064	
1523400000	-12.1850162107805	-61.3331351977272	-51.9051732205398	153.293086440292	-52.7910699101675	149.380371743263	-12.1162119504951	-54.4408009725168	
1523850000	-12.1579373850832	-62.5283205887539	-50.7087282783762	153.130908709524	-51.7831873169365	149.197162755325	-12.1018619589837	-55.8660020480141	
1524300000	-12.1506491213897	-63.6612178494047	-49.959429227684	150.056089810694	-51.7252023060883	147.329118529879	-12.0968783661435	-57.047276463592	
1524750000	-12.1288462740362	-64.8855502333232	-49.335965198226	148.690173763562	-51.3904609522916	152.477590542696	-12.0864548161319	-58.4012543231372	
1525200000	-12.1141166726329	-66.0374378214856	-50.0605727002849	149.45385764445	-51.0525075906295	146.275599399798	-12.0962385393792	-59.5361983054705	
1525650000	-12.0989655087886	-67.2491359135704	-48.8550855031293	150.898134451156	-50.4219429641464	150.683677841276	-12.0949016983358	-60.8875926072032	
1526100000	-12.0880480113742	-68.5510570730883	-48.2741997014801	146.689736700382	-49.8660850683098	151.33506188735	-12.0895156472605	-62.1280739575801	
1526550000	-12.0929454738539	-69.6839666502651	-47.860894679106	145.638324113268	-49.1994492548621	149.134899700054	-12.1073191775693	-63.512571975906	
1527000000	-12.0764155566233	-70.879909123736	-47.7157742663203	142.459983216508	-48.1155244931549	143.506672095326	-12.1222384434869	-64.7498961676764	
1527450000	-12.0660526911822	-72.0874649816728	-46.9103589986515	137.497177373511	-47.9057660985175	143.415198269565	-12.1110509992282	-66.0211805928866	
1527900000	-12.0662040131984	-73.3163477707964	-46.3498406651684	140.512247707644	-47.0196751552965	137.586236304581	-12.1195306694913	-67.1487067745452	
1528350000	-12.0624411354861	-74.4459562654549	-45.8221379632199	133.251765136716	-45.8839709725036	131.180711912779	-12.1393958538469	-68.3407379299561	
1528800000	-12.0744713668036	-75.725690753852	-45.071017941563	130.150131578133	-45.8584963893263	131.903949072068	-12.1425896731749	-69.6399401920203	
1529250000	-12.0451468005764	-76.7998712582089	-44.2072900872599	124.342728701673	-45.2228044325595	126.289885087348	-12.1577521609885	-70.8905617530045	
1529700000	-12.0454520394923	-77.9356445884859	-44.433514210357	117.476272896559	-44.9591650141742	118.995077600819	-12.1653061378776	-72.0768608105283	
1530150000	-12.0386312362008	-79.1092559194015	-43.5558682910661	112.679664922182	-44.4119145678193	114.439358019041	-12.1701162947152	-73.2269390273957	
1530600000	-12.0296202323231	-80.2316067746467	-43.6148036178093	108.548306465457	-44.4840638135306	109.572873700952	-12.1536498432264	-74.3764513900341	
1531050000	-12.0218703092931	-81.4421489347617	-43.486017106081	102.287399257042	-44.4051982368508	108.677516550191	-12.1788562451972	-75.6845695871648	
1531500000	-12.0169821172226	-82.6511389514576	-43.7088301529699	97.1052410171598	-44.3149553705036	98.0200999095354	-12.183060540246	-76.8272289218961	
1531950000	-12.0027462585616	-83.8924808843318	-43.4229069221237	94.721781719448	-44.1231705912487	94.6767664514627	-12.1878125792606	-78.0923605822325	
1532400000	-11.9981662243157	-85.020132351794	-43.5653041481497	90.4473921306048	-44.0514107624113	90.1566019705862	-12.192428370387	-79.4403669575396	
1532850000	-11.9854199003975	-86.1884232105789	-43.4433193999732	85.3058326297507	-44.5239815375519	85.4160702364829	-12.2085453539161	-80.5018646826954	
1533300000	-11.9671796237396	-87.3527960179061	-43.6292567134646	79.9083125758577	-44.3820399719438	81.988368851461	-12.2068689091885	-81.6926775800797	
1533750000	-11.9565655619078	-88.483084328477	-43.6413452826561	78.1513224917568	-44.4835442221268	78.896710532571	-12.228398780761	-82.9431968530926	
1534200000	-11.968232602327	-89.6997871379713	-43.5367643627305	75.3506092106989	-44.3347028667073	74.1299144985428	-12.2370561427859	-84.100906749373	
1534650000	-11.9537703572467	-90.9846444792963	-43.4686541293238	70.6838931627254	-44.7842468481634	74.4158261864062	-12.2422855340185	-85.3079005877906	
1535100000	-11.931588272526	-92.114162370079	-43.6541392867762	68.3313425702489	-44.702378529667	70.3827588644811	-12.2591311971522	-86.4387722043426	
1535550000	-11.9360169296059	-93.3957692854826	-43.4830244929988	64.2659733536826	-44.0123702543761	68.9191075246728	-12.26317130145	-87.72553650025	
1536000000	-11.9343940652899	-94.481263881124	-43.17373610923	60.5443834278464	-43.9349036025832	64.0589412194434	-12.2653017798896	-88.8878358568254	
1536450000	-11.9227123651804	-95.6006950997805	-42.858600933055	59.3056977494973	-43.760567464914	63.2772435302787	-12.2915798421869	-90.1401968685935	
1536900000	-11.9193268469756	-96.888532121985	-43.0656370490432	52.0772584156837	-43.7433092646612	57.0730516134894	-12.2947077818477	-91.3183598659729	
1537350000	-11.90467611927	-98.0140592628426	-42.9876672728828	48.0854637071842	-44.0184571307853	53.0971192458376	-12.3001474837608	-92.6013105330876	
1537800000	-11.9050383047927	-99.2492723917019	-43.3848452059201	45.6474991226745	-43.5031034939146	50.1845567766101	-12.3333852200341	-93.8267694931665	
1538250000	-11.9084310623787	-100.423716249508	-43.2082532313013	43.6078189142311	-43.6452487651904	47.054251337277	-12.3549942087382	-95.055739906405	
1538700000	-11.8979262240148	-101.593425501934	-43.1860529877287	40.4229385101321	-43.8529007106035	42.5824018484472	-12.3839989601003	-96.156497667233	
1539150000	-11.874487551408	-102.811042462376	-43.8442117320151	35.9411330943493	-43.8414396871365	40.3703208446763	-12.407538744533	-97.3782676905243	
1539600000	-11.880005594151	-103.969430938861	-43.4484885717179	33.8210325565699	-43.9043926220474	37.8726105287231	-12.4249469317227	-98.5482764233597	
1540050000	-11.8785984308953	-105.254628903681	-43.7397327845851	30.8137123047123	-44.0350278732634	36.5420334809624	-12.4371966362769	-99.6345637918053	
1540500000	-11.8750543680421	-106.547672029936	-43.7927970055379	30.9748964496503	-43.8921565026254	32.7314777520366	-12.4586855861117	-100.706845546281	
1540950000	-11.8696422447891	-107.743852236393	-43.6538921692095	26.8565243847691	-43.7826441387801	33.6069344483779	-12.4766627656777	-101.897101458925	
1541400000	-11.8693563295378	-108.874291760617	-43.2822763936267	24.7462313165356	-43.5720653016741	30.7052810671214	-12.5014894958565	-103.042637031463	
1541850000	-11.8468592203431	-110.162939752514	-43.2925524052953	25.1773789058016	-43.2551941831759	26.1400486947273	-12.4998175979595	-104.210862945743	
1542300000	-11.8526276975421	-111.410291125525	-43.4898098230494	23.1398208980277	-43.0435544177687	24.2654581561938	-12.5344202617715	-105.305522591593	
1542750000	-11.8522895308239	-112.610370482109	-43.0726079947786	18.7813399125267	-43.2626668608891	19.9656440774858	-12.5623312842573	-106.364541192395	
1543200000	-11.8569889662257	-113.769509646847	-43.2382283632657	15.2522283204241	-43.0492414585276	15.3709799184262	-12.5824648811741	-107.573575042203	
1543650000	-11.8568711005554	-115.005295827202	-43.3244052796723	11.489355046781	-42.8482634086868	11.1764579117039	-12.5621999473209	-108.638716779698	
1544100000	-11.8497249234164	-116.182108875767	-43.0021752565477	9.44053016807913	-42.7077882549654	10.0940483286756	-12.6018752599514	-109.725646636488	
1544550000	-11.8624165963691	-117.412435808438	-42.7634824935978	5.29229927800717	-42.9412358459937	4.68628273017997	-12.6024840886625	-110.884795928181	
1545000000	-11.859885639673	-118.609988265612	-42.5867093574495	0.832643890170233	-42.7173574718404	0.959906570342829	-12.6064840551148	-112.095213771159	
1545450000	-11.8564436814162	-119.770624544813	-43.0618309390511	-2.11642474969349	-42.9515239727142	-1.59581813760658	-12.6159550888068	-113.182596178434	
1545900000	-11.8527588208899	-121.023813534218	-42.4986452518028	-3.81085841035586	-42.9673373736259	-6.91740281553345	-12.6199573051492	-114.410797445112	
1546350000	-11.8453589452839	-122.301549353391	-43.0468509686058	-7.21416655082192	-42.6293826944043	-8.76549243329526	-12.6423996189521	-115.519491774128	
1546800000	-11.8387287913746	-123.511964288584	-42.7340748155086	-9.20622932012179	-43.1700814103831	-13.7522054115675	-12.646489141822	-116.737076906233	
1547250000	-11.8559890584403	-124.703896667729	-42.7916556439818	-15.1433016350453	-43.160791681364	-16.5175714658464	-12.6596990795685	-117.904128848206	
1547700000	-11.8629129269234	-126.037192300081	-42.5039412396038	-19.5017863467814	-43.0318003448866	-21.4786489102757	-12.6602227319749	-119.072774332504	
1548150000	-11.8711390247562	-127.119109437369	-42.8088620622725	-21.0617041698286	-43.2594029999058	-25.2220568996838	-12.6698928487509	-120.340783528044	
1548600000	-11.8613636075775	-128.422407289721	-43.2338904441863	-28.5651405076568	-43.3138142711224	-27.8222523213579	-12.6883330711928	-121.439455653304	
1549050000	-11.8718792674101	-129.644267572464	-43.152110520004	-29.7401000126212	-43.962748172637	-34.3374446016382	-12.7043415505024	-122.645029634603	
1549500000	-11.8712695079586	-130.769188323617	-43.7238089782278	-33.9167913829524	-43.9601152576462	-33.9715258547072	-12.7174229340186	-123.856393918115	
1549950000	-11.8645195472499	-131.992413858549	-43.4648732546081	-37.2583653629849	-43.7562280035579	-34.1932407909899	-12.7291924152867	-125.150445461957	
1550400000	-11.8810055749188	-133.240995048222	-43.3951112166993	-36.2776561489791	-44.385819360728	-34.9328090511849	-12.7452089907887	-126.302715722988	
1550850000	-11.8754086347408	-134.360533548326	-43.5646232341943	-37.9721276712618	-44.5184849591026	-38.692945789586	-12.7612776952314	-127.620633188694	
1551300000	-11.8761427538331	-135.600319120787	-44.0146518224303	-40.5476126668607	-44.33904089153	-42.5958441086063	-12.776417041712	-128.790234074511	
1551750000	-11.8684559229012	-136.910736127045	-43.7988659365341	-45.6241404299527	-44.2843352801077	-40.6199359332191	-12.7874521856045	-130.007627151035	
1552200000	-11.8601012923512	-138.019258019338	-44.0327013651924	-45.299456001861	-44.4647291009335	-43.7161294595891	-12.8217153416374	-131.213523370954	
1552650000	-11.8457542932117	-139.261177141995	-43.4599393164283	-48.7066623380219	-44.0136788238339	-47.6016366718477	-12.8200299145321	-132.436466056638	
1553100000	-11.8503471956838	-140.606750661861	-43.4340936404676	-48.8025589908275	-43.8207801320501	-49.7962339654231	-12.8590238349438	-133.594227792152	
1553550000	-11.8519055118407	-141.789894781876	-43.3831424878341	-51.2421770367453	-43.7814549657951	-52.3468714406857	-12.88467192587	-135.012270524097	
1554000000	-11.8546977433934	-143.162687098938	-43.4927342173568	-54.8239712447069	-43.7663198598341	-55.561770054574	-12.8865838748907	-136.05704359583	
1554450000	-11.8403739367059	-144.321714074738	-43.7322944672035	-56.8748322037606	-43.4927559101485	-55.5968117893746	-12.9005105930282	-137.299557420315	
1554900000	-11.8678151345625	-145.713477271529	-43.6838294883488	-59.4462350399318	-43.7793146080729	-61.5776169593614	-12.9303020465112	-138.494128688205	
1555350000	-11.8814075534174	-146.954056432172	-43.682205194891	-64.4629312274898	-43.7480905572318	-63.4459616930483	-12.9339896261861	-139.86159178701	
1555800000	-11.8757853246111	-148.20283326768	-43.6660169811476	-67.6340779362865	-43.8665890400404	-69.695781222969	-12.9606123799575	-141.192052729229	
1556250000	-11.8738827661752	-149.470837403952	-43.7244565036955	-71.4089390993263	-43.6182922907502	-72.6090679526964	-12.9690116985293	-142.343709673713	
