!Keysight Technologies N9923A: A.08.15
!Date: Monday, 19 February 2024 16:39:15
!Timezone: (GMT-05:00) Eastern Time (US & Canada)
!Model: N9923A
!Serial: MY52412730
!GPS Latitude: 
!GPS Longitude: 
!GPS TimeStamp: 0001-01-01 00:00:00Z
!GPS Seconds Since Last Read: 0
!CHECKSUM:0954616430
!Correction: S11(ON Q)S21(ON Q)S12(ON Q)S22(ON Q)
!S2P File: Measurements:S11,S21,S12,S22:
# Hz S DB R 50
1500000000	-13.0066263978989	0.89908727165496	-55.2586151851886	-35.5820475892875	-55.5028783420814	-43.3187203073072	-12.8139801841334	8.41362791032235	
1500450000	-13.0001819314434	-0.26048208913056	-55.577427697514	-44.5003447339005	-55.4055122529415	-47.0958959228009	-12.8002210242773	7.12165974839323	
1500900000	-12.9947621797932	-1.44276937214695	-56.3326287311219	-50.7644375001733	-56.5435488617066	-52.7393110129269	-12.7764325328233	5.94003804252368	
1501350000	-12.9693215594263	-2.62003537448987	-56.9122939996978	-43.0958625961776	-56.428360969285	-58.6410031255155	-12.755115084886	4.61886141335141	
1501800000	-12.9555316325813	-3.72784822598927	-57.3941469565374	-63.0285934503141	-58.0338002602809	-60.1023134556155	-12.7470585024083	3.52622900500564	
1502250000	-12.9360599839887	-4.97589727342535	-59.547616200213	-65.7719011895611	-58.6674162283408	-58.6413120957554	-12.7366914033171	2.38318053154521	
1502700000	-12.9281750961138	-6.09021750144698	-60.1453373686776	-52.9959232590983	-60.7735165554744	-76.5872899551168	-12.7233805941619	1.021316001289	
1503150000	-12.898839144265	-7.3396866766461	-63.1897303357488	-45.050370570841	-62.2942821192667	-68.5693755067297	-12.7013160326658	-0.210050415399426	
1503600000	-12.8723820069433	-8.62168859599592	-60.7796615414103	-43.7921051833476	-62.2002562910174	-48.935644059851	-12.6699151548311	-1.26854915134274	
1504050000	-12.8615771711486	-9.85919163502614	-61.9088648208576	-40.6109798581723	-62.5052946205513	-50.1483327019328	-12.6473032707583	-2.42802174179424	
1504500000	-12.8522470105133	-11.1811751325698	-62.1166820857805	-14.5954660787338	-61.9074575858813	-43.52704221329	-12.6350430985512	-3.6249254061295	
1504950000	-12.8428215999701	-12.2302464960327	-59.4644004323302	-27.2773674931146	-61.8923185418422	-47.1690173720121	-12.6078175285629	-4.77104995767412	
1505400000	-12.820061318905	-13.491509618024	-58.2988194825929	-30.1404439694824	-61.2302938242345	-40.0333258016934	-12.5805535372729	-5.96050532255527	
1505850000	-12.8100829422953	-14.6630593780357	-56.9013602709971	-46.2187321030647	-59.864963623907	-42.3587854444741	-12.5599814388023	-7.0808361346497	
1506300000	-12.8064294964952	-15.8078548887911	-58.5118245387935	-68.4618738953214	-59.1278438451765	-60.2610722015018	-12.5221675204133	-8.32631409493685	
1506750000	-12.7997358536772	-17.0688995045439	-58.4213498891178	-48.7670058156186	-58.6757307723793	-53.6862031997161	-12.4917220885066	-9.49708275782983	
1507200000	-12.7616663152017	-18.1853130541422	-58.5064270694343	-50.9689701750607	-59.0897785279465	-60.230051315762	-12.4721897687169	-10.7127442661824	
1507650000	-12.7531966103486	-19.1998719509446	-57.6970421262988	-66.4460940389569	-59.0016162264639	-54.3507639761934	-12.4294938163833	-11.974030665886	
1508100000	-12.7439359801523	-20.5639492744065	-61.4049916251397	-62.8464346762167	-62.0428019844856	-70.0921080481417	-12.4168540585165	-13.0594373745515	
1508550000	-12.7239176728839	-21.7076550176571	-59.6984912456608	-77.8401596124852	-60.1062154368741	-77.6030508854731	-12.3700391878132	-14.3534760601711	
1509000000	-12.679256189381	-22.9594832690616	-59.871349026593	-72.7547160275296	-63.0251159399993	-59.983344339276	-12.3450541262904	-15.6568620826129	
1509450000	-12.6655176617489	-24.1287157324419	-60.2849516085493	-92.0242757467125	-62.9970548138586	-85.6636824182414	-12.3368966349906	-16.9433105470587	
1509900000	-12.6488244250741	-25.2129017723994	-61.3694071491163	-86.8478889519463	-66.8527558047144	-95.7572256299208	-12.3071662270911	-18.2244445076485	
1510350000	-12.6183868620411	-26.4815841282373	-61.704788501468	-94.9959800114679	-61.2707856834139	-86.2706697912015	-12.2867877860661	-19.4460055884896	
1510800000	-12.6172194428258	-27.7899376516211	-61.6913998262798	-90.9773464893913	-64.1006763081435	-85.6225591929258	-12.2499032063683	-20.7439637873324	
1511250000	-12.583786485872	-28.971682127061	-69.1342905113351	-67.4964213807053	-63.2087484614146	-104.105441976607	-12.2481896208699	-22.0766315002784	
1511700000	-12.5903113775548	-30.1031205955562	-75.6082325535721	-102.822774044106	-69.4658173891655	-107.774321025133	-12.2244674320165	-23.3156026799976	
1512150000	-12.5701254340352	-31.3671200537707	-64.5599244451435	-83.35849543116	-66.4292938680359	-102.589373478268	-12.2133262266481	-24.5404399033971	
1512600000	-12.5529378642762	-32.5362933183228	-68.9299826581219	-58.1341561684521	-65.8937289839629	-52.4566845387556	-12.1896863006885	-25.8899725766939	
1513050000	-12.5375241840367	-33.6317589352973	-74.873952999218	-25.0989602238927	-67.5517434836079	-114.658698328138	-12.1823990136579	-26.9806508245415	
1513500000	-12.5285348425536	-34.8091381647206	-71.4410592520626	-79.0151519688693	-67.2822639337101	-93.1506800202168	-12.1803932110679	-28.3518565891162	
1513950000	-12.5118950248353	-35.8848000370934	-75.2832749635137	-25.5526451336269	-75.576115351399	-131.729739002521	-12.172345627535	-29.4530273109665	
1514400000	-12.4818238526175	-37.1671063389033	-71.0408473984513	-53.7944300248542	-70.7458844069562	-57.0110654826433	-12.1785002418784	-30.7277169910729	
1514850000	-12.4589884880907	-38.3033108828635	-77.6654117857782	129.582948018751	-78.9510942308861	33.2557685878512	-12.1625182875282	-31.8625905401415	
1515300000	-12.4423838848983	-39.5414628105153	-74.2741705169689	30.1812079127281	-72.5364816042708	-57.6756886096505	-12.1366200873012	-33.0444850912837	
1515750000	-12.4160087272272	-40.6809731769668	-72.638423816237	-33.0121058078408	-69.1264476478616	-5.02789373817579	-12.1225767998249	-34.2106277845686	
1516200000	-12.389944370511	-41.9598285614893	-66.3508521916579	32.1219059667378	-74.2459228009924	61.2274242421659	-12.1261421991194	-35.2995900802913	
1516650000	-12.3685882808888	-43.1257976950729	-67.0437077952555	-10.1826357309232	-66.8822541077903	0.965035595446634	-12.0879060843286	-36.5583984767556	
1517100000	-12.3557268285374	-44.4940600015057	-62.9404870019707	-19.4984318414893	-66.0892499700871	-2.88149856880681	-12.0650928439401	-37.6388786950766	
1517550000	-12.338970237474	-45.7217931658947	-59.7008518869327	-25.0260563714373	-63.1390006795585	-24.9733207371682	-12.0616122927182	-38.8766589908194	
1518000000	-12.3306850418394	-46.8726966525229	-62.506982698586	-37.5558254135052	-62.458151818136	-29.4186988046377	-12.0212794159356	-40.1622836229178	
1518450000	-12.3270536817652	-48.02662796723	-61.5839398439149	-19.7677718850992	-60.7391347295183	-34.8848186391671	-11.989600603979	-41.3283154618715	
1518900000	-12.3176012180593	-49.2221287358061	-60.2617363841412	-60.8030219162051	-59.6154668347987	-32.9697966226772	-11.9606571963361	-42.5814396362268	
1519350000	-12.3085230575461	-50.5292661888525	-61.3315522325199	-66.4616485673068	-59.5257475012161	-48.2094254590883	-11.9319185568734	-43.7749065860689	
1519800000	-12.2865612722802	-51.7796738642442	-62.2660742699519	-46.6004355589902	-59.047147814837	-51.2194648061777	-11.9212025281167	-44.9813572627528	
1520250000	-12.2548492962337	-52.9163146938098	-59.6880381375933	-37.4521643837291	-60.7221941852996	-50.7990937124049	-11.8862398699317	-46.2773823303502	
1520700000	-12.2509127072184	-54.0702331867348	-61.7994481010415	-56.6112133271452	-57.641540727135	-67.1378036506297	-11.8854945838326	-47.6130885144751	
1521150000	-12.2283319305863	-55.2276425438103	-58.4667026903269	-73.8399473527385	-56.2833630128723	-63.5955096456323	-11.8675758166894	-48.9439159116777	
1521600000	-12.2111101692866	-56.6979109162703	-59.2058300633038	-77.1311932938221	-57.8369333610835	-72.6439449916972	-11.8341369486796	-50.1571799371562	
1522050000	-12.2023202758711	-57.8904722250877	-59.566588888858	-75.7980701962646	-55.8259512253598	-74.9311745917922	-11.8274107506679	-51.4567599220999	
1522500000	-12.1791840380493	-59.1198447236526	-59.1270200519913	-82.673801177077	-55.6683398708372	-86.7965152551119	-11.8246915165283	-52.7538430057247	
1522950000	-12.1964131853832	-60.2284276617475	-59.0720314655159	-89.4649782005157	-56.0505287791787	-104.675090264738	-11.8065219260186	-54.1093310210335	
1523400000	-12.176744744484	-61.4230562961239	-55.9554891022088	-95.8266540127819	-56.178910848597	-102.308692374506	-11.7863858950268	-55.5014719029604	
1523850000	-12.1727669032635	-62.656144248264	-58.459652203774	-99.6877946497226	-58.1601394732573	-109.500143745782	-11.7823986053338	-56.7640563960667	
1524300000	-12.1550461821136	-63.8313311301705	-56.7109457508631	-101.709750662174	-55.8006450607445	-118.713619130641	-11.7746030984691	-58.1092489087787	
1524750000	-12.1465245430191	-65.0746027138904	-55.4407450631921	-115.034416782839	-55.0605881376722	-121.431344591513	-11.7536763558768	-59.4809893317798	
1525200000	-12.1383369094213	-66.3038611981359	-56.7708729309867	-120.06507388398	-55.7854071579668	-130.75678301094	-11.7591384849602	-60.7203788519484	
1525650000	-12.1273332168031	-67.4585186941075	-55.6517096836009	-116.373616640513	-54.9179097978988	-136.057803123448	-11.746825676049	-62.1091730513205	
1526100000	-12.1064992776497	-68.7234316284069	-54.8969962699485	-128.403479626869	-53.6226673777934	-133.495962485849	-11.746625841146	-63.423714073549	
1526550000	-12.1175337938866	-69.8192282337665	-55.0987356853299	-140.613267666459	-53.8859097280714	-149.49213179633	-11.7697502904766	-64.8483764345876	
1527000000	-12.1124656899261	-71.0851129637706	-54.4179751726601	-145.111506081261	-53.7454572248721	-153.190193692179	-11.7881383010475	-66.2195766062075	
1527450000	-12.1069719172022	-72.2403542635924	-54.6775600541932	-162.104043996352	-52.5589550538208	-167.958762438556	-11.7882154750979	-67.5073312625056	
1527900000	-12.1000111705889	-73.4141767044439	-54.7345840629783	-172.977645332567	-52.8005280568626	-165.143752590422	-11.8037532520952	-68.7729468385778	
1528350000	-12.0871129091311	-74.5913320156068	-53.0488615677258	177.499654807023	-53.1571937377904	-173.22816214643	-11.8134968691108	-70.0005360783373	
1528800000	-12.0855722418838	-75.8527411148378	-53.3036916039303	174.077915467958	-52.1801869235911	175.292439295146	-11.8524696906671	-71.2797118643678	
1529250000	-12.0824389875427	-77.017692010162	-52.4414829512087	162.307036407824	-51.4584441337684	172.140056955708	-11.85648682372	-72.644834725869	
1529700000	-12.076383461567	-78.2404604457287	-51.7622009820686	159.379110869767	-51.2921365911278	160.941940942566	-11.8741109284521	-73.7800699613101	
1530150000	-12.055099328698	-79.4309925442122	-52.7674466706721	146.680491678717	-51.8361037993144	149.462532919669	-11.8849887049713	-74.979950395122	
1530600000	-12.0668214193986	-80.5320183890987	-52.003797335725	133.768235354072	-51.2716878327695	142.592863991949	-11.883860146079	-76.0739450620296	
1531050000	-12.0557869841786	-81.726336844354	-50.8690852779037	134.551092148874	-52.1926674012985	133.34170233193	-11.9105990657692	-77.4441549403145	
1531500000	-12.061495068751	-82.9781859462486	-52.6801607002786	123.198688783259	-51.9221931484356	132.274859937188	-11.9120234531093	-78.6600639319122	
1531950000	-12.0518929762001	-84.1191250087501	-53.1280560843693	116.849668243621	-50.9119115851009	125.517081831529	-11.9408230379	-79.8883580825498	
1532400000	-12.045500920021	-85.3842177598858	-52.5338557226284	109.226789957894	-51.5107037593647	111.957361752094	-11.9514549952315	-81.1777558310281	
1532850000	-12.0546180679227	-86.5110830613271	-53.9756286538807	109.987853961611	-51.8184257316218	104.286953857201	-11.9592957902565	-82.3474140013336	
1533300000	-12.0560221830096	-87.6340173884656	-53.164451118003	102.156118659483	-51.5411491968386	109.761879712568	-11.9691958243781	-83.5527232058951	
1533750000	-12.0368430629687	-88.8302383564134	-52.459212101253	95.9105935713807	-52.8612209881704	105.84125198721	-11.9978520500757	-84.7525192399632	
1534200000	-12.0413897726003	-89.9920168200037	-53.9723286420766	95.1061213394667	-51.8395777371058	100.452419798255	-12.0168812929308	-85.905194359835	
1534650000	-12.0395944599398	-91.134776550729	-52.5179374517323	90.3320622030421	-52.2664924357173	90.8201194051159	-12.0196217383253	-87.2123881523417	
1535100000	-12.0267873147806	-92.4016020297156	-53.2486069936971	85.6448839604081	-51.6830923942534	88.8632383645037	-12.0344160875388	-88.2626066545557	
1535550000	-12.0349806682306	-93.6875486581886	-52.4780539492306	91.5113378522431	-52.440635677778	81.7038290646968	-12.0459340729996	-89.5125820840986	
1536000000	-12.0217372337314	-94.7455190715854	-53.0172048969274	80.400669900141	-51.0677112627163	88.9317661578926	-12.0515147793766	-90.7168546412512	
1536450000	-12.0192104115922	-95.7829557195474	-52.7492200963961	79.6499256403943	-51.4087377930046	83.1602271327541	-12.0694687038173	-91.9407767988514	
1536900000	-12.0142387629981	-97.0623021814566	-52.8529783006149	71.2829398565655	-50.9540238739722	74.675648407466	-12.0793617029841	-93.1375180131995	
1537350000	-12.0167366993134	-98.167592840337	-52.7270975393099	65.23090787872	-50.3429067884899	73.0656763631338	-12.1049057378523	-94.3990142271148	
1537800000	-12.0009729105284	-99.3561626944985	-52.5659745592027	63.5409472584369	-51.1043966783033	64.8741704403633	-12.1269081262821	-95.5352422324727	
1538250000	-12.005766065425	-100.499625104237	-51.9362733778592	60.1338930389227	-50.5894940607071	64.7395305661224	-12.1496577003831	-96.8255658137093	
1538700000	-11.982086440608	-101.715129458209	-53.2713437612133	47.0865984177291	-50.849517679761	61.3267560976379	-12.1598095062977	-97.9343892561331	
1539150000	-11.9785528314925	-102.812005675212	-51.2268517876816	52.0740820224004	-50.393752601639	56.0993231871847	-12.1877596308666	-99.0997472636843	
1539600000	-11.9707801225287	-104.043332042547	-51.8053186243064	52.8600826129403	-50.1067625422983	48.2293720925011	-12.2096043977217	-100.323317746124	
1540050000	-11.9665811196023	-105.255072658172	-51.2072981099639	45.8674107494631	-49.7813372656144	46.1009962654006	-12.2188099159471	-101.423289569908	
1540500000	-11.9722778410696	-106.570389486888	-50.3514070048607	49.3072525808316	-49.7746718997723	45.2861342398976	-12.2279117911551	-102.591291582613	
1540950000	-11.9643946548521	-107.672421708093	-51.8175206645417	39.1027884059196	-48.6858767604469	41.8530086494679	-12.264795267993	-103.72847709866	
1541400000	-11.9647869628881	-108.807096464016	-50.4988826522791	35.7373294584361	-49.6123521005024	38.1708300355337	-12.2709550845077	-104.95945823393	
1541850000	-11.9480372376147	-110.107946528302	-50.6391583624384	34.7456936889798	-48.7532946196186	32.1095987520855	-12.2836707796273	-106.038844520749	
1542300000	-11.9469815135858	-111.247224987518	-51.0611029021756	30.6075514714224	-48.6447557846865	27.874313855523	-12.3079453502631	-107.32800178289	
1542750000	-11.9440312244445	-112.451051681384	-49.6628100007774	25.5873735782492	-48.6750176426698	27.2739251602299	-12.3266176793885	-108.376853044824	
1543200000	-11.9526060754342	-113.635521140681	-48.877298498849	21.0358624202388	-48.3242508791046	15.2900761176226	-12.3455140562933	-109.617117444994	
1543650000	-11.9464855133442	-114.809707657997	-49.3722710033199	17.6830341608005	-48.0378044325814	12.9953291817254	-12.3288695179886	-110.660923380425	
1544100000	-11.9366029026246	-115.962505823036	-48.7452005612355	15.3400638004053	-47.8635979001227	11.3614889481382	-12.3683308771539	-111.815599380075	
1544550000	-11.9527926589045	-117.246316024425	-48.2125464874304	6.66335222060871	-48.0437287289512	10.7111828274569	-12.3660712137845	-113.099177066526	
1545000000	-11.9476772892251	-118.336610089167	-48.5158380317174	5.28251565821934	-47.1143242839758	2.26969919212969	-12.3709177107653	-114.374583785044	
1545450000	-11.9350984692098	-119.527851460969	-47.8576387352312	-2.94844802214654	-47.304156902043	-3.31862755352793	-12.3782315808288	-115.474697862078	
1545900000	-11.9410603247146	-120.795634810714	-47.5360567111448	-7.90203808307444	-47.1455494818812	-5.48269897760245	-12.4100519990624	-116.752962478234	
1546350000	-11.9351428975555	-122.038017509239	-47.823080512345	-12.8504093413627	-47.1697776010156	-15.6026226987314	-12.4313966176994	-117.876120615768	
1546800000	-11.9244684999386	-123.154637952815	-47.954560641665	-20.4563063398292	-47.6816379217922	-22.6628761973639	-12.4425022817719	-119.200821502425	
1547250000	-11.941766373423	-124.422642047584	-48.1945424073875	-24.6958514888686	-47.2991069716347	-25.0360517605824	-12.4614027238808	-120.279150887577	
1547700000	-11.9373390745689	-125.696829816575	-47.9671554961887	-31.0274673964911	-47.6119247792585	-31.6098979276658	-12.4788813286399	-121.549076902616	
1548150000	-11.9399208773429	-126.843836848339	-48.2689037108831	-36.1552731010881	-47.6236894249517	-37.8044882857652	-12.4782932794887	-122.807473580635	
1548600000	-11.9436693750838	-127.972159702046	-48.4643142115685	-39.3372527311767	-48.2213103864216	-41.7257922692928	-12.5121189740465	-123.934782605854	
1549050000	-11.9518691001958	-129.225665090242	-49.3779811828233	-45.4103297106556	-48.5155852203644	-46.7120686909549	-12.5262326215967	-125.180234660372	
1549500000	-11.9282861347774	-130.388132217021	-50.3559493470733	-52.9167836447028	-48.8985453255192	-49.0138049270115	-12.5381225553682	-126.389757943571	
1549950000	-11.9314499938343	-131.540728762458	-50.1155810626019	-51.9305284936159	-49.8552120516123	-48.0004249598487	-12.5474029619275	-127.586627635291	
1550400000	-11.9326435349201	-132.744666293379	-50.497724926254	-54.1748838841866	-49.9907900335318	-50.8941054785761	-12.5530926430451	-128.873147459056	
1550850000	-11.9419331164984	-133.952854721641	-50.8723786740708	-49.4680611116213	-50.6000818300162	-48.477825647317	-12.5780891214698	-130.135123766834	
1551300000	-11.9234563384597	-135.057153908055	-50.7557904480397	-49.5180850203081	-50.2429564361071	-45.7725287644799	-12.5969448219035	-131.435839812522	
1551750000	-11.9330427136342	-136.465940360798	-51.4311726185527	-51.8111673970923	-50.2736361474164	-47.285985314554	-12.6159988401666	-132.652254604971	
1552200000	-11.8956114659867	-137.567233148355	-50.8832987472409	-51.8336465569925	-50.0333925037238	-51.3720516285318	-12.6450338840654	-133.927772668091	
1552650000	-11.8877712114517	-138.785686734299	-50.7922359503714	-46.0845331233426	-49.6421671534281	-49.2623979342281	-12.6616955286644	-135.234178986803	
1553100000	-11.8920983963956	-140.110795392285	-50.7794619646479	-51.5357667852606	-49.3732116085257	-48.3473361036493	-12.6928472741474	-136.426062508029	
1553550000	-11.890959518164	-141.35253914153	-50.6804742023887	-57.0668330438481	-48.2859274868811	-53.2138106517606	-12.7160534079948	-137.858312744415	
1554000000	-11.8802922716782	-142.685174303811	-49.4652706174277	-56.8649389809609	-48.6965810328748	-57.0194068896809	-12.7290203204576	-138.902804188315	
1554450000	-11.8633333380783	-143.910859290641	-49.7739226747276	-56.048884262993	-49.0953540145568	-56.0260601780649	-12.751349605043	-140.260675489021	
1554900000	-11.8686823644316	-145.197227354021	-49.6976338386958	-61.0073722842143	-48.2857440088917	-59.4802861212157	-12.7682274023055	-141.547597784561	
1555350000	-11.8806031604963	-146.592772423664	-49.0452675574323	-64.4982612400176	-48.6445886804284	-66.882443817864	-12.7940203754773	-142.800844231706	
1555800000	-11.8785657620646	-147.902125819343	-48.8701021828417	-69.9842307566534	-47.9153109267672	-73.1612383153027	-12.8261450049849	-144.222770777245	
1556250000	-11.8745593879831	-149.193462263326	-48.8415473524415	-72.4587008747448	-47.8107970990271	-75.0535859089082	-12.8416558740979	-145.499275959299	
