!Keysight Technologies N9923A: A.08.15
!Date: Monday, 19 February 2024 16:31:43
!Timezone: (GMT-05:00) Eastern Time (US & Canada)
!Model: N9923A
!Serial: MY52412730
!GPS Latitude: 
!GPS Longitude: 
!GPS TimeStamp: 0001-01-01 00:00:00Z
!GPS Seconds Since Last Read: 0
!CHECKSUM:1526691582
!Correction: S11(ON Q)S21(ON Q)S12(ON Q)S22(ON Q)
!S2P File: Measurements:S11,S21,S12,S22:
# Hz S DB R 50
1500000000	-12.9514016359188	1.23063820139861	-49.7544446575329	-53.9128630041509	-51.6585708136935	-59.0265075381527	-13.2299733089246	7.6798260916587	
1500450000	-12.9326806875378	-0.00758153190937919	-50.1808423317949	-58.8698757159901	-51.5401573376029	-61.3016006563659	-13.2081643666564	6.34852393661099	
1500900000	-12.93777428528	-1.08920325028315	-50.46133888988	-60.5874568894333	-51.9103767381655	-63.4713051931633	-13.190668197985	5.27974206136423	
1501350000	-12.8959612479509	-2.27853502907731	-49.9668640306314	-65.1040357674701	-51.3809959301611	-72.067915035481	-13.173635855088	3.95897607273447	
1501800000	-12.886161985137	-3.47199630737363	-50.1525408237754	-74.4140661769113	-51.0656694467512	-73.5625347209185	-13.1563550669182	2.73282000068453	
1502250000	-12.8623055478418	-4.69257138615665	-50.4089120886123	-72.5501574860219	-51.4572755597649	-68.8400077797461	-13.1377100886412	1.63294329687143	
1502700000	-12.8486347921045	-5.84379438328917	-50.4028180761484	-78.5775500760422	-51.5228293304924	-75.3735986933515	-13.1518668042224	0.315348180432657	
1503150000	-12.8319019012677	-7.02020356790925	-51.2675229797225	-72.885219607579	-51.9581006032014	-73.6696353494596	-13.1342131168075	-0.857153512818901	
1503600000	-12.8010009170163	-8.29786763723407	-50.6326182265591	-80.7400486852483	-52.6054633225033	-76.6639042860385	-13.1010371720244	-1.82977077919895	
1504050000	-12.7866326797657	-9.33153667489787	-51.3132318307315	-74.7531165257286	-51.926100747671	-81.4419229706791	-13.0829833233763	-2.98727584824236	
1504500000	-12.7560242420975	-10.6542790316738	-51.2642597294222	-83.502164441979	-51.8190589593638	-79.0912319983481	-13.0677461622207	-4.16655882786814	
1504950000	-12.754214565852	-11.7802327386132	-50.8473619262884	-80.1563153169941	-50.3929724646597	-83.5907814433841	-13.0453688375573	-5.25189327253881	
1505400000	-12.7254162829374	-12.937709725729	-51.112010346205	-84.4935529666467	-51.0686341932009	-90.5765059668976	-13.0266461640481	-6.44827557528582	
1505850000	-12.7223189765648	-14.1887603065695	-50.6037472965831	-84.0113636265252	-51.2454206893541	-89.8001763508479	-12.9823517885876	-7.45859299227279	
1506300000	-12.684789331995	-15.3102713027153	-50.4432015151946	-88.0727398531221	-50.930761176014	-93.6262718820017	-12.9571058731435	-8.60551047293107	
1506750000	-12.6776771640574	-16.5716022447555	-49.7924815118017	-91.3623506942291	-50.108283757815	-92.3131020954094	-12.9262605417058	-9.84922191308129	
1507200000	-12.6441139662823	-17.7382087238625	-49.9926940534181	-95.6657187385881	-50.4443800932657	-98.2410080718531	-12.9066306372095	-11.0011209874109	
1507650000	-12.631085098267	-18.9865178806238	-49.7248319892475	-98.7344316001885	-50.5604663668976	-101.557861522828	-12.8688432403363	-12.0389136577453	
1508100000	-12.6050648745902	-20.1736657651797	-50.2211161774651	-98.0790843189388	-49.4137382608299	-103.655210354861	-12.8657527753517	-13.1973111557393	
1508550000	-12.5744559995861	-21.2497122452064	-49.8039041126157	-101.303672295897	-50.3297980642278	-109.518852218049	-12.8251186814926	-14.4569745663495	
1509000000	-12.5265010819765	-22.5814257514648	-49.2532949996108	-108.938556247326	-49.6904824724547	-107.479271209405	-12.7981212130088	-15.5645124497544	
1509450000	-12.5228063268056	-23.6850947463987	-49.5423782857262	-109.300624752871	-49.9208279849526	-116.611317454159	-12.775972254506	-16.7286880212423	
1509900000	-12.4976425748178	-24.8966993020953	-50.2432794977271	-109.53998284165	-50.8127855394862	-115.314990109089	-12.7402215692023	-17.9549992000722	
1510350000	-12.4680258522077	-26.1760979075455	-49.7529393058226	-114.746074424606	-50.6889111659039	-118.136642880522	-12.7058252462706	-19.1241231956082	
1510800000	-12.4519704933415	-27.4363631866271	-49.3878254125585	-114.276396141493	-50.2628058582441	-124.199356935299	-12.6599751784246	-20.3548211273238	
1511250000	-12.4306678136332	-28.6194586160491	-49.7142212463044	-115.86138835568	-50.5338383068359	-124.342341271932	-12.64854585827	-21.6137055771597	
1511700000	-12.4259430210984	-29.8755761819277	-49.532247208559	-122.952823608649	-50.6773949185336	-130.761181105772	-12.6192420346588	-22.8924197419403	
1512150000	-12.4042012475103	-31.1393029598739	-49.1180904377289	-124.20211380812	-50.4590313384624	-126.439584830009	-12.6002168672902	-24.1045477517225	
1512600000	-12.3806548298883	-32.2810006186678	-49.2466552633184	-133.271760540969	-50.9892309914533	-130.198752813832	-12.572446240994	-25.2745720716948	
1513050000	-12.3659418874147	-33.4778558263764	-49.4879644301402	-129.545957546441	-49.638851476061	-136.250862653307	-12.5616773147013	-26.4659361936102	
1513500000	-12.3499741649474	-34.6633407233783	-48.838035979815	-136.43790429592	-49.8128098720741	-137.674282181457	-12.5565104595117	-27.6906059873604	
1513950000	-12.3348511830376	-35.7877501311113	-49.1278615245201	-137.531772682424	-49.4968342299032	-141.18902526992	-12.5336834203314	-28.9060211330605	
1514400000	-12.2985925025618	-37.0481508302035	-48.8535798737709	-138.817065890988	-49.8613425030491	-141.899516944311	-12.511505738059	-30.1125842947277	
1514850000	-12.2746630975106	-38.26236900964	-48.347094677138	-142.912614388476	-49.7317147331334	-147.360845750125	-12.5173775620359	-31.1706536818342	
1515300000	-12.263660393524	-39.496784753823	-49.1404821377333	-145.058995645177	-51.0513104347389	-139.728061673819	-12.4869260833815	-32.4250569361383	
1515750000	-12.2345439008862	-40.6466362964809	-48.6471437346998	-152.655703670442	-50.077926700679	-155.023402665001	-12.4589078293377	-33.6491953174085	
1516200000	-12.1958230052996	-41.9636691976798	-49.1904538291145	-151.995712923594	-49.9559491250279	-156.000690780477	-12.4459909318647	-34.8339995275039	
1516650000	-12.1901739845932	-43.2470935447048	-48.4380042245306	-157.005301529644	-49.6680812605979	-164.745809445771	-12.4198928895799	-35.9916125341062	
1517100000	-12.1684250853068	-44.6775107463051	-49.5379416817579	-160.297873470127	-50.0032714414226	-161.99643358487	-12.3943873163256	-37.0661741277246	
1517550000	-12.1604647242896	-45.8155000032421	-50.5723676348948	-163.75027449939	-50.3454415591766	-163.55103198309	-12.3835933249128	-38.3377284411892	
1518000000	-12.1570474989353	-46.9965804098369	-50.2906023659049	-167.175213860814	-50.7649681950738	-171.740183049652	-12.3541491829228	-39.5805377184944	
1518450000	-12.1566919974475	-48.2215473166493	-49.8927177157565	-169.733234547616	-51.0828046410654	-173.583159909776	-12.3124554460751	-40.805682432484	
1518900000	-12.1564089705324	-49.4819745196973	-50.6300325387669	-164.311478199326	-50.7416923001944	-170.835183372094	-12.2881893001343	-41.9373083768515	
1519350000	-12.1366080518233	-50.7760559986191	-51.1486361563796	-167.460538231885	-51.0252780977914	-164.986910326275	-12.2774096064845	-43.221122379419	
1519800000	-12.1372130837608	-52.1034605372227	-50.1390687782319	-164.037439094495	-51.5451655847705	-168.837369734309	-12.2447643867412	-44.477302513164	
1520250000	-12.1215872292525	-53.1998810979989	-49.8175572756541	-171.295603242244	-50.6487212431988	-176.773459970314	-12.2348054460362	-45.6328657216136	
1520700000	-12.1309669906715	-54.333802877614	-49.9704337017483	-166.602568437376	-51.3225991373838	-173.339975501633	-12.2287976420323	-46.9487389009888	
1521150000	-12.1043567587529	-55.5305024679807	-49.9284901788421	-173.068924696976	-51.2040508289129	-179.371058271238	-12.2027605174088	-48.2682654966181	
1521600000	-12.1004530483199	-56.7815478419244	-49.9402811210364	-171.627066217448	-51.0217793123159	-173.65330780158	-12.1921535563115	-49.4765487885075	
1522050000	-12.0895497559773	-57.9396517362817	-50.0877830063322	-175.892317271114	-50.9965389963845	179.230568846549	-12.1761792207059	-50.625030890343	
1522500000	-12.0715427087293	-59.1483615207994	-49.230097501626	-173.402320511215	-50.4528618000125	-179.403070273736	-12.1759317375378	-51.9603155508847	
1522950000	-12.0785077231351	-60.2230782039494	-49.4121176676563	-177.680881384816	-50.5608635616371	-174.982322456592	-12.1621461861537	-53.2725521640188	
1523400000	-12.0549346910239	-61.3850549010308	-48.8001202843632	-175.407183756446	-50.2584485821901	-179.938447917691	-12.1619014911788	-54.5529222110315	
1523850000	-12.0314838483235	-62.5411783245745	-47.8098810040619	-176.931470457243	-49.2706616871548	-178.97892638555	-12.137425050677	-55.8157387109266	
1524300000	-12.0338447285021	-63.739575682316	-47.8910967188769	179.368535046969	-48.5995160266124	177.755713444084	-12.1274010661388	-57.024527269233	
1524750000	-12.0152099984787	-64.9446005557479	-47.3839901843635	178.063802587946	-49.1163579019305	176.373779328562	-12.1287097948802	-58.4090983033785	
1525200000	-12.0013616153497	-66.104186757631	-47.0327220843911	179.791916964188	-48.2762656726909	178.778895073967	-12.1355272938885	-59.5516766990317	
1525650000	-11.9837199765641	-67.2847464992936	-46.8302030923359	172.62889347665	-47.3930787585173	176.555489159584	-12.1165454349976	-60.9640694569279	
1526100000	-11.9792991499959	-68.5843981457647	-46.5736055264486	173.225583809511	-47.6157149448989	171.426411665425	-12.114590607272	-62.3029758984474	
1526550000	-11.9720373356374	-69.7026766195879	-45.8373635923784	169.711595863094	-46.4428525164113	168.785634289908	-12.1146664435336	-63.4940490024215	
1527000000	-11.9691855579384	-70.8720426075813	-44.9099894351777	164.483802890566	-46.1553583477476	165.093671497636	-12.1372717902204	-64.7498846303586	
1527450000	-11.951133568355	-72.0493192385352	-44.418005573928	159.655117209275	-45.345197229497	163.335374405049	-12.1378075295251	-65.9715456797621	
1527900000	-11.9551307246143	-73.2353462135837	-44.1739258226919	157.043476454314	-44.9974611281324	157.906458244641	-12.1483748612381	-67.158986730065	
1528350000	-11.9304924045365	-74.4229809290347	-43.93350530127	152.784122984882	-44.6455250252923	153.128159056233	-12.1523425956199	-68.3741582567153	
1528800000	-11.9304350969992	-75.72609897368	-43.688869355009	146.228037379507	-44.395805791579	146.553190546856	-12.1811858032501	-69.5987317757398	
1529250000	-11.9217133799569	-76.9107745728818	-43.2167711470519	140.577471506488	-44.2945216757177	141.492992227327	-12.178688904037	-70.8530987214592	
1529700000	-11.9279556355919	-78.0128253873441	-43.1239225476241	138.063637944577	-44.0729193745325	133.803669166828	-12.1821235222564	-72.0415865052337	
1530150000	-11.8972270179438	-79.189793554841	-42.9325526034219	131.517101976325	-44.4268129132784	129.638712449964	-12.1807803698813	-73.2091528680572	
1530600000	-11.9026957134273	-80.321519129639	-42.9745462040031	127.549386265357	-43.8804940219252	122.184860829661	-12.1850031409337	-74.2856160072082	
1531050000	-11.8898435918418	-81.5661943229921	-43.1079572469198	120.827688310918	-43.7133629316856	121.798258710544	-12.2010215184879	-75.5830819588984	
1531500000	-11.8807464131673	-82.7582127439095	-42.9036535631786	118.309863646765	-43.4986199008899	116.096119880205	-12.1946629030444	-76.7746201825444	
1531950000	-11.8614711444764	-83.9706262486985	-43.2846331200578	111.536850631668	-44.0125533940645	113.07647353852	-12.212028105961	-77.9641236792051	
1532400000	-11.8648347252882	-85.1751701455621	-42.972162431573	107.609968933453	-44.0612982261818	107.640733666227	-12.2205276805057	-79.2564571315667	
1532850000	-11.8685504861415	-86.2434239632037	-43.2896999499284	105.098543749135	-44.0796402682734	102.364582134091	-12.2156527790832	-80.4449261619591	
1533300000	-11.8480072342987	-87.4784194485209	-43.3050970904897	100.348350666075	-43.8511004115263	102.514172258956	-12.222883433482	-81.583461785903	
1533750000	-11.8292872265248	-88.6817575386351	-43.5293876704767	98.0691816473662	-44.1218778433753	98.4514931061916	-12.2494923732346	-82.7222452018859	
1534200000	-11.8298395467573	-89.8616647301009	-43.3529093138562	95.3889243983527	-44.3801421574733	97.1094007802779	-12.2594734413499	-83.9742895503045	
1534650000	-11.8244756044599	-91.076972633928	-43.4381635456247	91.8197747191158	-44.0291992096989	92.4067072882555	-12.2629265062161	-85.1404600304194	
1535100000	-11.8136191357168	-92.2011676460686	-43.3566807531644	88.5430084605604	-44.4501618202295	89.3487140771758	-12.2777508740808	-86.3082904767294	
1535550000	-11.8172031087315	-93.5239803692197	-43.319727503234	84.5965938836534	-43.9378074259248	85.7547033040442	-12.2837852127478	-87.5385681666034	
1536000000	-11.8130162359403	-94.6435795518233	-43.475399780652	81.5207867679613	-43.8088045391474	81.7763484948258	-12.2905917719114	-88.7792260505032	
1536450000	-11.7929708735165	-95.7562402167405	-43.8043955802774	78.7885958645448	-43.9248366579931	77.9518920804351	-12.3192156531941	-89.8765593831848	
1536900000	-11.801279618378	-96.9988648199135	-43.3256946107289	73.4805116300962	-44.0757383555199	76.3436132651646	-12.3029456724416	-91.1904362200178	
1537350000	-11.7822536061574	-98.171457787227	-43.315830417466	73.1258134568155	-43.8522567116309	73.7076347339956	-12.3279276026221	-92.3107495970875	
1537800000	-11.7660011997283	-99.4371144503712	-43.6628692225182	70.0644303046407	-43.9674763364549	70.5958318763583	-12.3653140162696	-93.560036625901	
1538250000	-11.7805352845263	-100.627514904871	-43.8580844611654	65.2993617428855	-44.1473659580549	65.1765122488512	-12.3829725524792	-94.79908353186	
1538700000	-11.7650907270292	-101.859365061316	-43.4209058831968	64.9206501958414	-44.1550911507907	63.3300518738422	-12.4046859860046	-95.8281890664144	
1539150000	-11.764079477863	-102.998947526246	-43.4817153027708	60.8225865502476	-43.8851948831703	60.1084815610625	-12.4092350786517	-97.0220446743473	
1539600000	-11.7504862775791	-104.171126491121	-43.6168923116358	57.8587268445744	-43.9469669835039	56.0710060908931	-12.43849052643	-98.106764133167	
1540050000	-11.7565192015083	-105.497341686422	-43.7782812726216	56.8777537199646	-44.3823836424778	53.4402032576017	-12.4499822771793	-99.306577691096	
1540500000	-11.7547363839956	-106.843166586186	-43.9232781759251	52.5186967021945	-44.5091905416769	51.6654078112912	-12.4567100048495	-100.36730442094	
1540950000	-11.7527607110324	-107.903979469136	-43.5317004097719	51.1933649761264	-44.7163137563587	51.4332511937588	-12.4802855156811	-101.466459832192	
1541400000	-11.7554083912784	-109.089335561895	-43.6118591005847	48.9849571452161	-44.1748401062487	46.2040082689038	-12.4927551496213	-102.619391462269	
1541850000	-11.7298870762947	-110.364312201145	-43.2417794961122	45.932676355906	-43.6657854976393	45.3965778041127	-12.5024257205821	-103.768687044221	
1542300000	-11.724744412668	-111.59921353864	-43.3903464522315	43.1682127262747	-43.7581858565494	43.1623050156603	-12.5188984291783	-104.866713072032	
1542750000	-11.7367129803141	-112.80540903879	-43.0501453831773	39.4260365256853	-43.2485349671879	40.9759507938495	-12.5510667976049	-105.868218797032	
1543200000	-11.7379701720431	-113.967483927878	-43.0281122170383	37.7163648183869	-43.5240396088828	36.7349574209992	-12.5516716998569	-107.080068931817	
1543650000	-11.7394354168407	-115.197899238616	-43.1467346596435	33.9110714645526	-43.2266401033664	32.0250395414095	-12.5408763771994	-108.191896817758	
1544100000	-11.7272217623469	-116.347938050846	-42.7770639110397	28.5735386188524	-43.0834462749262	29.5924248361314	-12.5578074919059	-109.310064408765	
1544550000	-11.7341142283786	-117.65153083632	-42.5788061732259	27.6103150725611	-43.0888675059964	25.3732689970301	-12.5669247054997	-110.460913070583	
1545000000	-11.7278351892807	-118.798303067347	-42.6486343417292	22.1747115026208	-42.725639625542	21.5345341846533	-12.5800039378309	-111.672029945801	
1545450000	-11.7315714683598	-120.061639582285	-42.5353151682141	15.4868691582104	-43.0784596239018	16.4430203703976	-12.5713856876799	-112.832641564476	
1545900000	-11.7265050856823	-121.253636754085	-42.7732912416225	13.9121346507612	-43.206951319468	12.5832302478443	-12.6140622263395	-114.077039160466	
1546350000	-11.7321291164732	-122.460648430499	-42.5594071949002	10.3067551710798	-43.1710365397482	8.99973752562401	-12.6133659400089	-115.209459666419	
1546800000	-11.7143599397604	-123.666056779471	-42.6687108615267	5.06365695074776	-43.2055566661115	4.43115247915158	-12.6324009416344	-116.495123557615	
1547250000	-11.7228120558306	-124.9262418406	-42.9071426876975	1.81600232184948	-43.2033107836916	2.85140472630528	-12.6415757017507	-117.617686516319	
1547700000	-11.728810042363	-126.271866088677	-43.025247114456	-3.5864757241569	-43.7956794372027	-0.135601220225232	-12.6457558981255	-118.865919843449	
1548150000	-11.7362208108536	-127.410502526869	-43.2706205921259	-3.21325294340489	-43.4716077584084	-4.13875179496334	-12.6584805047107	-120.019818803589	
1548600000	-11.7425192169812	-128.567515056149	-43.5702433634905	-6.00589227819902	-44.1177792077417	-7.57331643133183	-12.6733005799613	-121.090962642222	
1549050000	-11.7438701669143	-129.912286086621	-43.6755700551187	-10.1125182594708	-43.7992322924054	-8.63311204039318	-12.684049025937	-122.409580385381	
1549500000	-11.7422748907558	-131.059556439805	-43.6496765269876	-9.98453923120434	-44.1813146876964	-12.3781725311183	-12.6888010476826	-123.50571230836	
1549950000	-11.7384134239851	-132.27988032166	-43.7958799321916	-12.9426445925344	-44.4025516118927	-15.61147565786	-12.7168266217599	-124.806480686505	
1550400000	-11.7538790471004	-133.520362288956	-43.9423276563885	-14.9234698931469	-44.4308202877816	-14.5625309252171	-12.7233273640523	-126.088479706629	
1550850000	-11.7532336060938	-134.697137527974	-43.8904236905873	-18.3471772090285	-44.2286599813742	-17.6035742343274	-12.7433124088399	-127.227066916391	
1551300000	-11.7486294140239	-135.890419522052	-44.1553665565474	-21.1842689478451	-44.4081471449139	-20.2545956485682	-12.7536217626558	-128.513878470935	
1551750000	-11.7488117854993	-137.246371272398	-44.3034913261942	-25.2450841023591	-44.4196766674654	-23.5230480891592	-12.7837582536371	-129.711451632332	
1552200000	-11.7404577353697	-138.400212403454	-44.0390161050243	-23.1205399155347	-43.9389207922982	-26.5950171996842	-12.8059636410444	-130.904450692336	
1552650000	-11.725616965933	-139.638614792694	-43.4573328521028	-27.0272873423796	-44.2033784619337	-25.9018019021773	-12.8144578795776	-132.129938497837	
1553100000	-11.7398961892206	-140.948616024867	-43.356722386011	-31.60620221972	-43.8965369483803	-34.0915886044365	-12.8501126613652	-133.33044172075	
1553550000	-11.731424167689	-142.206044258355	-43.9386092794688	-35.7717308282539	-43.9512328656342	-35.5678913097482	-12.8569765577794	-134.677574958975	
1554000000	-11.7342760645636	-143.506677293469	-43.3155012283878	-39.0417118012104	-43.8455071063465	-36.0180322638388	-12.8622214653074	-135.621244689146	
1554450000	-11.7226325128013	-144.720022111286	-43.5368125336869	-43.1713912094373	-44.0103210820032	-40.8063662842793	-12.8782201081148	-136.954342392474	
1554900000	-11.7460713577936	-146.07666765166	-44.134408216434	-41.4973155826653	-43.7702271646851	-45.1546475382432	-12.908990135734	-138.228005595196	
1555350000	-11.7568825506666	-147.381591011102	-43.520451499263	-48.4033752433581	-44.2914007685868	-49.4925560635282	-12.917089429612	-139.514338157216	
1555800000	-11.7558421047949	-148.660913865653	-44.0258707564456	-50.6460023331513	-44.2950802375175	-50.7024452966194	-12.9431175805614	-140.821256960394	
1556250000	-11.7645172303331	-149.9024125609	-43.8915749431339	-53.9848962384188	-44.4397825982687	-55.3289220945819	-12.9440512377023	-142.056561933588	
