!Keysight Technologies N9923A: A.08.15
!Date: Monday, 19 February 2024 16:30:08
!Timezone: (GMT-05:00) Eastern Time (US & Canada)
!Model: N9923A
!Serial: MY52412730
!GPS Latitude: 
!GPS Longitude: 
!GPS TimeStamp: 0001-01-01 00:00:00Z
!GPS Seconds Since Last Read: 0
!CHECKSUM:0931389618
!Correction: S11(ON Q)S21(ON Q)S12(ON Q)S22(ON Q)
!S2P File: Measurements:S11,S21,S12,S22:
# Hz S DB R 50
1500000000	-12.936651064677	1.23564605712757	-52.6071327474267	-60.3102468995116	-51.1248065115081	-58.6873499968131	-13.2332408542976	7.72834790987056	
1500450000	-12.9155132227557	0.0821122708322435	-52.7862815376474	-64.1373725365964	-51.3191362229861	-59.5946744461453	-13.2143413052813	6.32317484633222	
1500900000	-12.9092740726074	-1.14322265244898	-50.9491717838851	-61.5794859201805	-51.0504178112995	-64.253518770281	-13.1887472707312	5.2708149993278	
1501350000	-12.8832643910356	-2.27657267946265	-51.6166861673145	-64.8035425652704	-50.6220348820648	-67.2517362314444	-13.152034258884	3.90852166705051	
1501800000	-12.8643728539	-3.56167531816791	-51.3342164825865	-67.3777318090495	-50.8672872763755	-65.5972337782091	-13.1440099406443	2.71727402688113	
1502250000	-12.8445707973684	-4.76157087463745	-51.4353633614231	-67.4157210288142	-50.6999007634111	-71.1405605886288	-13.1414803837029	1.52189139315006	
1502700000	-12.824137332645	-5.96687730059092	-51.5456301437435	-74.3628947988725	-50.5469255015159	-75.996518736681	-13.1410406449182	0.254446152065743	
1503150000	-12.8027261985391	-7.10294367463797	-52.1070072385499	-65.490731085384	-50.919826799849	-79.3550084041121	-13.1237386012087	-0.910596601537714	
1503600000	-12.7877552192826	-8.29037812677602	-51.3944211088857	-74.4612279230972	-51.2177128348651	-79.2639665348266	-13.1105161627122	-1.98460148981377	
1504050000	-12.7658518033647	-9.54934460936967	-52.1073136123436	-75.4980125576116	-50.5920761263793	-78.364107116146	-13.070605605263	-3.0958413323633	
1504500000	-12.7377982030719	-10.8962209139257	-50.9620802608088	-81.9535244849504	-51.1529124520975	-82.4010755612206	-13.0664896726252	-4.25639663622998	
1504950000	-12.7230839789923	-11.9325434028709	-51.1634522613325	-80.7583774345964	-50.9380448744454	-86.6700511913876	-13.0482191832587	-5.36096733551154	
1505400000	-12.7035521148609	-13.0937218040549	-50.5499944282051	-86.1996062755093	-50.3698477942248	-89.3686490682872	-13.0227697895776	-6.47750841311528	
1505850000	-12.6883612602742	-14.3878445359097	-49.8900477756961	-84.7502312674799	-49.694245042005	-92.6657995635316	-12.9895738126121	-7.52258447950216	
1506300000	-12.6749733513566	-15.5488877897835	-50.5261845761318	-86.717813463183	-50.4158154816223	-89.8334937189148	-12.9756927656023	-8.62506966422005	
1506750000	-12.6556689263087	-16.7670979037048	-50.470018267037	-96.425911974457	-49.6733448919238	-98.2221564484509	-12.9345013809696	-9.74177933536888	
1507200000	-12.6334245353607	-17.9983746093393	-50.1786249148921	-99.5112575629193	-49.6867822826193	-104.120593956803	-12.9131874377064	-10.9372821561518	
1507650000	-12.6176776817681	-19.1242556189739	-50.0796784460869	-101.119950952908	-50.3111399341652	-104.443700832211	-12.8775458786379	-12.0260551305381	
1508100000	-12.6037601349181	-20.2630472117829	-50.2547346323912	-111.821830843846	-49.6970777221613	-108.488720978085	-12.8531498742699	-13.1814218045925	
1508550000	-12.5817429158178	-21.489758005182	-50.5738045074281	-112.995403578382	-49.954819179118	-114.240655497279	-12.8128208904353	-14.4360807988754	
1509000000	-12.5290488120542	-22.7318153638087	-50.2402578326189	-114.73470094327	-49.8584702285303	-114.243474526727	-12.7781788917538	-15.5551678881311	
1509450000	-12.513408805927	-23.9217378878485	-50.0804438958336	-114.101653328921	-50.2815990749043	-120.517109072411	-12.7684745256133	-16.6801240701645	
1509900000	-12.5020336416313	-25.0775249467787	-49.2195253101204	-118.882326339302	-50.2629315614258	-122.764827179796	-12.719774609593	-17.9410923116238	
1510350000	-12.4689801222121	-26.3654673323647	-48.88147553887	-117.486600041509	-50.3598496846952	-127.016587966517	-12.6962518211547	-19.0559076295568	
1510800000	-12.460026274782	-27.6605087649777	-49.806965822318	-124.016136104634	-50.3988777177638	-129.167122208448	-12.6570392192917	-20.377797904233	
1511250000	-12.428988566211	-28.8116667763695	-50.097209187899	-128.322552597656	-50.8111668362272	-130.678389329342	-12.6334591133925	-21.6327020214625	
1511700000	-12.431771856857	-30.0892069861507	-50.5759375227573	-135.771247043013	-50.6373116838347	-130.971030470921	-12.6105985392332	-22.8137953079787	
1512150000	-12.3976914370623	-31.2628534155585	-50.5234803751541	-132.682823337245	-51.048088754484	-132.249999643573	-12.5802801304842	-23.9880167467467	
1512600000	-12.3790778820846	-32.5189145098383	-49.8187930663537	-138.090013008707	-50.7359880243439	-131.811896837691	-12.5606952990439	-25.2788667406815	
1513050000	-12.364690433225	-33.679540990116	-49.9708327015827	-137.053141341986	-50.9638054371256	-135.672341824553	-12.5409479251673	-26.4343309618379	
1513500000	-12.3461148277108	-34.8907875867694	-50.0595019895386	-140.10709963235	-50.4013882635574	-138.012459883766	-12.5289727281981	-27.7184202360351	
1513950000	-12.326943858251	-36.0277679759311	-49.9924270910381	-146.741043937234	-51.2930704952338	-139.328464242665	-12.5115723235853	-28.9131842019625	
1514400000	-12.2984643765935	-37.1865750479264	-49.6654269545494	-143.965799575096	-50.4759574287001	-143.300820558339	-12.5107998449888	-30.1000918318638	
1514850000	-12.2789474829764	-38.4597691877754	-50.1399573290605	-147.202145315134	-50.67405619149	-137.326588411353	-12.4781407931819	-31.2678581317454	
1515300000	-12.2739615057229	-39.6226660670284	-50.5571609049954	-154.212143125495	-50.4464601867437	-150.840730226861	-12.4630982619193	-32.5022147557144	
1515750000	-12.2370560561768	-40.8335028448632	-49.6257755133433	-154.436198124405	-50.9904854309996	-151.170451503616	-12.4310726190243	-33.6706107796118	
1516200000	-12.2207896742375	-42.18988947305	-49.8959834676312	-159.651879942754	-50.7388864986378	-159.752309154365	-12.4372236127556	-34.8358385731024	
1516650000	-12.2076601327082	-43.4010607237567	-50.1022868805947	-160.844679491746	-50.8821519263147	-155.022562958658	-12.3940558902069	-36.0581389348327	
1517100000	-12.1852734512142	-44.7637537969632	-50.0570378128585	-166.56537443728	-50.1789208246218	-160.577613460053	-12.3642381037464	-37.1338288300464	
1517550000	-12.1722283262014	-45.9977702959725	-50.5182777967281	-168.614036152922	-50.8080124785843	-160.102782389227	-12.3614128932726	-38.3757695433105	
1518000000	-12.1668124435013	-47.213723230743	-51.1464614938111	-172.778674405004	-50.6867424261867	-168.72257537941	-12.3128722164063	-39.654106457608	
1518450000	-12.1562499797694	-48.3710175087374	-51.0805109815373	-174.160536090858	-51.1639179459449	-158.80120703986	-12.2926054647757	-40.9211916750201	
1518900000	-12.1530251658092	-49.6521207239129	-51.3120352656686	-171.516201422849	-51.4037195997401	-167.101852069886	-12.2705185885776	-42.1468791560285	
1519350000	-12.1547460201121	-50.9138210442322	-52.0128613864481	-173.702269968029	-51.5913725191804	-164.290389239904	-12.2394129810608	-43.3877006246976	
1519800000	-12.1461160164376	-52.0985681495508	-51.0937418540244	-170.492837705391	-50.8554009943838	-167.123915654827	-12.2377245749305	-44.6568941003288	
1520250000	-12.1275396858578	-53.3016783623861	-50.7336943783445	-171.53910788124	-49.8137801751475	-162.953875852535	-12.2125776192239	-45.7725762738195	
1520700000	-12.1293247844209	-54.51118636851	-51.8827273399049	-173.499199274001	-50.5626851060228	-164.705124802352	-12.2095683983975	-47.0425419533101	
1521150000	-12.1207936258516	-55.6455576010763	-50.5994172764562	-174.719352048111	-50.4778364041679	-173.952563338484	-12.1969853807197	-48.4597018442635	
1521600000	-12.1065010142583	-56.8283598325159	-51.9652792026663	-172.234024883061	-50.3834402713196	-170.951812153472	-12.1834175635007	-49.5800955086695	
1522050000	-12.0917047208973	-58.0877183556062	-50.4257536072186	-176.839928085099	-49.7791470273778	-173.85374520753	-12.1582513417167	-50.874645485831	
1522500000	-12.0897963103974	-59.2243419890053	-50.3552416657094	-178.399411907971	-50.1810570238895	-174.109287896879	-12.1815300292077	-52.1872480382972	
1522950000	-12.0859238155763	-60.3537032009249	-50.1154845434315	-177.185058819975	-49.7064871747538	-171.67862396691	-12.1603697526387	-53.4596498689338	
1523400000	-12.0720599250723	-61.4775072443425	-50.2248293890263	179.732052828802	-50.2194371768106	-172.838314156626	-12.15384037335	-54.6961064510494	
1523850000	-12.0505746591256	-62.6723793785698	-50.0744468958375	-179.493759381174	-49.1751599490301	-177.842254460891	-12.137383492568	-56.0016451801634	
1524300000	-12.0406035942555	-63.8185561525159	-50.1272685343589	-178.93465939729	-48.9497289307029	-175.120357153685	-12.1183150848542	-57.1939504738108	
1524750000	-12.0297732092436	-65.0340842872116	-48.9756852290202	178.149001946296	-47.8500448318262	-178.904990177155	-12.1215435585995	-58.6112157714687	
1525200000	-12.0068225615777	-66.2951362445214	-48.5587125906502	175.337101320116	-47.8353539258982	-179.653343199454	-12.1242143673218	-59.8021378124274	
1525650000	-12.0019852075433	-67.4215434564079	-48.1796495921314	174.332506669277	-47.2984276404753	176.927328226716	-12.1167992535898	-61.0820000573179	
1526100000	-11.9954673678546	-68.6647710440657	-46.9734420528564	171.734673221457	-47.4357905283913	171.877855409666	-12.1079808032042	-62.3916500611934	
1526550000	-11.9874130463906	-69.7771282611233	-46.2300535066812	166.461870633107	-46.0389386254859	171.14364986434	-12.1242647788161	-63.6138402131325	
1527000000	-11.987645843724	-70.9923212583047	-45.8330037066588	162.116591802802	-45.8626485641478	161.866026490168	-12.1413914701623	-64.9246201136402	
1527450000	-11.9769987735296	-72.0801363792365	-46.2730193155459	159.784786533453	-45.208643330192	160.689653097317	-12.1397142574098	-66.1355732651151	
1527900000	-11.979100599287	-73.3216553896193	-45.8896757602834	153.837582400085	-44.8983298610148	155.653757793908	-12.1552715768786	-67.3302821496145	
1528350000	-11.9642162610104	-74.4980387240372	-44.8695115222319	148.698873118419	-44.2453487131759	149.938699640358	-12.1624973930656	-68.5472241416121	
1528800000	-11.9644590813315	-75.7376190951973	-44.8703018213273	145.747944992119	-44.7958156393262	146.065186710778	-12.1875424265407	-69.765470258755	
1529250000	-11.9632445708788	-76.8666780716371	-44.2745647736402	139.24925965172	-44.4894184004384	143.20051686054	-12.1870061208053	-70.9172132441953	
1529700000	-11.9497702237513	-77.9850665212612	-44.2275626461227	134.473798410322	-44.1062408547207	134.875318881087	-12.199381874434	-72.1056474431057	
1530150000	-11.9197535995978	-79.1891152226857	-44.2268076392926	129.329201256581	-43.9890697832132	132.656582558185	-12.2018835708832	-73.2022303390008	
1530600000	-11.9278095273358	-80.2968582240691	-44.1824680662261	123.51239866508	-43.9567981990913	125.569367548804	-12.1955236443561	-74.3535536208253	
1531050000	-11.9137540836131	-81.4603474290061	-43.8694034104648	119.082164067469	-44.0820781762279	123.603347713894	-12.2142243225336	-75.6430448697901	
1531500000	-11.9064473068886	-82.646224960616	-44.1082823659876	113.740319623086	-43.913736141884	116.612058585346	-12.2080615629554	-76.8438136342585	
1531950000	-11.8881802691501	-83.8292855402703	-43.9897787096771	108.7422296192	-43.9390241010034	112.196364165564	-12.2309987923318	-78.0205068317799	
1532400000	-11.878509348781	-85.1090717683467	-44.4624084143493	104.974795714384	-44.0305069082035	107.966335842446	-12.2302699742615	-79.2657119774434	
1532850000	-11.8817514100997	-86.1571120441869	-44.2970024022651	103.512325947661	-44.1138274075126	106.161284760608	-12.2296529954728	-80.4529166203944	
1533300000	-11.8524620222093	-87.446753629572	-44.2113542178268	98.7794133993209	-44.4410518743287	104.256967446648	-12.2391594683159	-81.5720886476138	
1533750000	-11.8486063143188	-88.6591706296935	-44.3488296503089	95.1864580488004	-44.2472921523624	98.7202732312333	-12.262101431649	-82.7689588959394	
1534200000	-11.8434314277641	-89.8189975315609	-44.1106121419897	94.8273254776862	-44.3791213392032	97.6061198865964	-12.2682996304764	-83.895037031222	
1534650000	-11.8353944344737	-91.0002040775512	-44.5387989699832	91.503909960868	-44.4070248465726	96.2390085491726	-12.272072897325	-85.1738064942776	
1535100000	-11.8232908674573	-92.2270771896321	-44.7095961547273	86.4740706241708	-44.2057694188774	93.948901097821	-12.2791228662851	-86.3468073002784	
1535550000	-11.8306541677035	-93.5004317668979	-44.4980268432224	85.1455772616326	-44.3875063881186	89.8409510511005	-12.2968688759584	-87.5438923098751	
1536000000	-11.814748188091	-94.5994830325734	-44.4923269644462	84.0118100132774	-44.0503776707747	85.0155125499998	-12.295489885192	-88.717123939372	
1536450000	-11.8026802260358	-95.6738061817265	-44.4730845942501	79.1163178209109	-43.9531316117638	82.3149640672612	-12.3148607067645	-89.9846030748622	
1536900000	-11.8096690749688	-96.9602084743235	-44.3061613093582	76.4813129197904	-43.6582867410158	76.5547672619374	-12.329471959407	-91.1162586821173	
1537350000	-11.7957821544451	-98.1286613854348	-44.4403076350839	71.4296503940667	-43.5571614417855	75.1290713781765	-12.3442604552846	-92.3206738256078	
1537800000	-11.780370588064	-99.3577518206345	-44.1787268747785	68.4766777235952	-43.8085257602087	70.8288822220348	-12.3735570957995	-93.5125008489305	
1538250000	-11.7808386463546	-100.539137433186	-44.1995149108933	62.6034112350288	-43.9343302487371	67.0642399623517	-12.394915560619	-94.7398456229522	
1538700000	-11.7671557942236	-101.785984378362	-44.4484663772195	59.6269283100471	-44.438741356632	64.5871388139686	-12.4124219899197	-95.7798875462167	
1539150000	-11.7450737765823	-102.935385542222	-44.6451933908825	56.2911331423997	-43.7542818546146	60.0285181982991	-12.4317919428676	-96.9303779041217	
1539600000	-11.7422389378565	-104.185148713348	-44.5210043799892	55.878896655648	-43.9967802318177	55.5001166650528	-12.4590792263426	-98.065498668754	
1540050000	-11.7528628058047	-105.420037472515	-44.6307948019917	52.9702903151324	-44.3347513604018	55.8706271631799	-12.4578264426714	-99.2322783096142	
1540500000	-11.7463180098813	-106.679255473291	-44.6543874594346	53.7030354383818	-44.2791038229688	54.8472057308959	-12.487387353697	-100.361102389966	
1540950000	-11.7493854777445	-107.934696085088	-44.9431990713153	49.7965754840889	-44.325313724219	51.5199755176453	-12.5057609576717	-101.36428101027	
1541400000	-11.7480873521919	-109.086064609471	-44.4413516604077	49.6726764720059	-43.7026404602861	48.361844589344	-12.5142830315961	-102.54963387392	
1541850000	-11.729041709002	-110.385067743679	-44.3133678620587	47.8973784150384	-43.4824911832661	48.6106264329654	-12.5153453367979	-103.597727389385	
1542300000	-11.7427388550432	-111.613634693921	-43.9636489254421	44.418668318845	-43.7410323773375	44.9423690436495	-12.5279898010417	-104.670699960165	
1542750000	-11.7426697109654	-112.818930812762	-43.8653810425013	40.4180372658834	-43.2315468129301	40.7962079035638	-12.5580959256987	-105.70733400609	
1543200000	-11.7397227667971	-114.037588642923	-43.9146521946558	34.4179808900588	-43.0065042717481	36.5704281928633	-12.5517566702766	-106.926007823267	
1543650000	-11.7532173865895	-115.309833721365	-43.4855541070554	34.3392563091613	-43.1129842533236	34.1838803843381	-12.5627871393921	-108.047405823969	
1544100000	-11.7483977000857	-116.432357537518	-43.5513339943215	28.8328571285534	-42.8746483428776	30.2654762096429	-12.5727590156641	-109.194667411806	
1544550000	-11.762625644597	-117.741738427994	-43.2807588098369	24.2638140149628	-43.2297875181808	27.6184523789616	-12.5689491704172	-110.310377961227	
1545000000	-11.7464288579252	-118.807942108203	-43.029483557747	20.3448330164636	-42.6832304098476	21.3757669462172	-12.5951134134665	-111.586154639408	
1545450000	-11.765776095978	-120.065365581885	-43.2170900558987	18.6750842728094	-43.0459439443379	17.8304493543533	-12.5851890688923	-112.680191384406	
1545900000	-11.7605653119971	-121.244824095875	-43.0959045682723	12.9485841962251	-42.853127761345	12.5544519147728	-12.6056688318007	-113.904085846954	
1546350000	-11.7540765536605	-122.38840281698	-43.2463894836892	9.11810288601314	-43.0230732071469	8.33234068226329	-12.6256052440001	-114.999767452564	
1546800000	-11.751550503967	-123.58952545459	-43.1209030961166	6.48745199204154	-43.1185340390018	4.89492811452544	-12.6283215361496	-116.237776226156	
1547250000	-11.7605153135702	-124.874975277881	-43.3673040334284	2.52932669806405	-43.1145215907243	0.337806021902615	-12.6437470837773	-117.373396752855	
1547700000	-11.7561172577048	-126.101534800251	-43.1354132543252	-3.14648436856818	-43.3513499569922	-1.67348669543777	-12.635198639691	-118.641038989512	
1548150000	-11.7645838658302	-127.22106933071	-43.8104449762597	-7.18874218851473	-43.6056114177166	-6.4076888385501	-12.6503494898672	-119.768581268414	
1548600000	-11.7766885667553	-128.380327871188	-43.7851018485021	-7.13045357281455	-43.8655884670813	-7.10360699924336	-12.6679340622897	-120.932719011076	
1549050000	-11.7739039509501	-129.6875606107	-44.11979552212	-14.7527292151704	-44.1934300052073	-14.2732521723166	-12.6743022689066	-122.148608118535	
1549500000	-11.7596521428338	-130.830855403429	-44.5248760584647	-11.89955063279	-44.0629884666395	-14.2315486416526	-12.6826892689847	-123.361149584497	
1549950000	-11.7570126248809	-132.037079600326	-44.337482100506	-16.5943678251462	-44.2934517254594	-15.0372560149631	-12.7008596171376	-124.60910450431	
1550400000	-11.7618048398976	-133.283143632139	-44.3258350408229	-22.1777691696697	-44.7736551859598	-17.2081610868557	-12.6932852717719	-125.845204352493	
1550850000	-11.7702937602532	-134.518166479516	-43.9954538753475	-24.8620014786486	-44.4341903585558	-20.2166050650264	-12.7206465463722	-127.110849674885	
1551300000	-11.7605798460558	-135.652786177316	-44.9602854608144	-22.0044921456484	-44.1821463827598	-21.5473227915159	-12.7436147736879	-128.304030921607	
1551750000	-11.7572904544539	-136.961383131614	-44.5113787670578	-27.6151750644646	-44.531904848842	-24.7727842455317	-12.7431081257916	-129.560672788074	
1552200000	-11.7483324361017	-138.169029906889	-44.2032966390724	-27.724302405388	-44.4913422081427	-26.3133414785449	-12.7792401706444	-130.754596709784	
1552650000	-11.7338462284192	-139.375702196506	-44.7392079204416	-33.8162985785078	-44.2284448307937	-29.2752356446988	-12.7822192700961	-131.982228215802	
1553100000	-11.7398401095802	-140.683679467616	-44.2789106383685	-35.1343731095301	-43.9698575697924	-32.1810674481487	-12.81132901922	-133.21802985647	
1553550000	-11.743198897913	-141.938020343171	-44.5754738750261	-36.3287308500499	-43.8544389079438	-34.3416082428332	-12.837643354396	-134.552913060851	
1554000000	-11.7425831482889	-143.261688117632	-44.7022018078378	-39.6111831119975	-44.1655655859488	-41.3760259209894	-12.8386867579084	-135.613389969443	
1554450000	-11.7256877265227	-144.485877749049	-45.2139011763258	-43.5065403187101	-44.31323896675	-41.6480828141192	-12.8599329086627	-136.876980913906	
1554900000	-11.7342920747895	-145.796257137153	-44.8112741255053	-47.1288198576515	-44.1261271291332	-47.0587260241209	-12.8795404506829	-138.09085064893	
1555350000	-11.7473184976865	-147.169897346171	-44.5598626882782	-51.9106784840401	-44.3325119852057	-46.2591863082624	-12.9109098621283	-139.422091124124	
1555800000	-11.751601012818	-148.375844777821	-44.5629091324043	-55.3929244836827	-44.3878969328527	-50.7223507400868	-12.9298189354216	-140.737981663967	
1556250000	-11.7574507155203	-149.744911146521	-44.7900269506227	-56.9815711365997	-44.5585979626479	-55.3802795555099	-12.9415504443044	-141.940928724477	
