!Keysight Technologies N9923A: A.08.15
!Date: Monday, 19 February 2024 16:25:39
!Timezone: (GMT-05:00) Eastern Time (US & Canada)
!Model: N9923A
!Serial: MY52412730
!GPS Latitude: 
!GPS Longitude: 
!GPS TimeStamp: 0001-01-01 00:00:00Z
!GPS Seconds Since Last Read: 0
!CHECKSUM:1044931174
!Correction: S11(ON Q)S21(ON Q)S12(ON Q)S22(ON Q)
!S2P File: Measurements:S11,S21,S12,S22:
# Hz S DB R 50
1500000000	-12.9428073128985	1.07921863141638	-50.1596898706842	-61.1519632452275	-51.3847948281453	-66.650040291686	-13.2453659284164	7.6755018194357	
1500450000	-12.9303507870594	-0.0696271141477335	-50.2998472494217	-71.1488305933996	-52.2287043041204	-62.8515696182246	-13.2243445195845	6.28399788651318	
1500900000	-12.9194755589852	-1.2049671208675	-50.5199158990022	-69.6662188171512	-51.2348563382386	-71.3406285699861	-13.1982943943364	5.23699174958163	
1501350000	-12.8753176933214	-2.39883327577931	-49.5729895401688	-72.9184418699281	-50.8389359246187	-72.9045653475155	-13.1721175932649	3.96675316704263	
1501800000	-12.8617904289833	-3.54633519812631	-49.7882007472007	-76.0991578654316	-51.4560183126952	-74.9811138360617	-13.1480581640677	2.69035219205141	
1502250000	-12.8422373975335	-4.82480317451541	-50.1344351545862	-76.201348784768	-52.0480089512389	-77.4812980694974	-13.1342086877034	1.61198608214021	
1502700000	-12.8304789826442	-5.9900869332396	-50.0062409593409	-83.4741100649663	-51.4012679536586	-82.0829708584233	-13.1375711347719	0.196909660801578	
1503150000	-12.7999768203131	-7.13240063000379	-49.9878457734136	-81.938546396586	-51.2407846635361	-78.9052845010624	-13.1119973624634	-0.992271512076742	
1503600000	-12.7861526326945	-8.37429640946843	-50.4719766199533	-86.0050172041274	-52.232115193742	-89.8640581527322	-13.0823553011347	-2.08945011025363	
1504050000	-12.7617956574125	-9.63235086151215	-51.0412087326885	-81.8804598725777	-51.3293534689592	-84.6240214674095	-13.057977615153	-3.16036381288434	
1504500000	-12.7370923502435	-10.8912068587949	-50.9916431379138	-89.7987417346013	-51.4200169318035	-86.8760182816709	-13.0697254893295	-4.24978803660347	
1504950000	-12.7294662664278	-11.8566283833852	-51.271239682147	-90.75613346272	-50.9874243420643	-85.091794024929	-13.0439160131861	-5.42866488482411	
1505400000	-12.7066732301849	-13.1488742259335	-50.9394732085551	-93.3790238201573	-50.7262253860411	-86.8318311464217	-13.0199997979645	-6.52671997571476	
1505850000	-12.6930726675028	-14.4305874374927	-50.0690792973093	-92.6655976278974	-51.203033357616	-93.3399689774232	-12.9886227826359	-7.62276557585939	
1506300000	-12.6728651656554	-15.5709783146637	-49.4425766705533	-94.4143794672725	-50.7054347869099	-95.2458926276583	-12.9649827470651	-8.61295181850104	
1506750000	-12.6536800637596	-16.7863036093885	-49.3326416434881	-100.964866948156	-50.5283811619432	-99.4026155422257	-12.9317198469497	-9.75107979673392	
1507200000	-12.6128847985538	-17.9663829894342	-49.9308155627764	-103.460870142027	-49.3888203321209	-102.089559970902	-12.9054965819482	-11.0319412891303	
1507650000	-12.6011151621729	-19.0869933583824	-48.2727401889908	-112.18492602135	-49.7045446060527	-104.085780768867	-12.8562452988513	-12.1351885408875	
1508100000	-12.5851907305258	-20.3479519602042	-49.8342771801605	-116.203932413476	-50.2735272144384	-110.273235596333	-12.8447056691583	-13.2217473517101	
1508550000	-12.5608235220283	-21.5129369246954	-50.0310082398068	-116.915419562082	-49.69102256194	-117.428839982176	-12.7866976232096	-14.3721782947104	
1509000000	-12.5288508415582	-22.7533635959093	-49.803721220494	-123.048456663048	-50.2854654814592	-117.803590184727	-12.7678643079079	-15.6669564776893	
1509450000	-12.5000963894643	-23.9157041950633	-50.7208164183109	-122.006436151707	-50.352519482549	-125.389183034599	-12.7644283941571	-16.751867903641	
1509900000	-12.4691596587214	-25.1734919583078	-50.5366041640152	-132.134120023977	-50.0348212796541	-125.350928481251	-12.7161551568581	-18.1496429914627	
1510350000	-12.4555347904159	-26.4155331035266	-50.395529220108	-132.327910340971	-50.3813205983999	-132.467769239962	-12.6849967292569	-19.2492476385879	
1510800000	-12.4371010496398	-27.6515399335767	-51.0067221172776	-132.549532799175	-50.8628605782068	-128.775921600832	-12.6528976745411	-20.4425371542092	
1511250000	-12.4166179299724	-28.8745945186789	-50.3876287547632	-136.681661647162	-50.3313609032806	-137.178974659355	-12.6331085149128	-21.6962178083631	
1511700000	-12.4189852401149	-30.0027782192075	-50.4874276569588	-137.405184288812	-50.271707993013	-131.87268009471	-12.5881816180242	-22.9387540118544	
1512150000	-12.3957029243684	-31.3593170437069	-50.5212702909251	-139.297236069816	-51.0701702761564	-134.061886715262	-12.5756345999057	-24.1200641624157	
1512600000	-12.3633947112201	-32.492639687413	-51.0997786685587	-143.438029224016	-51.9238685602299	-144.256509703628	-12.5505754665738	-25.3388572095297	
1513050000	-12.3335973824145	-33.6540674387461	-50.8329171013719	-143.580509483858	-51.320329543291	-145.409565947613	-12.5330640608214	-26.5691828776312	
1513500000	-12.3352055745538	-34.852842455521	-51.0696800353378	-143.60091100475	-50.9324613186788	-145.355757103158	-12.5148746871668	-27.814140214351	
1513950000	-12.3028723101808	-36.1388315649593	-50.2209247744667	-152.964410177114	-50.9478113830901	-152.700056009793	-12.4954432876706	-28.9984953179885	
1514400000	-12.2788743508627	-37.3324137509314	-50.9595968865944	-150.99509341501	-50.6561050165654	-147.75853007429	-12.4827664470366	-30.236259716706	
1514850000	-12.2548856849263	-38.5857104000025	-50.8198838054838	-150.628809194235	-50.80080822141	-156.604586741433	-12.4877745634164	-31.2683202202685	
1515300000	-12.2583569641359	-39.7672345145575	-50.7859776202566	-154.064396784273	-51.0919108503006	-159.621896631195	-12.4459147954829	-32.5996099245724	
1515750000	-12.2099752413803	-40.9396122024113	-50.7190906428679	-161.437878072129	-50.6265811899601	-159.880171401971	-12.4270239327449	-33.801670264881	
1516200000	-12.1937861193665	-42.3125888121033	-51.0420867482912	-164.481235511297	-51.4113913140459	-165.450543868537	-12.417186140266	-34.9214987370689	
1516650000	-12.1847378734304	-43.4440658039612	-50.8479194035805	-163.449998114756	-51.5351637232504	-163.854929844072	-12.3843678315955	-36.0743425301552	
1517100000	-12.1606355735345	-44.8415159175602	-50.6426909590386	-168.466284735424	-51.7491656424515	-165.039921046155	-12.3616079017947	-37.2431927659547	
1517550000	-12.160008498754	-46.0710283659203	-51.7547502772367	-170.641110597421	-52.0078140159117	-172.631206674942	-12.3548892170666	-38.5378782468045	
1518000000	-12.1599299646026	-47.2248078453988	-50.7996178728546	-171.706461899689	-52.5544118749791	-166.908681750273	-12.305940657822	-39.7725814980024	
1518450000	-12.1519531908521	-48.4862256692023	-51.6818541637509	-167.221418472733	-52.0980250684928	-167.414811365734	-12.2941651059652	-41.0366206971566	
1518900000	-12.1467406948152	-49.6522915083792	-51.2028454837631	-171.089719035528	-52.3470310976412	-168.042160017144	-12.2528333184402	-42.2092565973196	
1519350000	-12.135569812098	-50.9525826712798	-52.482743539821	-170.977340853223	-52.7215989769198	-167.855916483183	-12.2435674474885	-43.5180172643898	
1519800000	-12.1352402320963	-52.2230360532688	-51.6920409066453	-170.038214856422	-53.031015418026	-168.496332750925	-12.2344645006979	-44.7962295463235	
1520250000	-12.1043710999981	-53.3970830999801	-50.4050589642231	-169.298864242985	-52.0729879480211	-166.85502549044	-12.2158075549772	-45.9399416050037	
1520700000	-12.1070797344293	-54.5496583271311	-50.8261390001106	-173.449083756054	-51.6071347309895	-176.527395450909	-12.2223461796929	-47.2283681818524	
1521150000	-12.084576578231	-55.6911124912959	-51.1401277147505	-177.011755816747	-50.6495804974683	-174.799677405111	-12.2078001605487	-48.6215257108599	
1521600000	-12.0810489501305	-56.9274738080539	-50.0050802795275	178.919099815026	-51.0831523930042	-174.926101427245	-12.1793179743151	-49.7640316183197	
1522050000	-12.070541813178	-58.1389646063997	-51.2504191946924	177.755007663232	-51.2424369697624	-174.280004913419	-12.1675107881162	-50.995822097871	
1522500000	-12.0593051939058	-59.3127094474683	-50.2205013873992	179.163261665545	-50.545247594786	-179.082012734274	-12.1800520241709	-52.2523366407495	
1522950000	-12.0654174251271	-60.486014558842	-50.6173981929074	-176.022580046869	-50.9060484831632	178.580296112876	-12.1678838957423	-53.5514277393907	
1523400000	-12.0426710320797	-61.6504739372622	-50.2700275331314	178.894975642586	-50.8960306101643	-172.869828829466	-12.1659958519979	-54.7744821820115	
1523850000	-12.0272594801832	-62.788511299482	-49.6737504705672	179.226598184951	-50.4995339416645	-177.961068440501	-12.1558390954053	-56.0728721640687	
1524300000	-12.0317600129405	-63.9341881039015	-48.9997443798531	-179.212026866393	-50.0210795659046	-178.99123228282	-12.1446567126626	-57.1923194585458	
1524750000	-12.0157932300854	-65.2683003678907	-48.9207727924491	179.751457290058	-49.9629662582803	178.815204326673	-12.1382769369724	-58.5667829991082	
1525200000	-11.9889439992025	-66.3566974239824	-48.2573384869557	178.675768413385	-49.1926414669927	179.361063645007	-12.1359799089456	-59.7658882075557	
1525650000	-11.9758319110524	-67.5024940445335	-47.8619477842222	172.532457315119	-48.7137943789939	173.063426035645	-12.1385756717275	-60.9935971008372	
1526100000	-11.9561249888958	-68.8680978252185	-47.108261315009	171.799067192254	-47.1733049327006	174.044750771084	-12.1122564128074	-62.2962185264429	
1526550000	-11.9573016343265	-69.8859338012819	-47.3380651322073	168.391713117349	-47.667538905187	172.631236022081	-12.1287524515413	-63.5678537883864	
1527000000	-11.9556012332165	-71.16389752732	-46.3135357504761	165.627172626529	-46.6979636156046	167.336948169418	-12.1455164393052	-64.8599604674514	
1527450000	-11.9528404345889	-72.3207719704647	-45.8805414999546	161.258990199861	-46.2248314153137	162.841930801248	-12.1302717814976	-66.0291121539734	
1527900000	-11.9492803663508	-73.481770846312	-45.0113917784547	153.264651499137	-45.9074314596383	157.311448280609	-12.153624626883	-67.2189942110723	
1528350000	-11.9415898476123	-74.71736538724	-44.476702837413	150.647803149868	-45.2245974630634	158.506562109188	-12.1585767460819	-68.4075122397135	
1528800000	-11.9337740499613	-75.9422258060703	-44.4469347785026	144.35525214569	-45.1638110330598	148.766747807337	-12.1724888179258	-69.6112766275116	
1529250000	-11.9275569253802	-77.0585395905323	-44.7380406820185	139.060022603279	-44.6694210477079	142.211150768547	-12.1808953472931	-70.8751855359709	
1529700000	-11.9313140176864	-78.2757580838116	-44.5258979735893	134.657562615593	-44.2103441228957	137.64375348976	-12.1948181897177	-72.0807624086188	
1530150000	-11.9128218128634	-79.3594009305978	-44.405534060299	130.319897932959	-44.4125290906448	133.708587925716	-12.1872560886231	-73.1501480514079	
1530600000	-11.9016838596184	-80.5047469878678	-43.9200932175292	124.94578632426	-44.5369813000482	129.688828222061	-12.1751374063974	-74.3840602683821	
1531050000	-11.9030621316034	-81.7287895676165	-43.8836907000458	121.040630091637	-44.0451655122668	121.59507752862	-12.2017713112126	-75.6518200481664	
1531500000	-11.8941673603236	-82.9094964841751	-43.8983704682516	116.08907543956	-44.3723650867515	119.883440697976	-12.2034130930502	-76.7491637035607	
1531950000	-11.8842559449593	-84.0975916846229	-43.8091994121797	111.315536337235	-44.3136755421435	113.263452597606	-12.2244050766943	-78.0451490976527	
1532400000	-11.8696298480664	-85.2986762428323	-43.659651578006	108.961498582478	-44.633503967864	109.235963773902	-12.2283827349716	-79.2606510007233	
1532850000	-11.8744170710964	-86.4266445352906	-44.1646322810631	107.006902735215	-44.5728207073806	108.024831718658	-12.2279944415104	-80.3549033454996	
1533300000	-11.8551140408518	-87.6795558489532	-43.8678019878172	101.012732955289	-44.2064566671161	102.601913564162	-12.2378663978971	-81.589692085442	
1533750000	-11.8471560955925	-88.7475467244332	-43.9671717318264	101.553870074489	-44.5498579127252	99.8042007427418	-12.262985408364	-82.7082867299716	
1534200000	-11.8356880998185	-89.9004346113027	-44.3914324878191	97.7225570703101	-44.5319427907491	97.4571675000334	-12.2685582285738	-83.866940514226	
1534650000	-11.8421710529894	-91.1547767931581	-44.0213773850718	92.8195950543991	-44.6609801175357	92.8643959190879	-12.2624367874185	-85.0168233704061	
1535100000	-11.8189288454875	-92.3511220700946	-44.0905798150614	90.2755875105843	-44.5390001523377	91.1244411452279	-12.2684345063621	-86.2038920708796	
1535550000	-11.8123267961973	-93.6044709269427	-43.9725861335623	83.5520508874471	-44.3203689602681	89.7263121189239	-12.2790336264376	-87.4608611174988	
1536000000	-11.81262651377	-94.7556385217076	-43.7400887131396	83.5035982269229	-44.4705064112261	84.945379720247	-12.2904220897494	-88.6160226653505	
1536450000	-11.7855120862887	-95.8930057709896	-43.5034373949449	79.3716068312202	-44.3735185795573	81.7623479545969	-12.3066493431085	-89.8545886537766	
1536900000	-11.8015439081962	-97.0938186532189	-43.5951867607094	76.3864845992853	-44.5233252282498	78.1075258992723	-12.3080068535309	-91.0931006245744	
1537350000	-11.7834196049041	-98.1671108652127	-43.5904629440876	70.8149893786117	-44.0396956764473	74.0134702593256	-12.3277302865859	-92.2141709821962	
1537800000	-11.769311172402	-99.4736779089817	-43.3615658575723	70.422933116622	-43.9249060034087	71.3279471880378	-12.352830425927	-93.4049809643551	
1538250000	-11.7922232021706	-100.690654393499	-43.6797884236253	65.958810318885	-44.4371750422096	70.6150938096026	-12.3683743069756	-94.7018978693173	
1538700000	-11.7716901781985	-101.984307721589	-43.7221511158634	61.8471611522123	-43.9084678497287	64.6656222976661	-12.392618190064	-95.8110916892405	
1539150000	-11.7585284334934	-103.065767157023	-43.6981694245189	57.9410342137013	-44.0579513960681	63.4160717031993	-12.4122457070331	-96.8750078597272	
1539600000	-11.7527647160123	-104.281667590348	-43.7865789655528	57.1496389321539	-43.9559318869871	59.4945713958923	-12.4411124360529	-98.1332557085303	
1540050000	-11.7446782954982	-105.425897197488	-44.0728287922576	53.5847879022896	-44.4365853829704	57.7053485256465	-12.4452383792977	-99.1760780635334	
1540500000	-11.7445684392782	-106.79111798	-44.1461121238494	51.1648099621349	-44.0927335076205	55.6669178981348	-12.4616039792672	-100.294652325211	
1540950000	-11.7399110761826	-107.992258090984	-44.0147506572437	51.3730586463969	-43.9521200441016	51.3410127944389	-12.4792999102052	-101.410434010771	
1541400000	-11.7484497359746	-109.159753225925	-43.4394559014472	44.9639573242361	-44.2171739477667	50.4323490038352	-12.4982850714424	-102.500896625319	
1541850000	-11.7249706921183	-110.435388615976	-43.3849822193183	42.9667053133889	-44.1053006482042	47.4154310698767	-12.4961641096855	-103.620748018445	
1542300000	-11.7327615520761	-111.679189752215	-43.3806533909136	40.8539977184176	-43.7680233233447	41.676921164218	-12.5118483295808	-104.74616285168	
1542750000	-11.7410397116106	-112.916941065381	-43.3350379447646	38.3273372262215	-43.3698606767253	41.3178944557056	-12.5283176797348	-105.850535531938	
1543200000	-11.7371038646898	-114.067972606866	-43.043533255899	32.948425836635	-43.3482032838508	37.0223374232564	-12.553661226413	-107.077272391632	
1543650000	-11.7452190481173	-115.277125346461	-42.8842029279134	34.4136158718443	-43.3731802997846	31.3632742620886	-12.5371719388791	-108.104500211618	
1544100000	-11.7320349904521	-116.4264744591	-42.9519729293416	26.6059397331394	-42.8749945092501	27.6115450696424	-12.5537858934538	-109.235895066328	
1544550000	-11.7515636842972	-117.64178207562	-42.7395734775353	23.9366675587863	-42.8802687715836	25.5981006508829	-12.5644645279306	-110.487208655905	
1545000000	-11.7467263659879	-118.820159858925	-42.7502896303869	18.5941621432983	-42.9957699912141	20.8374839766779	-12.573735518336	-111.659869978884	
1545450000	-11.7480372556356	-120.025202209346	-42.7568495864376	15.61756107644	-42.9140561262346	14.7197518013514	-12.5848942555118	-112.756166100095	
1545900000	-11.7354510747506	-121.251629860457	-42.9073717784582	9.85928777759096	-43.0865091902421	12.84621159882	-12.5920820895298	-113.975717005955	
1546350000	-11.7396676697863	-122.448209080277	-42.7617988911808	7.70141761682526	-43.2435724881857	9.4671041184964	-12.6155650555879	-115.063619081041	
1546800000	-11.7196913604707	-123.664483214747	-42.940221901227	1.88734655733701	-43.3002985377176	1.88616924928638	-12.618703049498	-116.322249416813	
1547250000	-11.7401901935656	-124.97920778309	-43.2504218289776	-0.933866098168284	-43.3437071962891	1.22818751479496	-12.6359474127354	-117.444496875602	
1547700000	-11.7243039111629	-126.180619231909	-43.1834852413843	-4.87712467327359	-43.5116293765374	-3.493870063736	-12.6345393581262	-118.692525787671	
1548150000	-11.7491187152423	-127.372414047259	-43.9427784400086	-7.31428346456364	-43.7389367327618	-7.02521287398981	-12.6534197382952	-119.833921489319	
1548600000	-11.7449531886416	-128.568351972865	-43.4744774930311	-8.75702990534995	-44.0969218058623	-9.71642291973826	-12.6657650990577	-120.897911942144	
1549050000	-11.7501594992469	-129.888176550894	-43.9669222642756	-11.6797099068924	-44.1928444220119	-13.292423369811	-12.67929856622	-122.121990120131	
1549500000	-11.7462306969807	-131.020117316017	-44.2549903995233	-16.3573234806619	-44.5499096162923	-12.9373344700864	-12.684058244473	-123.313714835058	
1549950000	-11.7501404050325	-132.32040653009	-44.086374645624	-15.210300580736	-44.7456398759094	-15.9155994044739	-12.6937121159651	-124.637900725061	
1550400000	-11.7525732689202	-133.536069285948	-44.6485721514834	-19.2792604045221	-44.6743187311006	-19.0015121870363	-12.7166981549638	-125.938422891137	
1550850000	-11.7690330194652	-134.648409532591	-44.2436727016111	-19.2092840923055	-44.4294607628547	-17.9544447579004	-12.7306378899027	-127.088820280314	
1551300000	-11.7589621414977	-135.876655035248	-44.3935687838835	-21.4871664747901	-44.4637870985932	-20.6610886344321	-12.7473315715642	-128.409672327277	
1551750000	-11.7643201975394	-137.14363316145	-44.114357069492	-24.4908859593958	-44.0409461902398	-25.0318980812161	-12.7618565759418	-129.52150633496	
1552200000	-11.7560938423772	-138.306734375173	-44.416811217033	-27.0680767757584	-44.109916961628	-27.2288958644339	-12.7944165334305	-130.719184456544	
1552650000	-11.7477227691374	-139.466948359381	-43.8511409292418	-29.3691044887362	-44.0845805747286	-29.4644776639212	-12.7870154524262	-131.904236975422	
1553100000	-11.7485461918801	-140.829365237077	-44.0091460840478	-35.2728489137966	-44.1141842696634	-31.8881956188795	-12.8199035525593	-133.133885710979	
1553550000	-11.7558532706965	-142.100547821241	-44.1457181314977	-37.1320950782721	-43.9970095356145	-35.8065766116882	-12.8434669903864	-134.544669829227	
1554000000	-11.7494586549587	-143.344588436466	-43.8838211417771	-39.1175206563002	-43.8309385298994	-40.0120646606184	-12.8486113661476	-135.543371190095	
1554450000	-11.7367356169443	-144.542462936488	-44.0110960729282	-43.3827390167254	-44.2083398837494	-43.7973703464072	-12.8580388595778	-136.826102989668	
1554900000	-11.7465870664375	-145.828274395782	-44.1541190119821	-47.4650513771274	-44.0615936551513	-44.6476025135518	-12.8855200056384	-138.064931567517	
1555350000	-11.752405650013	-147.210922336507	-43.6167509719009	-48.4911306738392	-44.3598519829629	-49.7696273105045	-12.8954684582835	-139.360555208133	
1555800000	-11.7563268980684	-148.477945233362	-44.0472431892476	-53.9870958655962	-44.0906103720969	-52.1123784951208	-12.9216377729787	-140.738375917584	
1556250000	-11.7496633681614	-149.74234091591	-44.0894298456062	-56.9558697393098	-44.5128615373209	-56.0915854519413	-12.9339115442671	-141.889303076805	
