!Keysight Technologies N9923A: A.08.15
!Date: Monday, 19 February 2024 16:38:07
!Timezone: (GMT-05:00) Eastern Time (US & Canada)
!Model: N9923A
!Serial: MY52412730
!GPS Latitude: 
!GPS Longitude: 
!GPS TimeStamp: 0001-01-01 00:00:00Z
!GPS Seconds Since Last Read: 0
!CHECKSUM:1800014717
!Correction: S11(ON Q)S21(ON Q)S12(ON Q)S22(ON Q)
!S2P File: Measurements:S11,S21,S12,S22:
# Hz S DB R 50
1500000000	-12.8045045277841	1.95451799320563	-47.2054426310104	-45.1351648282833	-48.1243337424931	-47.9587644577552	-13.2381739257607	9.8260060751522	
1500450000	-12.8001846397861	0.703144250934143	-47.0807637726951	-48.5231639227508	-48.3908407107462	-53.4936300002857	-13.2259656349684	8.51617163292212	
1500900000	-12.7867509527804	-0.447037851244299	-46.5789427804912	-56.8203093386906	-48.1810667333868	-55.8997204223761	-13.1809041566292	7.32731586658169	
1501350000	-12.751439851994	-1.72841927163699	-47.1081196341235	-61.0090164564515	-47.9924322634827	-60.2093164092645	-13.1414448354393	6.05753686779363	
1501800000	-12.7489520298145	-2.94314100767815	-46.8689810750523	-64.1335181238612	-47.7412979915752	-63.4595592561875	-13.1266279276465	4.95489967246981	
1502250000	-12.7192939642803	-4.28613464653196	-47.1222280938119	-70.3056872477793	-48.9058468306231	-63.0943228268061	-13.0891086385697	3.74530858943401	
1502700000	-12.7107113535306	-5.43918257191787	-47.0347195240881	-69.4085930692849	-48.1550872402983	-70.0966209369205	-13.0813675418406	2.52592677636811	
1503150000	-12.6786675430429	-6.6959022798668	-47.1876327897231	-75.4393609801789	-48.7920309133517	-71.0818285208529	-13.0518391934618	1.26657108721067	
1503600000	-12.6685214589657	-7.92523165898437	-47.4984934297591	-77.423278895288	-48.9649436347692	-79.1173267458666	-13.0086523224603	0.167204678997873	
1504050000	-12.6426059803475	-9.16552478238578	-47.7053787218725	-76.4613872446671	-48.7663346574368	-77.534101098403	-12.9758701370609	-1.03611938969169	
1504500000	-12.6318953812707	-10.4756210769229	-47.3897502331157	-83.5163981187321	-49.0672878345952	-80.7755121494798	-12.9639293973771	-2.26738845591986	
1504950000	-12.6196896981748	-11.6333134470479	-47.6508479427498	-83.455919559249	-48.8409524086459	-82.1845531337507	-12.9280256306433	-3.44521121789125	
1505400000	-12.6048556769786	-12.8205372130552	-47.6005683642065	-90.5594482911378	-48.8881424238358	-85.8504907309099	-12.899925700809	-4.59400233113167	
1505850000	-12.5805048428699	-14.1489854317952	-47.4422140166909	-90.0287816420133	-48.6943575503133	-91.2231963208229	-12.8597468201498	-5.83620709437965	
1506300000	-12.5772013495062	-15.3171928714184	-47.8845400315992	-93.5928829337264	-48.8036035720398	-87.5867878647204	-12.8401346633553	-7.01302586272578	
1506750000	-12.5676170356538	-16.6261002656506	-47.2103933987671	-93.0612277407781	-48.6040364593282	-91.5084416725803	-12.8071832928738	-8.13330628289239	
1507200000	-12.5387062581999	-17.8263025735393	-47.4160735627031	-95.83735432871	-48.8910560659152	-98.4602317040333	-12.7785867701295	-9.44205438086931	
1507650000	-12.5165578538739	-18.9229889002612	-47.0392654123318	-100.638306872708	-48.2111741899223	-101.56402043894	-12.7537000029374	-10.6732950694155	
1508100000	-12.5048826616053	-20.1482526658617	-47.3143427095457	-104.013917735311	-48.549550404449	-101.503386316164	-12.7318482260491	-11.7931154779502	
1508550000	-12.4853152709353	-21.4097226234941	-47.0328283439795	-110.072498995107	-48.154258045337	-106.132083519181	-12.6918923904757	-13.1139901694405	
1509000000	-12.4584016459861	-22.6144026397354	-46.9963429975417	-111.568181143884	-48.3682686066648	-110.872261691357	-12.6613188761079	-14.2943467342793	
1509450000	-12.4383380989546	-23.8224821557331	-47.4355706821554	-116.624103915057	-48.5431291398465	-112.344455872332	-12.6538873048477	-15.4274698297702	
1509900000	-12.4212318296902	-25.0671141771211	-46.7867856052088	-117.598290578817	-47.81679590352	-118.125407974578	-12.6141666391063	-16.7196779812952	
1510350000	-12.3970302148127	-26.2618500018486	-47.3891436168063	-123.081331802474	-48.724732656825	-120.501750939572	-12.5813812236566	-17.878923058176	
1510800000	-12.3882233615546	-27.6470574734578	-46.9341530203059	-128.512192416123	-49.1055101335213	-122.943694533959	-12.550463168934	-19.1953065212876	
1511250000	-12.3655919057905	-28.8180531512753	-47.359171912044	-126.573987409044	-49.1679634260415	-126.88010078585	-12.5287469923726	-20.4429692308517	
1511700000	-12.3701951515318	-30.0301866789202	-48.163380048455	-134.450827384482	-49.4270642652256	-126.79720078321	-12.5025421008432	-21.7010542850342	
1512150000	-12.3330088818387	-31.2633698523642	-47.7022494942665	-134.483955269334	-50.1203420433848	-128.292799829977	-12.4892489313357	-22.9081866505105	
1512600000	-12.3122197815306	-32.5920551835199	-48.0227268755007	-136.24478988842	-49.2559303839057	-132.274559777537	-12.4693917746193	-24.0818967213942	
1513050000	-12.302821072276	-33.7019909102513	-47.9630705435092	-138.66107291993	-49.6470856770776	-130.943108118099	-12.436182422089	-25.2511946436758	
1513500000	-12.3014951910787	-35.032248712227	-48.372269671177	-141.04196600609	-50.3887286615694	-134.022697387934	-12.4304012914291	-26.5200656148546	
1513950000	-12.2848297921626	-36.1210421942635	-48.2031402210749	-143.730131311874	-49.7597299771532	-137.047430384822	-12.4092943489584	-27.6832392812337	
1514400000	-12.2449379769311	-37.3684294280456	-48.4348442589426	-143.533191358358	-49.8431181674097	-133.864807756529	-12.3957277413696	-28.9684200667077	
1514850000	-12.2437237860224	-38.6551764983221	-48.3847510833669	-151.404430573187	-50.0468569730195	-139.024653357199	-12.3770486742423	-29.9929415120292	
1515300000	-12.2326788436973	-39.7999187074588	-48.0740984565188	-148.806658522485	-49.3720228265633	-138.223528039262	-12.3366116532673	-31.3684105372858	
1515750000	-12.2012584495719	-41.028173007729	-47.9042371747879	-154.232445748475	-49.4528005691127	-139.903488017165	-12.3080923953207	-32.6841569675625	
1516200000	-12.1781652803963	-42.2920397778279	-47.907841352222	-158.624928375584	-49.1173713798909	-147.622314171691	-12.296661506258	-33.8047186171718	
1516650000	-12.1746640518433	-43.5985069412697	-48.3948081260851	-163.168320417414	-49.1283967437734	-148.218104493303	-12.270081724076	-35.0656766220622	
1517100000	-12.1454131619372	-44.9227407928637	-47.8311766903977	-161.30446447745	-49.5527214798516	-147.876647232571	-12.2448014307498	-36.1771734050135	
1517550000	-12.1465744446585	-46.0858642182847	-48.5653803856134	-164.09191961001	-49.1259155424987	-152.558205963304	-12.2335448342538	-37.470417397805	
1518000000	-12.1388575936748	-47.289178116406	-48.7569626863562	-172.345626613274	-48.8061175341692	-154.8455593327	-12.1978004793051	-38.7398859716267	
1518450000	-12.135253001975	-48.4878932535049	-48.5404808697076	-165.395405876399	-48.4676394538143	-160.245198458971	-12.1696032561082	-39.9675242403497	
1518900000	-12.1233093207741	-49.770542532831	-48.2925879507605	-161.733964866633	-48.6262000047934	-159.301924221204	-12.1470083950616	-41.2746225749224	
1519350000	-12.1191460249217	-51.0517996699041	-48.3801208090542	-167.559298663643	-48.3723895932071	-166.854630394452	-12.1264002525611	-42.4937437714657	
1519800000	-12.1172937083561	-52.3336612831695	-48.6181886192327	-172.519145094667	-48.4933035510679	-164.901249865179	-12.106860869108	-43.7619051138276	
1520250000	-12.0947761849632	-53.4603733768411	-48.5315948818314	-173.809130339731	-48.6072600806484	-167.480200688635	-12.0883271945731	-45.0795458378641	
1520700000	-12.0930066413451	-54.7053129071421	-47.9943341187302	-174.900690893386	-48.3291452366968	-173.920628706854	-12.0823828975015	-46.3615391162453	
1521150000	-12.0849478384843	-55.8210485564097	-48.3928212586786	-176.545484578079	-48.7386830035057	-170.392066109102	-12.0599027373513	-47.7526943744124	
1521600000	-12.0761285741396	-57.0747758869046	-48.6711420929817	177.403391802411	-48.7134127760664	-176.35364085113	-12.0429526395406	-48.993574004137	
1522050000	-12.0634702706357	-58.3020866324575	-48.2372895473819	-179.232414985655	-48.5488020573817	178.511737861748	-12.0231801317051	-50.2084174950876	
1522500000	-12.0386995554463	-59.5523919320073	-47.989532317407	175.16967200819	-48.7332302965716	179.634470516199	-12.0380520011794	-51.5999490870727	
1522950000	-12.0487917668893	-60.6902348449651	-48.0104916966561	177.027095741587	-48.6806122202315	178.783169392435	-12.0310409977146	-52.8809826333184	
1523400000	-12.0459915351424	-61.8517873179381	-47.9094414831146	175.033342450171	-48.9025160422486	175.492753792252	-12.0289306040625	-54.2474015713824	
1523850000	-12.0193645022286	-63.0838844328386	-47.7805405553243	170.124103841474	-47.9549527155173	172.228969190565	-12.0222751485548	-55.5128559560766	
1524300000	-12.0068834920417	-64.2944066068892	-47.5424336002484	169.284740078731	-47.7456161690986	168.515524871814	-12.0088505304969	-56.7172438894932	
1524750000	-11.9959315723736	-65.4889797590887	-47.0080866058685	169.02247881785	-47.8569764800019	169.149149511433	-12.0069233690399	-58.0589264720019	
1525200000	-11.981274834082	-66.7278462696256	-46.8261029414067	167.026892699477	-48.1014206783274	168.075715373104	-12.018486124261	-59.3351912782125	
1525650000	-11.9699515563704	-67.9603212297642	-46.6219023391517	163.769890825164	-47.4933602424861	168.00237313978	-12.0023047704781	-60.6398848270972	
1526100000	-11.9583729496601	-69.2813587486537	-45.9611614305109	165.498237720016	-47.3629190415526	167.945295658571	-11.9979978904399	-61.8961416664599	
1526550000	-11.9710090779382	-70.3896596316075	-45.6911108560096	162.003917753353	-47.3402275038618	166.024014584885	-11.9978861738834	-63.2285260198567	
1527000000	-11.9499819368361	-71.6644550909018	-44.8164561107404	158.238884643633	-46.5623169868224	162.855368025726	-12.0155127867802	-64.5121324318801	
1527450000	-11.9437072552733	-72.8591896436877	-44.722201743018	156.452757802347	-45.8068215459387	160.670127968562	-12.025427732845	-65.7283085688215	
1527900000	-11.9522226067345	-74.0264558799728	-44.6493170454018	151.303332765309	-45.6994738052682	155.857353814586	-12.0362298655949	-66.9847133449084	
1528350000	-11.9427664082151	-75.1995410496712	-44.1150916097719	148.077684665602	-45.1993677654435	151.539902057783	-12.0420219119055	-68.1593424758884	
1528800000	-11.9383189058073	-76.4133580835407	-43.8612185596149	143.6478919086	-44.4488172650823	147.455454886761	-12.0634997938346	-69.4125946197748	
1529250000	-11.9382826231515	-77.7264256980736	-44.0090611661101	138.320021313383	-44.3283490018925	143.158394522342	-12.0782945117024	-70.6863332973985	
1529700000	-11.9394505014257	-78.8533255622105	-43.4903569838205	132.415646860102	-43.9711547967502	138.486795689777	-12.075128044074	-71.9009763850733	
1530150000	-11.926968433146	-79.9892727631807	-43.4890713070327	125.735605007188	-44.2973715192344	132.272703494998	-12.0904561977268	-73.049723197248	
1530600000	-11.9320601927404	-81.1076631976154	-43.37466191059	122.511757102903	-44.3103525246944	127.84580772881	-12.0864359228566	-74.1389769414464	
1531050000	-11.9119292664975	-82.4700809855577	-43.7469322912339	120.42986987896	-44.0630413133799	123.892076062185	-12.1015127089971	-75.4758086468772	
1531500000	-11.9222041317058	-83.6489200826486	-43.7618026567025	116.544963669072	-44.2145313755955	118.842986614378	-12.1077411878837	-76.6390405722233	
1531950000	-11.9080983196014	-84.8693323791683	-43.7857464787253	114.073272570784	-44.1464285733046	117.17088920061	-12.1360823857652	-77.8369868081663	
1532400000	-11.9061854409712	-86.0453659336697	-43.8982255188045	110.322381371153	-44.2654697621888	110.681440352788	-12.1257378972917	-79.0548617547329	
1532850000	-11.9125834851967	-87.1971276938868	-43.8908320023695	108.034055911415	-44.485364990791	109.023287545306	-12.1336323144553	-80.204818403214	
1533300000	-11.9054251596262	-88.4248834013676	-43.8781427495261	103.333724272309	-44.7659772329887	103.177823379366	-12.1333584550366	-81.4291715793889	
1533750000	-11.8956040370972	-89.5971938727104	-43.7844698568598	100.43228448657	-44.1441107609105	100.375099246441	-12.1507675797662	-82.5780753142484	
1534200000	-11.9054025648223	-90.8297250186686	-43.7355833643731	100.420163787023	-44.6649916448795	99.2305086814687	-12.1617305048767	-83.7516650438476	
1534650000	-11.9002958483827	-92.0476209017269	-43.8563671236683	95.3192852062602	-44.4789757835637	96.9974509830048	-12.1635251848334	-84.9621645535022	
1535100000	-11.8892861818522	-93.2498716284828	-43.1619458756848	92.2997450150972	-44.0945167354703	97.5006538382955	-12.1735885961048	-86.1703934949278	
1535550000	-11.8895253743948	-94.5184324094339	-43.5772854687657	89.6508218870663	-44.1581975491373	91.2344394558641	-12.1906479589503	-87.3099662575558	
1536000000	-11.8949947221305	-95.6295031392048	-43.1344258050001	88.9106693522031	-43.9470855359798	87.1053601085238	-12.1866011310184	-88.6043754921145	
1536450000	-11.8920234070731	-96.7061595186674	-43.1333044363192	80.9759271304561	-43.7728875609323	83.4919937638718	-12.211466889579	-89.7682654495853	
1536900000	-11.896068777038	-98.0149061446124	-43.0925369488189	79.6878885441924	-43.6245581629608	79.0235927726609	-12.2155432054053	-90.9968699922361	
1537350000	-11.8865791977095	-99.1075894196941	-43.0766813729071	77.9301956056739	-43.9740021065461	72.6504881284262	-12.229148097603	-92.2511549468151	
1537800000	-11.8836768098976	-100.301466048456	-43.4185938503527	72.5122379513355	-43.8640094245512	72.5846844479539	-12.2587701562536	-93.4205753862925	
1538250000	-11.9055050412586	-101.518477396699	-43.1472520808552	70.0320321575143	-43.936596248908	68.0688340155863	-12.2828448618947	-94.5689819454085	
1538700000	-11.8700657393322	-102.751604652726	-43.48497065395	67.7755087068416	-43.9750090472848	66.4511671009003	-12.3075264364421	-95.6749343134904	
1539150000	-11.8751056502775	-103.914765498814	-43.0503640343249	65.7302414505137	-43.7884876869707	65.3504620978084	-12.3214811729659	-96.8534797252239	
1539600000	-11.8742811643626	-105.089511084843	-42.7604692504116	61.4369432410447	-44.346562619858	57.6624180039753	-12.3327259558546	-98.0309999655288	
1540050000	-11.8831116396619	-106.262239569054	-43.0702981864812	58.9424760115719	-43.9865720831362	57.0264322464059	-12.3370479798086	-99.0867777575661	
1540500000	-11.8941069017963	-107.577615796954	-42.8109113283294	55.4568469795297	-43.7567163959469	55.6092600870913	-12.3445867836804	-100.297923140476	
1540950000	-11.890663467396	-108.775008927786	-42.844240460985	53.4962208832676	-43.8113148762307	52.9248002868841	-12.3543634632028	-101.29772128799	
1541400000	-11.8929548132888	-109.861230657254	-42.4487765441765	49.4258147717766	-43.6349523552668	49.9662244816603	-12.3610681236059	-102.59801114353	
1541850000	-11.8794718852497	-111.051990299154	-42.3095147804753	48.7755013531282	-43.3317980685704	46.4918178102941	-12.3828228078904	-103.655900139873	
1542300000	-11.8822256040867	-112.325121131756	-42.0221045103741	42.9591722847659	-43.1546482122487	44.8377137461798	-12.3869546147215	-104.784371201842	
1542750000	-11.8797220074448	-113.476489556568	-42.1934488412291	39.1862717008226	-43.1220301245237	40.1979495690558	-12.4146878807109	-105.891128233771	
1543200000	-11.8808235218371	-114.667435409233	-42.0943467213298	36.1565015186943	-43.1315877443587	37.6638666035987	-12.4164556393492	-107.162857893277	
1543650000	-11.8847913404101	-115.894521517646	-41.8493323278635	30.4459022985261	-42.8144113706838	33.2798207649815	-12.4164831322998	-108.256188654792	
1544100000	-11.8798518011739	-117.03927390748	-41.8957902987045	29.111351793033	-42.497640278244	31.949329276351	-12.4335205992695	-109.361390999987	
1544550000	-11.8886350744515	-118.273676939173	-41.9811012200751	26.1413840860899	-42.6432602612605	24.9566074929682	-12.4399646974814	-110.645222586028	
1545000000	-11.8922041902256	-119.416031175992	-41.9126694320014	20.8932023908982	-42.3781349947126	21.138382206634	-12.4479161228979	-111.803347708667	
1545450000	-11.8967071442994	-120.623431865953	-42.0507121096078	16.5176324718718	-42.1832394112619	17.8421879106316	-12.4478407145714	-112.888708408563	
1545900000	-11.8853093466147	-121.846347115442	-42.2967720761891	13.7011139430318	-42.6350685892998	13.9937429811779	-12.4761979279461	-114.079865205995	
1546350000	-11.8952669415602	-123.083854580986	-41.9148913260169	7.21422572949738	-42.6546818050733	9.34759020774643	-12.4607561436378	-115.330993639692	
1546800000	-11.881519297734	-124.274228620683	-42.2944630561778	7.31142774479679	-42.7213833193643	4.63810319069801	-12.4844598127156	-116.498727394519	
1547250000	-11.8877975504086	-125.513074558657	-42.5003430562668	3.66142384706037	-42.6749647231233	0.4345140641756	-12.4868127523938	-117.60731618516	
1547700000	-11.8948716469008	-126.727631830128	-42.2879239353576	-2.14119118237135	-42.9060501963936	-3.41478877340454	-12.4951254323194	-118.919761521813	
1548150000	-11.892710585426	-127.874193685077	-42.2612357722312	-2.44621985343847	-42.8619945473124	-7.58834504803325	-12.491336523638	-120.124875193216	
1548600000	-11.8999759239566	-129.130219572248	-42.571321602505	-7.77711207133206	-43.0961134345877	-12.9504774555722	-12.5084096720881	-121.287386799559	
1549050000	-11.9015159432739	-130.372188744532	-42.9713114137773	-11.0070099421161	-43.2780126853414	-15.2294215673999	-12.5128199996934	-122.576412642728	
1549500000	-11.8942978361695	-131.525704238103	-43.2200879247325	-11.766325845649	-43.9508113585393	-16.1025916019666	-12.5042358362875	-123.780506640875	
1549950000	-11.906835403038	-132.696232384571	-43.5006615744505	-17.3574927820662	-43.8470139966836	-19.4160882755126	-12.5272508032661	-125.111049507566	
1550400000	-11.9287532369283	-133.97477956537	-43.3929080660221	-17.562618839119	-44.0522130200022	-22.8467246607083	-12.5288149432835	-126.410147774496	
1550850000	-11.9233664922764	-135.122346797488	-43.2524526263153	-20.0297227383833	-44.103659605399	-24.9543366674126	-12.5504414346189	-127.712854968073	
1551300000	-11.9100615883655	-136.311854276703	-43.0995240342232	-22.5391231974343	-44.2021748976441	-24.3363130026203	-12.5713013880875	-128.909563230761	
1551750000	-11.9158283235906	-137.722668980172	-43.7806726680531	-25.2874783962786	-44.525918163485	-29.9650148785497	-12.5821375693484	-130.26343559191	
1552200000	-11.9063066009789	-138.799203847381	-43.2276429678246	-27.075372118423	-44.4881809662269	-30.3035641039078	-12.6135449233714	-131.534079183618	
1552650000	-11.911080896953	-139.993585597469	-43.4019618856407	-29.5878768499009	-44.3774954044303	-31.1737798550497	-12.6234433575742	-132.786369494353	
1553100000	-11.9155662460529	-141.244449328566	-43.2934339011633	-33.1436876188152	-44.5681138473372	-35.937403101091	-12.6582407139559	-133.995328969173	
1553550000	-11.9223006374735	-142.480855825491	-43.2273724603329	-38.1392401798082	-44.6860492813129	-36.0138763375108	-12.6725317810556	-135.370017348676	
1554000000	-11.9117826487195	-143.850561471257	-43.8083636888331	-38.2188416207817	-44.3999907676296	-40.0688869653208	-12.6866368528574	-136.381274939231	
1554450000	-11.8948640303024	-144.974944468707	-43.9256785813352	-41.4983703457419	-44.9773336832333	-43.7821709087459	-12.693173153374	-137.729629594775	
1554900000	-11.9170970600023	-146.286749895207	-43.3498468664781	-42.588842544697	-44.9917961235431	-44.8061810378021	-12.7210149563451	-139.142777936263	
1555350000	-11.9294961764656	-147.588344462537	-43.6372529240449	-47.9333425018345	-44.7787440768721	-47.4411585826098	-12.7313122364292	-140.475288331295	
1555800000	-11.9334262223375	-148.906780104124	-43.9729017647116	-48.3345908739256	-44.7368675639169	-51.1737373940392	-12.7591691844856	-141.848423026262	
1556250000	-11.9380921186478	-150.171647866784	-43.8490384963648	-53.1431705280302	-44.8638065280145	-51.7745777712602	-12.7854160197206	-143.1652015375	
