!Keysight Technologies N9923A: A.08.15
!Date: Monday, 19 February 2024 16:33:15
!Timezone: (GMT-05:00) Eastern Time (US & Canada)
!Model: N9923A
!Serial: MY52412730
!GPS Latitude: 
!GPS Longitude: 
!GPS TimeStamp: 0001-01-01 00:00:00Z
!GPS Seconds Since Last Read: 0
!CHECKSUM:1300869414
!Correction: S11(ON Q)S21(ON Q)S12(ON Q)S22(ON Q)
!S2P File: Measurements:S11,S21,S12,S22:
# Hz S DB R 50
1500000000	-12.9854333868753	1.13233516625444	-49.8383570649678	-62.0393022437622	-50.1780025792661	-59.9248008332528	-13.2156774896579	7.65828973166232	
1500450000	-12.9701696887437	0.0655999454132641	-51.4558299520752	-64.1260129138017	-51.0158095126005	-64.655969340019	-13.1905305454256	6.33492556312	
1500900000	-12.9620543764924	-1.14371156697754	-50.7604087446529	-64.036578306322	-50.6248359565902	-67.5119314763301	-13.1768190382108	5.18521025853031	
1501350000	-12.9302918645279	-2.32003776957981	-51.4193081763201	-66.7676882707971	-51.0664922051276	-71.5503078150408	-13.1455085922062	3.88220485647811	
1501800000	-12.9099087429452	-3.39517531712128	-51.6728288078118	-70.4937775243713	-50.7055567086984	-74.7691010398432	-13.131798609995	2.69119296629069	
1502250000	-12.8984806755528	-4.66774886871218	-51.3738980799788	-77.2994225394046	-51.5565812190505	-78.81931415209	-13.116511303769	1.5763657271227	
1502700000	-12.8784403577843	-5.74027294997359	-52.669173797367	-80.0112038498701	-51.3731519539764	-78.519778322428	-13.1154462428782	0.225084399475859	
1503150000	-12.8517209538066	-6.98253145503809	-51.4307844383614	-80.9102479181599	-51.687745138982	-81.5826835930096	-13.1048123558564	-0.992215703945113	
1503600000	-12.8191269672569	-8.15476120116269	-53.169385352462	-85.1327960013377	-50.6233715549247	-86.4738664485558	-13.0738215095624	-2.05392017261937	
1504050000	-12.8011569463069	-9.32141198523887	-51.8558003553839	-80.9274148617461	-51.9478650900794	-84.7185452947338	-13.064401054997	-3.25259868419783	
1504500000	-12.7729157708467	-10.6524756959559	-51.5234152887212	-78.0071060911042	-51.68272562756	-84.581868292179	-13.0604421624602	-4.37820453378082	
1504950000	-12.7572482323434	-11.6510937130491	-52.1676432355448	-81.0139121019485	-51.2959582645669	-83.8811492109143	-13.0396464082388	-5.51319681834258	
1505400000	-12.7313288917625	-12.8659037508511	-51.9295109960411	-89.446214587383	-50.7736507110117	-89.1211892503863	-13.0164882244396	-6.5994601132237	
1505850000	-12.7211192391622	-14.1057262248357	-51.8110047262174	-88.2920378038415	-50.2552226163431	-88.7450573655699	-12.9870274855301	-7.73492956976024	
1506300000	-12.6966628860925	-15.2935203747566	-51.8665167301133	-91.2104922918298	-50.3447762264447	-92.6736300644258	-12.9640303067296	-8.81858948137468	
1506750000	-12.6816217945472	-16.5453558867168	-50.7466625654973	-96.3000933591454	-50.0199069791149	-93.9843449504245	-12.943627620226	-9.91539702164339	
1507200000	-12.6454011773372	-17.7487836153528	-51.2738796457125	-96.0099544649751	-49.865679110584	-99.1193788966795	-12.9202412250011	-11.1480589788152	
1507650000	-12.634080207164	-18.8964589133801	-50.7455282799564	-98.9286508236613	-49.7145946056255	-105.790389162336	-12.8864656419005	-12.2408948358796	
1508100000	-12.608197895282	-20.0914453172593	-51.6902677410981	-99.1409046372966	-49.6511422343708	-108.725035024739	-12.8685820067674	-13.3009837912217	
1508550000	-12.5810620497113	-21.3360190571088	-51.1062974387498	-105.806480957751	-49.584808832683	-112.44256467523	-12.8128279424818	-14.4998442995997	
1509000000	-12.5482456522506	-22.5203906405219	-51.2393446732824	-103.268490618392	-50.0988678947931	-115.723159689208	-12.7943904332043	-15.7585994647132	
1509450000	-12.5222487196454	-23.6653242056662	-52.0454074637391	-106.63653627896	-49.72991288227	-123.401832375095	-12.7856357724817	-16.9280134076382	
1509900000	-12.4987829149795	-24.8776320340819	-51.2485698306885	-116.827374175704	-50.1745677897139	-122.126089855485	-12.7462724342554	-18.0831073005435	
1510350000	-12.4902088000199	-26.1979225149127	-51.7565580524784	-112.24075065169	-51.0730625085433	-126.142376645133	-12.7147720962585	-19.2799344973868	
1510800000	-12.4681919097015	-27.4189716553067	-51.8373599822101	-116.726584414034	-50.3840795259044	-130.918470197958	-12.6834899666368	-20.5163271240385	
1511250000	-12.4413079945371	-28.6216520287068	-52.1876227714383	-120.543225175681	-50.7850453808769	-131.528770937553	-12.6657398341529	-21.7758650230294	
1511700000	-12.4409919431677	-29.769971795198	-51.5632762523992	-119.074603474482	-50.7178946412942	-132.573688042045	-12.6441583114508	-23.0658139136553	
1512150000	-12.4178196550073	-31.0892830583878	-51.0913420139253	-122.275608817905	-50.5469065655606	-130.074544307599	-12.6176757194556	-24.2010358872584	
1512600000	-12.3886242020569	-32.2870983889432	-51.9046377661696	-130.561804583246	-50.6542590749776	-137.886260446141	-12.6018775440658	-25.4995359981724	
1513050000	-12.3794969226665	-33.4350009548265	-51.467618617055	-128.769439207117	-50.6343099519486	-135.816666596414	-12.588596623243	-26.5506418584212	
1513500000	-12.3620184815421	-34.7325608477179	-50.4351157651162	-126.493381477212	-50.6789269747236	-137.240839732963	-12.5761257455375	-27.7613024002615	
1513950000	-12.3402607161495	-35.8249345027806	-50.5445220596333	-129.017376987917	-50.9188205000954	-144.501023789749	-12.5593581292938	-28.9514798560195	
1514400000	-12.3182504272715	-37.1103931548248	-50.3675512067757	-139.151575797741	-49.9903460130293	-143.189506093121	-12.5499496067154	-30.1032291559583	
1514850000	-12.2988452786416	-38.220017195667	-50.8238102550725	-132.413703496519	-50.9365566486784	-149.611482790661	-12.5417432656243	-31.2897896698595	
1515300000	-12.2765154732249	-39.5208817891646	-50.2549167035031	-139.346055740209	-50.9804716229757	-152.071807613679	-12.5077547022673	-32.3929196229753	
1515750000	-12.2456484119195	-40.6666791343306	-50.8427562983171	-141.215619004911	-50.7639552153622	-147.655707274074	-12.4757826902086	-33.711500210393	
1516200000	-12.2261113198238	-42.0097684613645	-49.7080500072776	-150.85555516921	-50.5094970253223	-154.550146272639	-12.4685002819838	-34.8230695908899	
1516650000	-12.2042876947952	-43.233986362601	-50.2019071954516	-151.458701566137	-50.8232886389936	-156.755191691206	-12.4464386315593	-35.959906993207	
1517100000	-12.1820660285223	-44.5879305581417	-50.5465931723218	-156.720649705013	-50.451678628736	-157.966892116887	-12.4120913750533	-37.1175542142602	
1517550000	-12.1825977689443	-45.835709842809	-49.845374780964	-154.977794291373	-50.2443531757639	-163.268681449234	-12.4066521023908	-38.3706765313741	
1518000000	-12.175782622006	-47.0933265416023	-51.0992521476678	-161.91835213875	-51.3815852240035	-167.027364072493	-12.3724773873828	-39.6077366456964	
1518450000	-12.1709305108275	-48.2140987783353	-50.4076380230876	-162.236856104289	-51.2022533979502	-168.527726497218	-12.3514969641496	-40.7709218893885	
1518900000	-12.1794250487414	-49.5165856128626	-51.5720705923542	-159.650563468139	-51.5292995805115	-165.581415297194	-12.3131149929817	-42.068642692221	
1519350000	-12.1682720439864	-50.7890866791933	-51.0223605934332	-156.332180603951	-51.0142331366759	-165.810908461592	-12.2961563341596	-43.2400139455392	
1519800000	-12.163720810256	-51.9750553398132	-51.4466802859125	-166.902634330125	-51.830072794638	-161.515277871822	-12.2807174164201	-44.4645942577295	
1520250000	-12.1426076750157	-53.0171262998336	-50.3716011872841	-159.261441203441	-51.5807003914984	-168.589971435055	-12.2697111409574	-45.759653804197	
1520700000	-12.1436132311444	-54.2054991792184	-50.5204305818032	-161.675278011317	-51.3187045494788	-165.478214484763	-12.2616333157388	-46.8971907150371	
1521150000	-12.1185373513807	-55.4554578564176	-49.9452124719013	-168.520164765945	-49.75336088254	-170.327666097986	-12.2314875881227	-48.2983529807026	
1521600000	-12.1020952676636	-56.6806421286441	-50.4000020989339	-166.768566761209	-50.5966012381983	-169.403063050729	-12.2227768546365	-49.5258087104583	
1522050000	-12.0978906223039	-57.7619425458721	-49.6838582804151	-165.959730813796	-50.6315450079884	-169.411681058167	-12.2014127471026	-50.6090617876607	
1522500000	-12.0745565066657	-58.9753673138069	-49.6968463081005	-169.345747933341	-50.0746261245908	-170.971053892815	-12.2069829239362	-51.9912841820496	
1522950000	-12.090170631415	-60.1307912490657	-50.1860343096696	-168.605983997217	-50.4703232763231	-177.213058585218	-12.186611139938	-53.2236530762935	
1523400000	-12.056762946392	-61.31424331297	-49.7098639729022	-170.589235957187	-49.2591115252853	-174.134709201924	-12.1826847772121	-54.51736442899	
1523850000	-12.0331289403017	-62.5027853466955	-48.5635759481694	-168.902268997895	-49.109742582751	179.497872355482	-12.1651496285793	-55.733702272654	
1524300000	-12.0312913309129	-63.7091574643071	-47.6637351100574	-175.379267541668	-48.8321309275739	-174.203517186074	-12.1536869004823	-56.9682464504378	
1524750000	-12.0127280874525	-64.9130475648393	-47.8460870914362	-173.347228861687	-49.1360921677695	176.352431697724	-12.1354088306468	-58.3597112173677	
1525200000	-11.9942525452551	-66.1599385048017	-47.4514276453964	-177.810735143307	-47.582795991865	177.923961184716	-12.1466445872694	-59.6179162850797	
1525650000	-11.9827847959927	-67.3326000316309	-46.8556166547625	178.327052958093	-48.0767902878914	173.622028233534	-12.1299240712368	-60.8858978767763	
1526100000	-11.9694745410518	-68.5820393906863	-46.2353051931857	178.121443761927	-47.5943344131071	175.855221943877	-12.1273408199988	-62.1960528447346	
1526550000	-11.9668182979678	-69.717856640671	-46.0012237550894	172.278922728275	-46.5627223523863	172.444972271226	-12.1466605634919	-63.524914368803	
1527000000	-11.9680690765475	-71.0139049803963	-45.3567727586876	167.782161999191	-46.1660195264746	170.885811793626	-12.1565489717297	-64.8235042296278	
1527450000	-11.9584015125639	-72.1442303842735	-44.6377902786886	165.932355825118	-45.3742789816964	159.22739118617	-12.1508878575198	-65.999150721466	
1527900000	-11.9558041238815	-73.3529068699124	-44.5012802356581	160.833341274956	-45.225083676653	158.072701938653	-12.1682334218262	-67.2078997555539	
1528350000	-11.9505005690369	-74.4734979620167	-44.126881417615	154.008158185995	-44.5725742611273	155.090746900611	-12.1705672675788	-68.4109788861164	
1528800000	-11.9435255715814	-75.7534640692092	-43.728080956673	149.876562021336	-44.6586564423338	148.723040856431	-12.2026005427352	-69.6607792871426	
1529250000	-11.9326384599112	-76.8818586976127	-43.6770382654934	143.628421548716	-44.41442184689	141.927437305932	-12.2013905637175	-70.9178293652798	
1529700000	-11.9306393332698	-78.0449681547218	-43.5159461031461	137.939938795697	-43.9784877820268	135.977757678297	-12.211789517659	-72.0487032740811	
1530150000	-11.9140474677498	-79.2751154303033	-43.415311690798	135.095864530915	-44.1392326409662	133.956495419746	-12.2030512192113	-73.2286966549503	
1530600000	-11.9058998295688	-80.3849590526949	-43.5172992005583	129.969338420828	-44.4010085509897	128.648210194664	-12.2025352702422	-74.2771373724846	
1531050000	-11.9025494036034	-81.5361353028022	-43.305911354086	125.503359256034	-44.1857336308818	126.503358109254	-12.2247752025624	-75.6117724549996	
1531500000	-11.8847341184544	-82.7850787549619	-43.0357012864584	119.057351551579	-43.8583095469051	121.940690634477	-12.2238758404274	-76.8170283262931	
1531950000	-11.8767558198707	-83.9356716818096	-43.3220029517846	117.790668076295	-44.0465610163023	114.714768549456	-12.2489032087868	-78.0562825095632	
1532400000	-11.8770457328897	-85.2326023693411	-43.3873403998305	114.329390820381	-44.0543737954959	112.714849624177	-12.247632401414	-79.2204695264465	
1532850000	-11.8784222190469	-86.4105060742612	-43.2750464994612	108.364897930459	-44.0927844923696	107.738113316228	-12.248228006889	-80.4544758661201	
1533300000	-11.8549430103427	-87.5531896078621	-43.0688023733184	103.97705965528	-43.8177436176043	105.963134055189	-12.2586402001475	-81.6356593650706	
1533750000	-11.842399636345	-88.7933404119218	-43.2393190332894	103.475054311765	-43.9345722248609	103.313953394807	-12.2750544588519	-82.7688962935546	
1534200000	-11.8490861908361	-89.9404897670159	-43.5980864160208	101.096516969972	-44.0426921645215	101.970869723467	-12.280182165237	-83.8620385868686	
1534650000	-11.8409236548914	-91.2160059605201	-43.5328774090187	96.6918675469351	-44.1944135005488	96.2724188534881	-12.286129619024	-85.1574786839265	
1535100000	-11.8355452422564	-92.4177629550402	-43.0661812334528	90.8337515449376	-43.8016935565711	94.913252441879	-12.3087030282922	-86.2611737259974	
1535550000	-11.8364604061227	-93.6208942050728	-43.1514820940326	87.4089611630294	-43.9985439097997	90.2092499586413	-12.3073111644207	-87.5112093835143	
1536000000	-11.8356658651029	-94.732959491053	-43.4505561813386	84.4104615643833	-44.2514113076548	85.4690908085194	-12.3216154372283	-88.6701696420501	
1536450000	-11.818001833235	-95.810303441473	-43.1745982255098	81.9620934021981	-43.7838924560529	82.9236109295392	-12.3354966074474	-89.9517707556402	
1536900000	-11.8243139283899	-97.1154845943276	-43.0642040935567	78.4099442406731	-43.7817062715499	77.8602264254055	-12.3419736453921	-91.0520199723659	
1537350000	-11.8109821640043	-98.1844213443022	-43.2311942158208	75.3638869561069	-43.8448089816959	77.9376308171992	-12.3583937462308	-92.3362776608696	
1537800000	-11.8051761667826	-99.3857178746586	-42.8769644238188	70.9159006588843	-43.9274546529738	73.1827168164107	-12.3850361379554	-93.4613538031494	
1538250000	-11.8130227709326	-100.658886072919	-43.3682601075369	68.4117635875555	-43.8844509569801	69.9268687842988	-12.4032501341466	-94.7676796152362	
1538700000	-11.793492236779	-101.841461661304	-43.4114312141687	66.1775787318739	-43.9376934064526	64.2653485604964	-12.4331312180625	-95.7574683330127	
1539150000	-11.778280734665	-102.982226512531	-43.2746282659023	63.8472400036622	-43.5114542132926	62.5017770888384	-12.4558197307396	-96.9897339217517	
1539600000	-11.7651653338025	-104.189134134579	-43.6669107896062	58.761926241933	-44.5002269299823	59.8895170438142	-12.4682344550231	-98.0772997087591	
1540050000	-11.7709843530344	-105.454456821975	-43.2141643754522	56.8357373156945	-44.0990905328887	56.1482250707814	-12.4782131319649	-99.1822528164554	
1540500000	-11.7642795718732	-106.728894971809	-43.6439477751029	53.7730613007347	-43.8629372433803	57.0425774028926	-12.4960538303371	-100.350563558478	
1540950000	-11.7514879844512	-107.963459122586	-43.8033803360754	53.3277198893585	-44.257186055151	56.7142567033334	-12.5284315774806	-101.398353823981	
1541400000	-11.762129626095	-109.083819870907	-43.3827984263303	51.5120043170444	-43.7848969383454	51.2920581235975	-12.5281171336313	-102.550526064354	
1541850000	-11.741051753524	-110.35315988455	-43.2974040724524	47.9839078198618	-43.8071758050466	48.4195317790221	-12.5351363393207	-103.674210986647	
1542300000	-11.7425596612152	-111.604553035838	-43.2104278947533	45.4557480442586	-43.3136344153442	47.3988348779948	-12.5576363879115	-104.781409933981	
1542750000	-11.7383091996529	-112.83511138401	-42.7861290128067	41.300670285145	-43.0607216955915	42.7511135509744	-12.5757224176779	-105.789942390092	
1543200000	-11.7385350309222	-114.097065409745	-42.6044407482791	37.9985703545776	-42.991494699411	41.002625796895	-12.5884174884275	-106.985239898811	
1543650000	-11.7483617608095	-115.244714727634	-42.6224689507869	34.6683302778399	-42.7265844723196	37.2621864978383	-12.5824218466535	-108.083219424979	
1544100000	-11.7428623029408	-116.406926087551	-42.6799873353937	31.5415098503121	-42.8147429513674	31.6255177960128	-12.60994781186	-109.139509384116	
1544550000	-11.7696972892715	-117.705482141282	-42.3650265158341	25.5877413876561	-42.9382564863055	30.190921801258	-12.6023005950326	-110.383223456341	
1545000000	-11.7516478157169	-118.860743451267	-42.3462618213148	21.8112455925615	-42.7895923893333	26.5929590136753	-12.6158009631673	-111.55921043975	
1545450000	-11.7497810776344	-120.087791391544	-42.0759832064723	18.4493932163532	-42.8473254848749	18.4736374570249	-12.6064263319404	-112.536786059217	
1545900000	-11.7411783414463	-121.296805077349	-42.519379135378	14.0164739496785	-42.7010683978269	17.6595342898076	-12.624245337437	-113.836285745119	
1546350000	-11.7559721568421	-122.565266301532	-42.7579019131413	9.30540170677687	-42.9572597505251	14.1407760066696	-12.6438649108777	-114.940390747604	
1546800000	-11.7514531914877	-123.677530565081	-42.471790808314	6.49595212464109	-42.7925167273203	10.7489265145116	-12.6533095079486	-116.154250654573	
1547250000	-11.747148663783	-125.06008624092	-43.04259618597	3.33501615020713	-42.9784894364331	5.03242303723731	-12.6624834958643	-117.272726678591	
1547700000	-11.7580563954542	-126.279493291642	-42.8124059260468	-1.74982021580221	-42.9569570678043	3.95580285410893	-12.664180181379	-118.554024843722	
1548150000	-11.7697272162437	-127.380747093486	-43.0619197550343	-4.54802159564305	-43.3449755374414	-1.11299125631661	-12.6756141364297	-119.728546230512	
1548600000	-11.7805645355248	-128.566035578436	-43.4401365061983	-8.56597838016606	-43.4916592767519	-3.73140191194997	-12.6859605033422	-120.83735971955	
1549050000	-11.7767084431652	-129.829837945396	-43.4449028934129	-8.40448571504755	-43.4762238307604	-5.20581557454267	-12.6912155537782	-122.05915604228	
1549500000	-11.7727235074723	-130.963504142267	-43.6466412564026	-10.2988227919723	-43.6898105558394	-9.86222259779667	-12.6991938657791	-123.195305586363	
1549950000	-11.7748088185526	-132.226564658101	-43.3605808057696	-16.5379226264581	-44.0194730481355	-11.1068671722113	-12.7071805252269	-124.51142535111	
1550400000	-11.7930981542532	-133.444593987575	-43.8797645576633	-17.4463116564331	-44.0734584516756	-16.3558972908355	-12.7047850937321	-125.738087445479	
1550850000	-11.790510977923	-134.582003182485	-43.6146586461939	-18.2155606141494	-43.6822477466441	-16.3206641194498	-12.7207816936139	-127.016965499496	
1551300000	-11.7846299823159	-135.817144957178	-43.6884331859675	-19.9350466667451	-43.7652727106719	-18.1910372913484	-12.7525550881626	-128.279023467943	
1551750000	-11.7799852260334	-137.07260176707	-43.3691976674529	-23.4018370655202	-43.7993408833327	-20.9511110203736	-12.7564798553377	-129.375833291848	
1552200000	-11.7678818532861	-138.243676870345	-43.1751060991578	-24.0946121169397	-43.5520684190178	-22.9786413171464	-12.7790228050213	-130.669007438461	
1552650000	-11.7557467800515	-139.450269937732	-43.5194435985341	-28.0344704169437	-43.2923923369818	-28.4355357688106	-12.7824748043233	-131.90730990758	
1553100000	-11.7575000808012	-140.709131977923	-43.7159254811702	-33.5304303773237	-43.5552963316274	-30.6995842027705	-12.8170340270374	-133.145527243008	
1553550000	-11.7666078374588	-142.002358855362	-43.6310163734501	-33.5802566697809	-43.4580450527036	-32.1290671474218	-12.8369619903442	-134.543942069249	
1554000000	-11.7564507208414	-143.375315497323	-43.7853832637889	-41.049827109232	-43.7165146522805	-36.4368289331936	-12.8447666761672	-135.521992047541	
1554450000	-11.7438410192516	-144.503897944742	-43.8287900358757	-41.3263137098643	-43.4111901538319	-39.4303499373645	-12.8561850174559	-136.905472152482	
1554900000	-11.7545155838386	-145.839093658319	-43.9593703430971	-42.4176871906097	-43.9492112346533	-42.1039997435146	-12.8880852371639	-138.203510163159	
1555350000	-11.760424762969	-147.172708789516	-43.7497558938067	-45.8641655485312	-43.6083402722819	-47.3412121903236	-12.8877091563753	-139.489845038483	
1555800000	-11.7710278194493	-148.511649886431	-43.7057873532401	-50.0579485031995	-43.5367432061911	-49.2491348772265	-12.9405838631177	-140.798431994907	
1556250000	-11.7676701197437	-149.773891101585	-44.0382224463442	-53.1643119373265	-43.793255779166	-53.1794052136035	-12.9319596950448	-141.97198854136	
