!Keysight Technologies N9923A: A.08.15
!Date: Monday, 19 February 2024 16:27:29
!Timezone: (GMT-05:00) Eastern Time (US & Canada)
!Model: N9923A
!Serial: MY52412730
!GPS Latitude: 
!GPS Longitude: 
!GPS TimeStamp: 0001-01-01 00:00:00Z
!GPS Seconds Since Last Read: 0
!CHECKSUM:0031122548
!Correction: S11(ON Q)S21(ON Q)S12(ON Q)S22(ON Q)
!S2P File: Measurements:S11,S21,S12,S22:
# Hz S DB R 50
1500000000	-12.9618679940895	1.33857780608316	-51.0525335757377	-65.1932409321866	-51.4636995957154	-49.7662309596512	-13.2224601697596	7.7160784915906	
1500450000	-12.9504195852205	0.155552960376289	-50.9475598880583	-73.8094623602808	-51.7089847980383	-48.7317390725841	-13.1997045891492	6.34508960492816	
1500900000	-12.9434505821337	-1.02266720413069	-50.8131039297176	-69.109142035383	-51.0840694112007	-54.6890919306164	-13.1630283460793	5.21491152968433	
1501350000	-12.8921727756208	-2.20020916108237	-51.3023455865671	-71.1292918990647	-50.739073430246	-61.5129683198699	-13.1549875759078	3.95774532765449	
1501800000	-12.8698827692523	-3.37481122573513	-50.8279066992648	-73.5166199005981	-50.5612443653784	-61.4759613985322	-13.1317271447609	2.73398936379163	
1502250000	-12.8556328440112	-4.65258824279754	-50.9444942975873	-77.8702779915544	-50.5501554094129	-70.2553398094286	-13.1132365291031	1.61056003160709	
1502700000	-12.8439800754359	-5.84079456043384	-51.7902594091355	-80.4937118534143	-50.5796889662363	-70.7768886308895	-13.1161878841347	0.28996914205878	
1503150000	-12.8103111788281	-6.98354855053391	-51.8614663399779	-79.7053937547013	-51.4632541773172	-68.0065304510025	-13.0825956776644	-1.00444670812834	
1503600000	-12.7921064416287	-8.24544798482984	-52.0281958186132	-87.817644857448	-50.743599667999	-72.2980001629046	-13.0720233224356	-2.0575592646101	
1504050000	-12.7741839628074	-9.40818674768877	-51.3072062481235	-91.5738688910708	-50.8261939505017	-72.7592335824596	-13.0462095449397	-3.18566466717309	
1504500000	-12.7602336038374	-10.6813576852598	-51.5719782949091	-88.297149258876	-51.3170936205896	-74.4009434732091	-13.0264107949039	-4.37783400781737	
1504950000	-12.7447415847924	-11.8075142830874	-51.0825655388663	-89.0628200272052	-50.0288712119378	-80.0976002347739	-13.0149486667387	-5.48100643303442	
1505400000	-12.7149145536738	-13.0288596410403	-50.7615672858792	-90.8320637638627	-50.2544905832735	-87.237521309259	-12.9922586120735	-6.5921095069022	
1505850000	-12.6991461630526	-14.1930113246441	-50.0320876945284	-95.4027644864798	-49.5114323218697	-87.8073582680392	-12.9702574025379	-7.73504799924421	
1506300000	-12.6737030059671	-15.4084011091224	-49.9900932347252	-98.9775509359911	-49.2351834725036	-92.8820386681566	-12.9395128368998	-8.7884308483914	
1506750000	-12.6589278267265	-16.6277102319814	-50.0480551595137	-103.833636169396	-49.3420742450468	-97.1657797192008	-12.8960050408594	-9.97849453239465	
1507200000	-12.6322020623659	-17.7682095339521	-50.5748959982174	-109.516645633538	-48.9796678246429	-101.272856121353	-12.875742870342	-11.1532977250864	
1507650000	-12.6179068031987	-18.9802118409322	-49.8996932887826	-111.945974489841	-49.7459066082067	-106.083895159276	-12.8512210118916	-12.256286437705	
1508100000	-12.5851024318625	-20.1872419930679	-50.4446646617572	-117.987565075244	-49.8637489759969	-110.327762760143	-12.8311428134138	-13.5309605341259	
1508550000	-12.5626938285124	-21.3406464808788	-49.9143542871663	-118.605108979607	-49.7486809411225	-115.637652016102	-12.7846023206519	-14.658202729831	
1509000000	-12.5193519188879	-22.5609773186843	-50.6768380871904	-128.616599617239	-49.7138701715432	-116.908412421309	-12.7704647838084	-15.8185067130645	
1509450000	-12.508557120821	-23.8091658415432	-51.0327961010219	-126.043289898998	-50.0917282024104	-121.406399520491	-12.7559494987458	-16.9468965322963	
1509900000	-12.4887238527992	-25.005463884014	-50.3542775273211	-128.186660031014	-49.4851927424568	-124.022138516772	-12.7166462309981	-18.2475474712798	
1510350000	-12.4729943715053	-26.2741681596723	-51.5560401616821	-129.75908347236	-50.9438761695795	-129.887476733203	-12.6890135254612	-19.4070896460417	
1510800000	-12.4486398036944	-27.5607744082532	-51.491953648738	-129.0590930331	-50.0784046889311	-128.468210194622	-12.6563705209082	-20.5746466416373	
1511250000	-12.4176430300726	-28.671725888425	-51.8519286029025	-132.94975163958	-50.4741059503035	-130.843437890536	-12.6309432130546	-21.8681159119408	
1511700000	-12.4086426191655	-29.8718014668768	-51.6256331487992	-136.865777772304	-51.4203569787128	-137.821489946511	-12.5998674272032	-23.2109214833377	
1512150000	-12.3900060568829	-31.0490373413493	-51.3328000815032	-144.381423059023	-51.4864915995386	-136.723291323351	-12.5837360418446	-24.3389236474864	
1512600000	-12.3703019973499	-32.3125764876849	-51.7379928073466	-135.726147200037	-50.8343666474743	-137.715747293794	-12.5546169222382	-25.5484558170675	
1513050000	-12.3475747418521	-33.5067961456955	-51.9441491323795	-137.466529624895	-51.0788597606602	-137.79363949251	-12.5358073560672	-26.6867138364526	
1513500000	-12.3213898829169	-34.7159937991624	-51.8472038663471	-137.790325252042	-50.973748208023	-138.038105606357	-12.5208637049238	-27.960563536755	
1513950000	-12.3054539158678	-35.8799615659546	-53.3104778811025	-144.141940472485	-50.3047646574872	-139.182930336822	-12.5177233789149	-29.1627192946348	
1514400000	-12.2767688120176	-37.1629472930627	-51.1097074753429	-150.183353348084	-51.0389109090486	-144.71824403342	-12.5086443180493	-30.3390922171793	
1514850000	-12.2476916437286	-38.3760979269537	-51.5848092822752	-153.542914988615	-50.2270677953724	-144.826163147137	-12.4988489370207	-31.4692097992485	
1515300000	-12.2289778298248	-39.5407006012878	-51.4873949932104	-149.237560138595	-49.9791224318591	-147.23077770516	-12.478077586922	-32.6755942996371	
1515750000	-12.2102390949823	-40.7694933173689	-51.276035264351	-157.687369117693	-50.8367962444171	-157.825594901397	-12.4538213769216	-33.9502850792191	
1516200000	-12.1883259901367	-42.1967566431955	-50.5785785731825	-154.016487353392	-50.5620474564651	-149.787624835349	-12.4428856936814	-34.9625135040283	
1516650000	-12.1656732733653	-43.3736779848658	-51.8182432957709	-164.495631959028	-51.0727566940669	-160.056233620952	-12.4160643417453	-36.2714135041508	
1517100000	-12.1451880661515	-44.7966211039889	-50.9059144806852	-166.208652207157	-51.5823907093558	-160.980277958422	-12.3880542368558	-37.3656148084625	
1517550000	-12.1375526190274	-45.9571658000652	-51.3053981314048	-161.557194986001	-51.0057378333393	-161.983197059763	-12.3676648397748	-38.5575940156228	
1518000000	-12.1465098832026	-47.2557712513377	-51.9624041398958	-163.982000260653	-51.4132996386791	-166.712748992401	-12.334567672485	-39.847106318869	
1518450000	-12.1237970641796	-48.4521886709399	-51.5954468331975	-166.917252123783	-51.6509708676283	-160.189365313037	-12.3165499455981	-41.0591120655541	
1518900000	-12.1321030040658	-49.6807351370703	-51.229502256737	-166.273132620391	-51.5656046507576	-164.679063953177	-12.2917659636884	-42.1814331075314	
1519350000	-12.1267157982717	-50.9698733691594	-51.4415080056534	-170.223371425237	-51.5437091702498	-165.37271656305	-12.2649045481956	-43.4371134320674	
1519800000	-12.125842589365	-52.2520446093685	-51.1328358383077	-170.215298815362	-50.4155871644414	-169.070057650137	-12.2584614500343	-44.6817956572257	
1520250000	-12.1107971704087	-53.3755677388844	-50.6704671399279	-173.778298982953	-50.8119597161656	-163.296023862542	-12.2464689601445	-45.9434487576242	
1520700000	-12.0957270500428	-54.5256037115487	-50.6771845105499	-173.947850112221	-51.1587199355943	-168.923838179576	-12.2408825532887	-47.1731425614814	
1521150000	-12.093948840326	-55.6986251156027	-51.1569299157374	179.876450444293	-50.3515838621832	-167.3931902464	-12.2238630057894	-48.4921356993467	
1521600000	-12.0894859607019	-56.9523941027887	-51.1188715527735	-179.223263701862	-50.5481077845345	-169.387563322535	-12.2083069274818	-49.7042332667319	
1522050000	-12.0704997332927	-58.0805962317349	-51.5168985446994	176.10055600151	-50.8189567228384	-170.995842336341	-12.1944815202971	-50.8147642797925	
1522500000	-12.0635204661888	-59.2731140068892	-51.5811066815492	177.64696361858	-50.0618717584464	-176.060875771827	-12.1891827797587	-52.133572751062	
1522950000	-12.0569348496673	-60.4322812829566	-51.2665108671392	177.35677767079	-50.1672440074306	-173.855099883425	-12.1801762012072	-53.4347442894514	
1523400000	-12.0519745924345	-61.6354384200864	-49.753725804819	-178.500996895862	-49.0129074082186	-177.32513862192	-12.1723997407247	-54.6796259959765	
1523850000	-12.031186194255	-62.8088047206436	-49.8877867536701	179.286425601952	-49.3856167381107	-172.62075569757	-12.1598295359117	-55.9237270582557	
1524300000	-12.0277463441272	-63.9532116494201	-49.5955111213586	-178.012295690982	-48.1853943643256	-175.757532469896	-12.1439720232644	-57.1095009463356	
1524750000	-12.0162798147295	-65.1668911174612	-49.1331204042907	178.024766247894	-48.1399152630328	178.441838634053	-12.1367048671657	-58.4581963907433	
1525200000	-11.9884880622929	-66.4182807610275	-48.2607587115973	178.929458494987	-47.8550239513426	-179.009169448443	-12.1384177066293	-59.6413222935206	
1525650000	-11.9813978770591	-67.5431231739365	-47.8547736925335	173.224950677436	-47.3941186937931	174.651663914178	-12.1218495338365	-61.0322328768085	
1526100000	-11.9801931604581	-68.8213986135743	-47.0328777661349	174.564561318038	-46.4287111895928	168.858365653516	-12.1122803982771	-62.2864453164468	
1526550000	-11.9763084685283	-69.9641139063645	-46.7368581512466	171.507689590763	-45.9152620176282	169.751170708952	-12.1256768807249	-63.5108547769992	
1527000000	-11.9771183588685	-71.1542006667536	-46.6944365927021	162.134002891448	-45.3206844402709	162.707428541722	-12.1400298106066	-64.8090181896033	
1527450000	-11.9670168730555	-72.2997795951303	-45.5040770294663	158.749054302641	-45.6336770899248	159.456251008485	-12.1400811658479	-65.9586995799197	
1527900000	-11.9588715809497	-73.5130425443803	-45.2248134343304	154.161384419944	-44.7884897791894	157.152180416577	-12.1440097555541	-67.2156811303957	
1528350000	-11.9432045555774	-74.6021219858349	-44.7409323697599	151.444096589209	-44.524902551297	151.284207791987	-12.1549622261789	-68.4592648556607	
1528800000	-11.947827093319	-75.9058391197135	-44.4714811529895	144.392198143841	-44.2464700654514	143.070986657874	-12.1763544581992	-69.608719840326	
1529250000	-11.9368359399761	-76.9824960663176	-44.1727761835386	139.940490317578	-44.2245954540357	141.602399304823	-12.1835066764877	-70.8715974556417	
1529700000	-11.9450904952594	-78.1849497313649	-44.3287907172222	137.161912608891	-44.1277673381823	134.61556963358	-12.2044903030683	-72.118941946846	
1530150000	-11.9126068722884	-79.3233644713129	-43.8035142088505	129.326748958693	-43.9952645410012	129.063155928472	-12.1776042277037	-73.2471756448309	
1530600000	-11.9285471357308	-80.4986069482358	-43.7950732602136	123.351316518303	-43.6977205355244	128.409313169163	-12.1805365976891	-74.3805612271682	
1531050000	-11.9082417238987	-81.7204236879813	-44.1853908194445	118.833785608359	-43.9504719032418	121.320015221935	-12.2023568864989	-75.634317023913	
1531500000	-11.9009980824569	-82.8954425910591	-43.7243075563485	115.525893725103	-43.9811584317742	118.71928893181	-12.2101853027441	-76.875705947453	
1531950000	-11.8833012327502	-84.0602035426581	-44.2634273103719	112.681948884016	-44.0682231070066	111.462984036926	-12.2399340295835	-78.0258988454384	
1532400000	-11.8773026575027	-85.2239493732867	-43.6675509413209	108.499748306402	-44.2108545498925	110.383708085661	-12.2290996955834	-79.2334627908553	
1532850000	-11.8924555200796	-86.4327130282223	-44.082509830626	104.822515906249	-44.1627692818621	106.000567411399	-12.2342487097671	-80.4315612680484	
1533300000	-11.8628988648947	-87.5148220683753	-43.8769095369596	98.7321530488556	-44.099595355518	101.765460215279	-12.2496488364189	-81.5815255217748	
1533750000	-11.8389110413742	-88.7579539960057	-44.3030877935627	98.6792111563961	-44.1421418374003	98.3181969060283	-12.2705991695564	-82.8224924223701	
1534200000	-11.8446799100511	-89.8644281868016	-44.1312847969701	94.2022578744466	-44.0215025345799	95.4236355753552	-12.2740285473032	-83.87698263241	
1534650000	-11.8340201902007	-91.0833077534492	-44.2599980699068	90.3349287822203	-44.6024268133639	92.6453074617775	-12.2832698187842	-85.0088862202682	
1535100000	-11.8217874113469	-92.2737934948783	-44.2228601524565	88.1153389215599	-44.4060370354246	89.9931847025884	-12.2890262920624	-86.1997392684032	
1535550000	-11.821258021114	-93.459515692586	-44.3621442663869	86.9585429632043	-44.1978696623048	87.6241400584557	-12.2978841664802	-87.4633959386604	
1536000000	-11.8147698317841	-94.7156040861348	-44.1477326290994	81.8916817520699	-44.1169229185537	83.9217786140891	-12.2944665937915	-88.5639825635748	
1536450000	-11.8058611587822	-95.8088116440516	-43.7548955404708	79.4306355430241	-44.1811462554	81.083742955669	-12.3241690088712	-89.8523571594782	
1536900000	-11.7928708557465	-97.1193528527479	-44.0781138406003	76.1159995824481	-44.0147668552458	77.811409853296	-12.3134115274087	-91.0495573883881	
1537350000	-11.7929158535333	-98.2317310693238	-44.0188673328144	69.7279005845907	-44.2683022079082	74.7437804909317	-12.350164433132	-92.2328524507722	
1537800000	-11.787902615698	-99.4237678035324	-43.7670193773667	70.7375624222752	-44.0909160983441	71.9111216916203	-12.3603825343218	-93.3560751343431	
1538250000	-11.7927858293489	-100.652712294218	-43.9519358397204	65.8210381594073	-44.4044794850086	69.1453191714321	-12.3880385093171	-94.6151926652261	
1538700000	-11.7716799145889	-101.841304814355	-44.0331974126114	63.9720507335365	-44.6457741192021	64.5210495216253	-12.4133693103014	-95.5633908490948	
1539150000	-11.7577624653182	-103.034550190285	-43.9403045522736	61.9042289845207	-44.4954393257685	62.9463278184518	-12.4290248981749	-96.8076581441915	
1539600000	-11.753705683194	-104.233725688156	-43.8347433932081	60.2087295074308	-44.4487313454598	60.7923139316424	-12.4422296381167	-97.9409135204763	
1540050000	-11.749735133817	-105.481405745403	-44.1591304028939	55.0347871608034	-44.2428377128401	59.6856258786797	-12.4388652895354	-99.1132701523029	
1540500000	-11.7490707222239	-106.73956924847	-43.9354051698114	53.2107361936446	-44.0508720947329	55.4499273947541	-12.4582112321685	-100.192846589515	
1540950000	-11.7323547520789	-107.965938816099	-44.0420035315999	49.5670274795376	-43.9081923725749	54.8558970733296	-12.4897084816046	-101.275895964014	
1541400000	-11.743381419987	-109.208267045589	-43.6690296675061	48.2538386377726	-43.5512689902485	53.5016644269677	-12.4918894653892	-102.452886525446	
1541850000	-11.7192345541035	-110.426805735036	-43.5687017852967	46.0949982747242	-43.2716677270369	49.5926852634502	-12.5007777889636	-103.58736098683	
1542300000	-11.7384946841963	-111.768916455274	-43.4222948051496	41.5392467982777	-43.1657667797265	45.7271031601855	-12.513317598707	-104.707387267422	
1542750000	-11.7334653970231	-112.941475874403	-43.683956752133	38.67915323884	-43.0554750199312	40.570938220333	-12.5339389653105	-105.743101289114	
1543200000	-11.7382624649914	-114.068714044908	-43.3936684007547	35.4475364051711	-42.7419836515164	39.6596868986909	-12.5374439740722	-106.968634433207	
1543650000	-11.7457593067867	-115.34190728663	-43.3642396683657	31.0775705680468	-43.0336640701865	32.7659116357061	-12.5314150197118	-107.93453118619	
1544100000	-11.7396386412623	-116.487756522076	-43.4036785032387	28.9309479104868	-42.4551758999114	30.3203505363472	-12.5481170662053	-109.155516329407	
1544550000	-11.7491448337049	-117.833193458375	-42.9107015877749	23.1242644100567	-42.5485164694296	25.7658644235072	-12.5651022937139	-110.379787628527	
1545000000	-11.7555101325666	-118.918346211151	-42.9023695633307	20.091927993669	-42.7644609612518	22.200593458249	-12.5588053675216	-111.573407021762	
1545450000	-11.7583862532666	-120.197893722021	-43.2928346373512	16.6499384282734	-42.8367000195544	16.0491205729753	-12.5748026718614	-112.749701386764	
1545900000	-11.7540788122413	-121.344757337498	-42.9819952385662	12.354974901514	-42.6940471474958	13.5534077685891	-12.6015376129747	-113.901201823188	
1546350000	-11.7452547339812	-122.598675521615	-42.8585615479826	9.22644594294738	-43.0560600893835	10.4275214586557	-12.6028471383915	-115.059608026048	
1546800000	-11.7415293027206	-123.699714221661	-43.2255532046172	5.65472738728398	-42.9346651191031	6.60544707472323	-12.622495573553	-116.320725282586	
1547250000	-11.7613748187313	-125.056575920828	-42.9805724529131	1.21034766060793	-43.0592989097053	5.30123321882781	-12.6409978367322	-117.427444954981	
1547700000	-11.7571468689796	-126.222830041184	-43.1122233112065	-0.710259056735934	-43.3045825334765	-0.536853518457649	-12.6341077133087	-118.555158143757	
1548150000	-11.7587476203286	-127.418156519927	-43.1575079755915	-6.09705698394022	-43.2243987938676	-3.51779407949628	-12.6457855124514	-119.742339989587	
1548600000	-11.7688842556195	-128.631912603396	-43.566936107692	-10.0173596683611	-43.2925838812657	-7.55654596498166	-12.6557797003787	-120.859062589713	
1549050000	-11.7695666308055	-129.918781915408	-44.0617967858585	-11.3087883018063	-43.9493325904023	-10.5899430192607	-12.6662469995077	-122.143735665251	
1549500000	-11.7655640004339	-131.030544204227	-43.9753666982216	-13.2424523560656	-43.8612254896862	-14.3724055141978	-12.6774307041684	-123.274193333036	
1549950000	-11.7736349858003	-132.254363552452	-44.1690374898595	-17.9987285140279	-43.6505044860625	-12.9614784694889	-12.7007211346341	-124.595871915957	
1550400000	-11.7826679057029	-133.453204251666	-44.2545764490027	-15.0182435081301	-43.8522103571225	-18.6093510239525	-12.6959000154818	-125.829757883993	
1550850000	-11.7801706310708	-134.660822887634	-43.9822696392744	-17.8453230342553	-43.6266996277978	-21.3056264408035	-12.7011677489129	-127.094362674842	
1551300000	-11.7938401387643	-135.903506878569	-43.9771464451166	-20.3703353792466	-44.1814116161666	-23.8992914348055	-12.7282865729491	-128.286353106005	
1551750000	-11.7893110277678	-137.227025075214	-44.2876950002014	-21.6976496203053	-44.1076142230164	-25.0420520275161	-12.7390106519645	-129.603143337666	
1552200000	-11.7703913270342	-138.361531204463	-43.8415882924138	-25.8214417883063	-43.7126903744701	-28.7987839089852	-12.767442581222	-130.732938172074	
1552650000	-11.7631911725239	-139.547358831526	-44.1089232883116	-27.9920836573886	-44.0227804828957	-30.8144199278738	-12.779610123953	-131.945264565367	
1553100000	-11.7736888128281	-140.851231054853	-43.9780486118419	-32.9667592745343	-43.8556631645186	-35.0413798786419	-12.8254229847824	-133.235563448287	
1553550000	-11.7794051175974	-142.023261554944	-43.8874279870121	-36.2132546433247	-43.8177643793856	-35.2746524865292	-12.8445973786349	-134.60179864675	
1554000000	-11.7754422153955	-143.342356420031	-43.8361329630927	-37.2283911792933	-44.0244946281743	-39.5312363959162	-12.8401415777123	-135.610705733446	
1554450000	-11.757557192191	-144.534846333659	-44.0401106190761	-42.3468142267649	-44.2344988751191	-42.4303658111745	-12.8656134516103	-136.91792637351	
1554900000	-11.776751748154	-145.849214630576	-44.4158722935148	-44.9967240620507	-44.0436863397579	-43.3100595970556	-12.892274181992	-138.126850080881	
1555350000	-11.791347804149	-147.171113529024	-44.2787025494748	-46.3891879392603	-43.8619747928978	-49.1818848197558	-12.9113645555008	-139.409723448499	
1555800000	-11.7908370455955	-148.466023522226	-44.0973844804116	-54.1382952020732	-43.9998656406147	-51.5998113825997	-12.9280432453741	-140.716415120885	
1556250000	-11.7923735992678	-149.683857407697	-43.9407924038674	-56.1470137955603	-44.5756244300027	-52.4624573119143	-12.9433447147792	-141.943862681401	
