!Keysight Technologies N9923A: A.08.15
!Date: Monday, 19 February 2024 16:34:29
!Timezone: (GMT-05:00) Eastern Time (US & Canada)
!Model: N9923A
!Serial: MY52412730
!GPS Latitude: 
!GPS Longitude: 
!GPS TimeStamp: 0001-01-01 00:00:00Z
!GPS Seconds Since Last Read: 0
!CHECKSUM:1809852132
!Correction: S11(ON Q)S21(ON Q)S12(ON Q)S22(ON Q)
!S2P File: Measurements:S11,S21,S12,S22:
# Hz S DB R 50
1500000000	-12.9304836148715	1.12985812616779	-50.6954716683511	-57.755769391428	-51.8852344071695	-55.4247655930729	-13.2280997709768	7.68048494793729	
1500450000	-12.9246374865726	-0.0407439479885275	-50.7920440360451	-62.3426858514507	-52.8205540580534	-56.8159785797352	-13.2071522361622	6.40376417165016	
1500900000	-12.9275995016551	-1.2116554131814	-50.5902778440727	-66.0739065415977	-51.0767271146017	-61.1770424306422	-13.188891404138	5.17126272467423	
1501350000	-12.8925206890508	-2.41251924411454	-50.8180449610719	-67.7691006004803	-51.9187019870992	-64.6840799556223	-13.1662659835216	3.9084210863355	
1501800000	-12.8717573219622	-3.59392566418441	-50.3708959092297	-70.4322687073605	-51.5485306276289	-64.8740927856131	-13.1425783205618	2.67862156146698	
1502250000	-12.8654421843426	-4.74956216956334	-50.0475055666487	-73.4188196024476	-51.7047585798094	-70.5497205045986	-13.1341200783526	1.4527774244208	
1502700000	-12.8460070151164	-5.91319151346075	-51.5410603810476	-75.1241369843872	-51.401891172565	-70.6551897950266	-13.149582923655	0.23006187477819	
1503150000	-12.8315038418927	-7.11380987317557	-51.6122324568842	-84.1350063631247	-50.6871753137895	-76.7352622762617	-13.119489397459	-0.937945964612323	
1503600000	-12.8130998564925	-8.3786201835146	-51.0553866904919	-79.1803828760131	-50.5659700807571	-73.6556416650986	-13.0885852196976	-2.04659217643756	
1504050000	-12.7941912867229	-9.49244713802895	-51.1066301546772	-79.6891849273796	-51.3607566179405	-79.4239530690049	-13.0749586070775	-3.15592963621914	
1504500000	-12.7870668378029	-10.8276994216157	-51.5788415683651	-80.2943253970815	-51.3446967413606	-79.7388781623819	-13.0594454434885	-4.35183866139426	
1504950000	-12.7660591227243	-11.8306282743776	-50.3829390779677	-89.7874943566732	-51.743500238174	-82.1665932047129	-13.0404810943661	-5.45797746990445	
1505400000	-12.7421582663231	-13.0303185585585	-50.2150926869744	-86.2496412058218	-50.1963578657768	-83.6431715091162	-13.0192898514762	-6.60283637883118	
1505850000	-12.7258699235087	-14.1987410039406	-50.5798237315284	-90.7319430623384	-50.413001684749	-90.0731491327222	-13.0011109278009	-7.66364643772001	
1506300000	-12.7188800105402	-15.4015660813245	-50.234258195261	-93.3897975231886	-51.0545736048163	-98.5785993618337	-12.9700861915847	-8.78931631615535	
1506750000	-12.6986934144579	-16.6340288631921	-49.6292309732559	-96.8354130118111	-50.439636339489	-96.9881914879512	-12.9375206100366	-9.86708972283527	
1507200000	-12.6711965546651	-17.8064377372489	-49.540241060498	-101.688202664152	-50.0313829431528	-100.179124160785	-12.9366108787164	-11.1548002537938	
1507650000	-12.6555204863176	-18.866086665559	-49.8172157270448	-108.44131982543	-50.1558008337547	-107.095244226073	-12.8926636443363	-12.2136812619186	
1508100000	-12.6240170386379	-20.1510353048449	-49.4200923101032	-111.202572767643	-50.1775327864489	-109.926788923502	-12.885323735066	-13.3728658036833	
1508550000	-12.5911046657062	-21.3274868487619	-49.596344205316	-107.40511437309	-50.5605758028345	-114.236732321082	-12.8381177928072	-14.5816682924658	
1509000000	-12.5578807753095	-22.5385499804948	-49.6097170041587	-118.809388676316	-50.0332751500937	-113.578775133322	-12.8220252639244	-15.6965308480117	
1509450000	-12.544616424411	-23.6702901729375	-49.941437094496	-120.781285263449	-50.823933232981	-118.864272494321	-12.8103287734723	-16.9122219384112	
1509900000	-12.514328220425	-24.8751160612304	-51.3668353848183	-124.158404137157	-51.5694978879155	-125.589232985638	-12.7709314381414	-18.106932451178	
1510350000	-12.4947622127155	-26.1244109661502	-49.6960780365506	-124.840895195765	-51.0291257371956	-126.801307787702	-12.7517454386911	-19.2249140069168	
1510800000	-12.4806657390285	-27.4171729400386	-50.5500048178798	-123.154399675319	-51.3189883926807	-126.278757421065	-12.7164681172482	-20.4328891795878	
1511250000	-12.4564984396145	-28.627070764283	-50.2755059603129	-125.552890842927	-51.6128769442778	-124.7206880776	-12.7114925900657	-21.7210359864548	
1511700000	-12.4435054848478	-29.8216921575552	-50.1220493857207	-132.687532558923	-51.3759580520615	-129.608927197091	-12.6653902588192	-22.9080937416064	
1512150000	-12.4320828949185	-31.0681606883399	-50.5964917037687	-131.588378171888	-51.3204232701376	-133.940938200203	-12.6429846552926	-24.0784057889467	
1512600000	-12.3931776170083	-32.3047501833626	-49.9843393262494	-136.258715680439	-51.3930944370681	-132.566625724889	-12.6194713583735	-25.2537893254161	
1513050000	-12.3821727876986	-33.4403024919815	-50.100232727703	-139.248594272584	-50.785834644177	-136.571432854802	-12.6096015411372	-26.3703338539667	
1513500000	-12.3625290986158	-34.550223097969	-50.122678254839	-143.200568795737	-50.7548858760386	-134.540951460987	-12.5947784343036	-27.6924283077078	
1513950000	-12.3499517855762	-35.788698951673	-51.0506036790927	-143.974040945836	-51.1386873904711	-133.679769408387	-12.5782360052539	-28.8234783698094	
1514400000	-12.3157879083356	-37.0275226857531	-50.6960298284264	-147.555995311086	-50.4987366431713	-139.141694075911	-12.5523540838659	-30.0081156079535	
1514850000	-12.2924497068093	-38.167163766194	-50.6473602341198	-150.607091506126	-50.6149829176178	-138.14851513068	-12.5482720282357	-31.1367886677778	
1515300000	-12.2696877135898	-39.4532647730778	-50.2457887705147	-158.604872795233	-50.3804062166636	-144.068260799001	-12.5019644106845	-32.3438389694512	
1515750000	-12.2457483267774	-40.5387443647845	-50.2470771144462	-157.960436759799	-49.684818995772	-145.841551820688	-12.4875454805674	-33.514266967217	
1516200000	-12.215421112149	-41.9469413499619	-50.4674969741103	-156.672779414646	-50.1304549007251	-149.183287191913	-12.4765626130309	-34.6433715523154	
1516650000	-12.2034042575748	-43.1948068224324	-51.2380106027465	-163.766738768801	-50.6306957407457	-156.640076544071	-12.4383659853066	-35.9341876799828	
1517100000	-12.1828808761913	-44.5081962939461	-50.3494763874417	-163.938914256989	-50.1594529137964	-161.825034253202	-12.4108862824735	-36.9481335409313	
1517550000	-12.1671181390122	-45.7623170192419	-51.0079124917192	-167.46011341187	-49.798057150404	-160.710937225275	-12.394165432766	-38.2736797616057	
1518000000	-12.1654019658328	-47.0524449693236	-50.9068944524993	-169.212500526561	-51.0894747445747	-162.906642578228	-12.3736262627377	-39.4713345681051	
1518450000	-12.1637349582884	-48.1859473567204	-51.5278327093844	-175.756527519277	-50.5422025760572	-166.780036838736	-12.3372243229079	-40.7370686984907	
1518900000	-12.1553569915751	-49.412129371378	-51.3161070680094	-172.197511593677	-50.5530001218179	-166.450433470944	-12.3109898270219	-41.9672360164942	
1519350000	-12.1594213896217	-50.7803735174872	-51.8721089696954	-166.244598359178	-50.4738568258738	-170.428774276911	-12.2963434731513	-43.1330861061152	
1519800000	-12.1385072264462	-51.9379455805635	-51.0155445979028	-168.736931007096	-52.1353695581071	-164.293979914717	-12.2837869257641	-44.3996189712801	
1520250000	-12.1244147306996	-53.1046759283284	-51.2337462515697	-171.751125331642	-50.5183667742938	-169.630256610653	-12.2645574157255	-45.7475658277723	
1520700000	-12.1148626213294	-54.3011780836355	-50.3379947031719	-172.745120560657	-50.7401700862885	-170.166496119661	-12.2513861497825	-46.9064126018612	
1521150000	-12.1004251464946	-55.4543920266409	-51.4714286513313	-177.312981259733	-51.0898100897687	-169.026530730066	-12.2421595318095	-48.2458199763832	
1521600000	-12.0983406613637	-56.748093838176	-50.758318506859	-174.281795268948	-50.2368183013766	-171.001001735868	-12.2284006368106	-49.4944455569366	
1522050000	-12.0864979329969	-57.9201986147984	-50.2157550640702	-173.471241691605	-50.6776641825853	-174.1191612525	-12.2054247786602	-50.7053749920908	
1522500000	-12.0763315138381	-59.1578418996968	-49.8583759553607	-175.552222731739	-50.0548428930087	-174.457763345026	-12.216986268422	-51.9744899006573	
1522950000	-12.0671342162153	-60.312745628028	-50.0966494678164	-171.654299987565	-50.1982113211733	-176.455567478392	-12.2038712260857	-53.2659079613869	
1523400000	-12.0649460768962	-61.4732141680295	-49.791548921436	-170.740055031582	-49.9040000390307	178.088674063337	-12.1857169565191	-54.5670577400063	
1523850000	-12.0435094939545	-62.6482514943297	-49.6063448804017	178.733034384551	-48.6290174759013	177.800547463931	-12.1778775745326	-55.7508714685466	
1524300000	-12.0414438929783	-63.8231362706846	-49.2373796177559	-176.187545230436	-48.2682669145837	-178.486761846527	-12.1725502417709	-56.9769032659744	
1524750000	-12.023549017209	-65.0613207372741	-48.8421494476936	-175.283702784391	-48.1020640687515	179.182578919012	-12.1627338644637	-58.3729293564423	
1525200000	-12.0082381996161	-66.2503432557316	-47.8678056574879	175.824457266244	-48.1600546654544	175.650184888615	-12.1525856451218	-59.5633843168434	
1525650000	-11.9885901459659	-67.394461253479	-47.6069133150694	178.014929825897	-47.6430107858086	177.874628901424	-12.1600547496218	-60.7878572048149	
1526100000	-11.9850474404696	-68.7058688497063	-47.0973389394322	172.831978654441	-46.9279871640931	174.159594628953	-12.1372503195535	-62.14884997578	
1526550000	-11.9877181691096	-69.8363295127411	-46.767333034525	170.321014348847	-46.6607429923639	170.898165950627	-12.1636650731664	-63.3944311721461	
1527000000	-11.9887674647386	-71.0004498986696	-45.7003806333263	167.416853211697	-45.8600888561903	165.58454189334	-12.1754321944126	-64.7961367342522	
1527450000	-11.9692815247491	-72.2257451585921	-45.3211180417366	160.593122034836	-45.5670516207055	164.337016958158	-12.1697364224281	-65.8443512624699	
1527900000	-11.971392814003	-73.4330022310581	-44.4696689918232	157.022619979227	-45.4434919555145	156.18948322473	-12.1862069443943	-67.1517433631101	
1528350000	-11.9617979870865	-74.5296402725284	-44.3523864866986	154.017296797498	-44.806094601728	152.806723258533	-12.1836775305175	-68.3005599198956	
1528800000	-11.9639040643735	-75.8022987357895	-44.0434329812095	148.071973336296	-44.2876800594634	148.525790903346	-12.2124916634212	-69.5002346208252	
1529250000	-11.9570955381082	-76.9077155724868	-43.9100924145778	143.334570772498	-44.4139526539322	142.502887140901	-12.2173267916761	-70.8259750810727	
1529700000	-11.949486481515	-78.1199122739649	-43.4491806490517	138.890746065227	-44.0587604662817	135.826207046404	-12.2254141177831	-71.9049251183989	
1530150000	-11.9365699019475	-79.2904119715203	-43.3175032909138	132.829819626306	-43.8597428264893	132.992577684598	-12.2292876198697	-73.0415878507255	
1530600000	-11.9268980152305	-80.3859370273408	-43.7991040032095	127.18286542813	-44.3375283009256	126.469212241861	-12.2073125678518	-74.2329164345251	
1531050000	-11.9164850972055	-81.6398242063754	-43.2993589743214	122.948613079923	-43.5668318510854	122.982353546446	-12.2246797343066	-75.4705994399964	
1531500000	-11.9124387290528	-82.8515994313952	-43.5159489860576	117.435803483501	-44.0428287032622	120.359965440247	-12.2460549779051	-76.6914371766573	
1531950000	-11.8964438702431	-84.0064477858755	-43.6548800568832	114.136197801762	-43.9095344345893	112.962772761825	-12.2497767564242	-77.8494227255232	
1532400000	-11.8937068654217	-85.2088714357959	-43.7812727277844	108.276527305033	-43.7805769052515	109.775463170239	-12.2634386603176	-79.1494354466982	
1532850000	-11.8899408223723	-86.3138822233463	-43.0925481609794	105.963241341179	-43.7919731154265	106.629642779905	-12.2484075950007	-80.3763979928385	
1533300000	-11.8783161252991	-87.4920185616456	-43.3705447391843	102.18495541984	-43.8927751958096	101.825388101776	-12.2642278819699	-81.4957883480038	
1533750000	-11.8576250392661	-88.6783417833026	-43.509831251408	99.2243337206072	-44.0153390548293	98.8263858824982	-12.2863431379337	-82.6250890955929	
1534200000	-11.8581733033545	-89.8628118139938	-43.7431189830908	95.1236006357689	-43.8760356776123	97.9008408192782	-12.290177685646	-83.7796816076676	
1534650000	-11.8477090042689	-91.1234932619695	-43.7830193101568	92.3943328332869	-44.116636581791	92.4167239335876	-12.2975096310213	-85.0491211629421	
1535100000	-11.8429272123545	-92.2893882300564	-43.7855821304223	89.8629394036073	-44.2195638010656	92.7989565552061	-12.3035372700838	-86.2128675618205	
1535550000	-11.8446352883411	-93.5468403508381	-43.746733321661	85.3622725779138	-44.0787877285953	86.2424807430933	-12.3230713221504	-87.3134438375822	
1536000000	-11.824288761237	-94.7217495415148	-43.6222621227119	83.9883098758505	-43.8900908127896	83.1021170316112	-12.3104679658477	-88.4833641710081	
1536450000	-11.8241166188218	-95.8205372937982	-43.2456450044418	79.0477107115398	-43.7665556506686	82.0793499651492	-12.3416849007302	-89.7286909329569	
1536900000	-11.8185490660519	-97.0929850502788	-43.3835107605626	76.7278008823706	-44.1189281215469	75.1100784306733	-12.3437529846247	-91.0052744633099	
1537350000	-11.8101826358089	-98.2089952549426	-43.4218317938864	71.9464200570349	-43.7481639179339	74.5020561621179	-12.3592842933861	-92.1405737476447	
1537800000	-11.8014910924833	-99.4778234303329	-43.410261508783	69.0340950251031	-43.5893516111679	70.4965325209523	-12.3797908134837	-93.3870978368266	
1538250000	-11.8167488919491	-100.62349615295	-43.7632463462079	63.5659188784303	-43.6434357311949	66.8943907820973	-12.4048069782243	-94.6049676446091	
1538700000	-11.7960072356477	-101.825069096647	-43.979666213471	60.4753398642188	-43.9411053992944	63.935195478953	-12.4301933416905	-95.7048536445216	
1539150000	-11.7914026862606	-102.989571111016	-43.4503194949891	58.2235872119611	-44.0958336688624	60.8189248002619	-12.4353276612545	-96.8640676013127	
1539600000	-11.7798012588644	-104.209168518366	-43.8916115184142	56.78680867853	-44.0486742195584	57.8421758984702	-12.4655065724924	-97.9930608371426	
1540050000	-11.7810141281342	-105.518797491536	-44.4509684700106	54.3831097395867	-44.2977474187488	53.0822687071086	-12.4683444801573	-99.06090000792	
1540500000	-11.7816407040359	-106.695547354401	-44.2388020711186	53.6025578705324	-43.8377333424693	54.2220825758816	-12.4803697133885	-100.215724621397	
1540950000	-11.7778443548058	-107.894244334993	-44.0904769959074	49.6821621631474	-43.9268348242847	49.94066581912	-12.5148489273016	-101.207600023946	
1541400000	-11.7791193215474	-109.051625653802	-43.3599479647012	47.3068905714978	-44.1553232222938	46.8877606000929	-12.5141968999886	-102.419442453018	
1541850000	-11.7637296254692	-110.295245715728	-43.4447596039822	45.8272232434572	-43.605653463168	44.9731411198863	-12.5251514799244	-103.570010939584	
1542300000	-11.7559857421044	-111.583547440172	-43.1498174793677	41.0834142200093	-43.8258611522752	43.6283015035571	-12.5281390987917	-104.722465312024	
1542750000	-11.7536229850947	-112.714233425637	-42.9133804744567	38.6240739361036	-43.4643358346102	37.1505522170541	-12.5455252080599	-105.778538853384	
1543200000	-11.7569620065467	-113.911373512945	-42.7560704364124	36.4603590920081	-42.884323816293	37.1051986192147	-12.5647064113193	-106.995743347094	
1543650000	-11.7646047690998	-115.217385779387	-42.952154879874	31.0274523831284	-43.1624247954063	32.5518507654513	-12.5540329438189	-108.117055353074	
1544100000	-11.74553714855	-116.324830634107	-42.726180408807	24.1153334499717	-42.8655987968828	27.5653251155876	-12.5753836416143	-109.125266047499	
1544550000	-11.7627122155589	-117.6006502043	-42.5600510370307	24.1448789910172	-42.817401860397	22.9093802284695	-12.5760321262284	-110.369780491358	
1545000000	-11.7476364780472	-118.79302504043	-42.5567876378187	19.9492476668679	-42.8231518337325	19.462612984677	-12.5898036547784	-111.552885326954	
1545450000	-11.7546650915291	-120.001457944364	-42.8902307416494	14.972263065483	-43.0289773875101	14.5728961781787	-12.5831371672694	-112.616457729636	
1545900000	-11.7447327794248	-121.261571946147	-42.8170449381966	9.64349819625436	-43.0890990021813	12.6683795576452	-12.6005018431938	-113.868818875156	
1546350000	-11.7459651449458	-122.47449790999	-43.1202126395724	9.06133243241195	-42.8384347176279	7.72576745985826	-12.6241309319696	-114.99002632706	
1546800000	-11.7445817302668	-123.679599180355	-43.2025122377798	3.96260630510268	-43.2364041769839	5.81693395256476	-12.6190745023098	-116.176541250386	
1547250000	-11.7499552978529	-124.952059988181	-43.2820618046941	1.39847147768122	-43.7251346369382	-1.82400743303266	-12.6398854487061	-117.369154110064	
1547700000	-11.7550983043907	-126.221385009725	-43.3692331788831	-3.52639915490008	-43.4730298918432	-3.19971586285947	-12.6358990000975	-118.578280904461	
1548150000	-11.7504129920225	-127.346206104467	-43.2873099816209	-7.36379447723281	-43.6254537498362	-7.848858249359	-12.6521591069411	-119.775079466205	
1548600000	-11.7609282903749	-128.564251517499	-43.7343130055297	-11.3685271578421	-44.1371867480517	-12.585694677682	-12.663677078179	-120.97432434967	
1549050000	-11.763823276985	-129.868762971932	-44.0369643178315	-13.9073861472176	-43.9105205399399	-12.3007995141192	-12.6695911072362	-122.145677153297	
1549500000	-11.7668290443629	-130.982104519541	-44.2889755879911	-12.927575910678	-44.3060959380554	-16.6108502655426	-12.6639334512259	-123.281288974744	
1549950000	-11.7650433789022	-132.224376215055	-44.3577936123258	-19.4591022770254	-44.606227017541	-16.6010345483306	-12.6999197100155	-124.673903146608	
1550400000	-11.7681746978894	-133.486846042877	-44.5114401635182	-16.4797095504667	-44.2672751751253	-20.5879498970226	-12.7036194785908	-125.896622324407	
1550850000	-11.7700759363723	-134.62938144016	-44.8044776525299	-19.1099912929026	-45.1910934804855	-19.2718699457057	-12.7143220243785	-127.142556597165	
1551300000	-11.7724668784725	-135.817136069915	-44.3756197794969	-22.8802314731443	-44.743712458795	-23.6669662274122	-12.7353828632265	-128.361056851678	
1551750000	-11.7740748351478	-137.180575905861	-44.3203915006348	-24.7349988679443	-44.281242592812	-24.2168164505576	-12.7464279925204	-129.640406816563	
1552200000	-11.7610178997198	-138.304519930995	-44.2596648856053	-29.1442626887653	-44.2465801880672	-24.6461334487525	-12.783055807717	-130.886250538804	
1552650000	-11.7488738605479	-139.545937267651	-44.0629634972427	-24.8339235212209	-44.6208702749049	-29.0365826846408	-12.7936522664483	-132.038892915208	
1553100000	-11.7568350786728	-140.828818415704	-44.2450344033112	-33.0141258982003	-44.4061377152488	-32.7772331054469	-12.821565068543	-133.306526520006	
1553550000	-11.7671964564449	-142.082421939065	-44.5587369628195	-32.5746652296039	-44.2062326358667	-35.2987262753836	-12.8513235727223	-134.642060834352	
1554000000	-11.7689423510358	-143.346591406339	-44.1026728433689	-36.9476854988764	-44.5607416065439	-38.0486970949493	-12.8358096890981	-135.623555612381	
1554450000	-11.7418446317511	-144.570663417201	-44.4720250627492	-40.2434509510233	-44.2748629886443	-40.9817170131284	-12.8577407860648	-136.877374884808	
1554900000	-11.7557225052367	-145.915171596694	-44.3088628669759	-44.0264418043258	-44.1410867514916	-46.3938821484899	-12.8821227903696	-138.218694077864	
1555350000	-11.7665086339937	-147.220935328274	-44.5371856558844	-48.6275442859715	-44.2177002705967	-47.9006201145016	-12.8999737695345	-139.514987819021	
1555800000	-11.7674786318641	-148.453523483044	-44.4127106686773	-50.8787697925535	-44.5084420277105	-50.7349267240784	-12.9283740642111	-140.806694276724	
1556250000	-11.7659008701535	-149.716395235738	-44.8818054940299	-53.1904846792722	-44.3498119758258	-54.2630177462715	-12.941107382646	-141.957387673903	
