!Keysight Technologies N9923A: A.08.15
!Date: Monday, 19 February 2024 16:35:48
!Timezone: (GMT-05:00) Eastern Time (US & Canada)
!Model: N9923A
!Serial: MY52412730
!GPS Latitude: 
!GPS Longitude: 
!GPS TimeStamp: 0001-01-01 00:00:00Z
!GPS Seconds Since Last Read: 0
!CHECKSUM:1625102800
!Correction: S11(ON Q)S21(ON Q)S12(ON Q)S22(ON Q)
!S2P File: Measurements:S11,S21,S12,S22:
# Hz S DB R 50
1500000000	-12.9558777281687	1.3750739947513	-47.8298934389271	-67.718852917288	-47.3609457938606	-68.4023516389101	-13.258930407479	7.69516059068528	
1500450000	-12.9436941498519	0.197818326430758	-48.2470083343169	-69.5658096831173	-46.982336208577	-72.3900639690864	-13.2355406922059	6.41980869047519	
1500900000	-12.9274749437209	-1.02643924218091	-48.7175636571499	-72.8802501971767	-47.5491975541682	-71.1280327760775	-13.2174371568929	5.33694238640474	
1501350000	-12.9009683995139	-2.08186855288066	-48.2582510629255	-80.8545115785293	-47.7268220637399	-76.7870456237721	-13.1846722207903	3.94430425354762	
1501800000	-12.8933254360772	-3.3570575794378	-48.3388473688629	-75.969250647329	-47.7096823871941	-80.6155125408689	-13.1729979035592	2.88463569033995	
1502250000	-12.8695762932439	-4.52698491040378	-48.2140810137379	-79.7949014162519	-48.2832042092784	-81.3969287034496	-13.1540359485364	1.73879531370004	
1502700000	-12.8462482501139	-5.6251284369521	-48.8023426456636	-86.2554282833912	-47.9411132824419	-86.6354603485234	-13.1552286147094	0.327172910719712	
1503150000	-12.8289323290598	-6.8464395880078	-48.5780602577406	-82.4506246904205	-48.3908963666509	-85.9648063509394	-13.1426427639485	-0.747220914316138	
1503600000	-12.7981919505705	-8.19673926442797	-48.4264112941783	-84.3926596418447	-48.5891000206132	-89.6299215771634	-13.0987871262395	-1.87914732193062	
1504050000	-12.7786329124578	-9.36132137036035	-48.0607127400151	-85.2983563710195	-47.91161553167	-89.2111461350297	-13.0900836253186	-2.98429728931476	
1504500000	-12.7594434117429	-10.6142732933474	-48.6305839417945	-89.422342170344	-47.9219799669509	-88.7408089915992	-13.073904322687	-4.13996491840564	
1504950000	-12.7481121557504	-11.6736448239616	-49.0275322766998	-92.5070352276638	-48.3971160851159	-88.3162437678486	-13.0583784408741	-5.30973971653129	
1505400000	-12.7235269404216	-12.9048615414709	-48.2631055096555	-91.0168915910123	-48.3390977181844	-92.7997317165025	-13.0545320814812	-6.37760436113669	
1505850000	-12.7148367874806	-14.1270902236599	-48.0702134843154	-93.8374660508279	-47.4266303459887	-95.1717542136884	-13.0206425588108	-7.44843206382534	
1506300000	-12.693765538338	-15.3433056635892	-48.1913825568646	-93.4916217438754	-47.5496338020964	-95.7354335209994	-12.9975646254274	-8.60660725905666	
1506750000	-12.681240610014	-16.5273258147193	-47.9835696101825	-101.658193164461	-47.1919338664586	-98.6949648222862	-12.9621274099312	-9.68040947000196	
1507200000	-12.6456728075918	-17.7886160406489	-47.635315366729	-101.405400884533	-47.0026762296447	-102.631300288105	-12.9478830354485	-10.8887710477144	
1507650000	-12.6231557272749	-18.8543794142622	-48.0794823990545	-104.13740636592	-47.1960869253218	-105.276994879518	-12.9004162256575	-11.9625231345541	
1508100000	-12.5972330477589	-20.1240814605532	-47.8007379812599	-107.080906224474	-47.1937533804965	-105.08887912565	-12.8951990515755	-13.0612016745274	
1508550000	-12.5973335939087	-21.231486372734	-47.3920476488929	-110.368234922812	-47.1235222614075	-111.011860486997	-12.847788612953	-14.284384873453	
1509000000	-12.5440486571735	-22.4743093044355	-47.8775906830848	-114.693457928006	-46.9173735992762	-114.678997213589	-12.8047637157462	-15.4818583650514	
1509450000	-12.5203767832128	-23.6958431814292	-47.7671963283354	-116.645348765586	-46.8197630471649	-116.802946789062	-12.804548306488	-16.5923567281585	
1509900000	-12.5085306036551	-24.8877097685641	-47.0848044334805	-118.259958966836	-47.2872539507181	-120.848910495713	-12.7602881105897	-17.8631423584108	
1510350000	-12.4631175396071	-26.2352871468266	-47.6300882152149	-122.210058229193	-46.1737128503346	-121.209488395816	-12.7268593176582	-19.0340480926343	
1510800000	-12.4469438937322	-27.5440646348702	-47.1494786100907	-126.57344164886	-47.3208072605392	-123.740458798735	-12.6982693506874	-20.2379418261395	
1511250000	-12.4247850232784	-28.707205636614	-47.0663410833858	-128.955699432943	-46.4372661984252	-127.899032195034	-12.6773813507698	-21.5139934639585	
1511700000	-12.4302909891919	-29.8811346270122	-47.6088980375684	-133.133514566581	-46.7951254005886	-132.99673103155	-12.6491734714142	-22.7119364244697	
1512150000	-12.4143305019357	-31.1930046966065	-47.6627119585129	-137.537483086695	-46.5006166700855	-132.932485324123	-12.631476726293	-23.9410608020147	
1512600000	-12.3840777727728	-32.4122844582566	-46.9296154405112	-135.853765056665	-46.0389666896581	-135.946725223191	-12.6001284690526	-25.1467301815238	
1513050000	-12.3737061762595	-33.5229003255498	-47.2100581037127	-139.225165680165	-46.4204827519384	-140.008875608413	-12.5931375220639	-26.2699606367037	
1513500000	-12.3591756121475	-34.8150026944319	-46.6990159647493	-141.129023952843	-46.8378228720806	-143.727920570736	-12.5726123632989	-27.559132286451	
1513950000	-12.3433443072052	-35.9557098724918	-46.643397613864	-143.980554718301	-46.6575344791837	-149.616415090189	-12.5614480972296	-28.7949430529198	
1514400000	-12.3142962079628	-37.1857337503896	-46.7897698288555	-150.147361808501	-46.4861500962568	-148.759014299139	-12.5424333273457	-29.9189012476431	
1514850000	-12.2928462351389	-38.355317335239	-46.8087415017158	-151.282842505691	-46.264890773749	-152.777265383134	-12.5275503614541	-31.0772619908584	
1515300000	-12.2875393389361	-39.5990421459653	-46.636663566237	-157.313719807368	-46.3209540108628	-158.304617799902	-12.5001845804669	-32.2804551603506	
1515750000	-12.2719213468434	-40.746796391169	-47.0149879898589	-158.877981692282	-46.113309174752	-159.129369304279	-12.4708924657992	-33.4952363188655	
1516200000	-12.2340428987463	-42.0303779404683	-46.6154612424934	-159.834293741761	-46.4395177474991	-162.264805132075	-12.4657620797267	-34.6837564587177	
1516650000	-12.2180653891364	-43.2894529124501	-47.1076635458863	-165.726955575188	-46.4883393589287	-165.872469479529	-12.4325372718224	-35.9040320293728	
1517100000	-12.2104764905473	-44.6519205187189	-47.1038982407518	-167.571049004361	-46.2332663870479	-172.438011165949	-12.3966080078278	-36.9449112451929	
1517550000	-12.199113463087	-45.8879351731557	-46.81576035783	-169.869918405578	-46.801632748152	-172.776984109017	-12.4013573464326	-38.1649197793209	
1518000000	-12.1903670611215	-47.1549796031032	-47.3143675614163	-174.000515961596	-47.1066815406968	-173.98364444424	-12.3437983827926	-39.5148909465954	
1518450000	-12.1909613456435	-48.3590847983472	-48.224227292523	179.365823015162	-47.200748838322	-178.63505213361	-12.3310133580039	-40.6435819015378	
1518900000	-12.1865117489044	-49.5984773417936	-47.8546539628082	-178.542012898465	-47.2784060980422	-177.044819495548	-12.2985613509196	-41.8783001012724	
1519350000	-12.1742937699165	-50.8148130497503	-48.0610281311319	-177.796186210122	-47.6805305000094	-179.567331511389	-12.2864520307076	-43.1882689740936	
1519800000	-12.1703225488465	-52.1158987808933	-47.3490677627057	176.536514911513	-47.375309572609	-179.681796232023	-12.2708224572053	-44.3959716116578	
1520250000	-12.1472551699728	-53.2019134675093	-48.2256265117011	176.572377858673	-47.4626403295374	176.503552540353	-12.2538732867565	-45.5974029760902	
1520700000	-12.1643320174382	-54.4024042588745	-48.0407898354209	174.902893518252	-47.5552866921843	174.640662324483	-12.2566896367635	-46.9345863021015	
1521150000	-12.137095571232	-55.5294688548405	-47.6884260604923	170.451221470154	-47.378980849118	174.193715790526	-12.2341754673447	-48.2487598232255	
1521600000	-12.1296086008698	-56.8159489381869	-47.5875804702654	175.45661846322	-47.3950646011215	174.361312329067	-12.216740733011	-49.4483073308618	
1522050000	-12.1248647007457	-57.9250437549084	-48.3011230366963	171.740057373171	-47.610476227103	170.756030891642	-12.2084586783615	-50.645316073089	
1522500000	-12.1051547195749	-59.068747173897	-47.7774967876565	172.582635911724	-47.2880756970771	172.005795442241	-12.2068294511791	-51.937516670858	
1522950000	-12.1087516608874	-60.1801925542464	-47.0577906228941	170.762097582381	-46.9357050394632	172.255921530097	-12.1962044026282	-53.2403192395953	
1523400000	-12.0857503264792	-61.4836158204192	-47.1153333983296	171.215903059162	-47.0609837789251	168.503404802	-12.1820020805652	-54.5701930978344	
1523850000	-12.073838749891	-62.6127993175336	-47.389666097345	167.968710536986	-46.618662204358	167.992440595465	-12.1665506091026	-55.7608532709908	
1524300000	-12.0690939576737	-63.7893251778073	-47.4676636746379	166.479256718887	-45.9454637136757	167.11179059366	-12.1593984806092	-56.9747431166898	
1524750000	-12.0548295860422	-65.0033023637298	-46.4273515129466	164.647897353696	-46.1572951792172	168.219775284307	-12.1562141433603	-58.4140589078627	
1525200000	-12.0382890771946	-66.2544430522433	-46.503155284905	166.011685693348	-45.4832586376304	165.463400049228	-12.1544171395712	-59.6163467821859	
1525650000	-12.0317252749976	-67.3592431835191	-45.8145758619029	162.435292349641	-45.4219063880147	162.440713308936	-12.1521898533784	-60.8956993727481	
1526100000	-12.0157698403695	-68.6149525519932	-45.741753942962	162.943998707795	-45.1847249263452	159.344082594648	-12.1378857423573	-62.1671605762472	
1526550000	-12.0101648656617	-69.8043820269927	-44.8894340271293	157.624678812439	-44.2640850546301	157.281146112722	-12.1629883337086	-63.5307120429424	
1527000000	-12.0090748280965	-71.015350298286	-44.5377757666926	155.583476521424	-44.0692729730617	152.639344992177	-12.1787542117518	-64.6592496484624	
1527450000	-11.9983859320327	-72.1475067993375	-44.1913285867555	151.731865154216	-43.6783597609588	150.112191061589	-12.1836029669965	-65.8393522076297	
1527900000	-12.0031781344342	-73.3618786878249	-43.7092756378266	145.590717007154	-43.4204218366485	145.507559697812	-12.1899230608896	-67.1077298105582	
1528350000	-11.9883685246374	-74.447436305607	-43.1959562196773	143.494797511227	-42.9848779849658	141.834241018028	-12.1952511827383	-68.2471129400607	
1528800000	-11.9827960010703	-75.7401510731587	-42.9654076330627	136.087480235672	-42.5381799479344	136.202415828438	-12.2186011806131	-69.4599854672969	
1529250000	-11.9779030345453	-76.8893726145231	-42.7996748898527	134.242288002796	-42.360939144809	133.724441630786	-12.2221085705226	-70.7413135188651	
1529700000	-11.9750357234958	-78.0620079409987	-42.5830484714298	127.648352739113	-42.1046053699315	127.294464080368	-12.2262102115337	-71.8511265584227	
1530150000	-11.9526344823375	-79.1981570003243	-42.2012693534946	122.198446944264	-42.1859308065855	123.999035888019	-12.2186659015924	-72.9773195714493	
1530600000	-11.9422424585454	-80.3318199050975	-41.8948431211638	117.229120114347	-42.0838257813175	119.140804071479	-12.2078674542283	-74.0759921043247	
1531050000	-11.9359215082771	-81.5011165377037	-42.3493647570626	112.532448566142	-42.0902716424415	113.399881026269	-12.2247091149234	-75.4395782268073	
1531500000	-11.9247891395221	-82.7101076851646	-42.4146995083348	108.80871578981	-41.897446959076	109.321529628172	-12.2142218410816	-76.6294434962014	
1531950000	-11.9162891287311	-83.9305213422479	-42.3656354811016	104.22329652782	-42.1036825814333	104.492842692041	-12.2374040059545	-77.8155408510619	
1532400000	-11.9048083408947	-85.1599720011988	-42.3738199958563	100.455685240599	-42.0724937980304	100.362878300984	-12.2320409091157	-79.1400031261811	
1532850000	-11.9111262651426	-86.2438570029985	-42.4126594093109	97.819475715212	-42.327801137487	99.6598516016346	-12.2410241519395	-80.2667026451387	
1533300000	-11.8896311214325	-87.4209100593511	-42.4464254200697	92.0223155336134	-41.9638946665224	94.5058819716761	-12.2476711615058	-81.4779364029534	
1533750000	-11.883329582021	-88.6301862495072	-42.5226590160198	90.0418879102961	-42.0884186945329	88.9746864064941	-12.265314517271	-82.707800264109	
1534200000	-11.8698578724963	-89.7682187926345	-42.5285945585669	89.8219960260555	-42.4156437149082	86.2716462629803	-12.2849767407641	-83.7643254734779	
1534650000	-11.8632409081299	-90.9623253416585	-42.5975798039551	83.0654649481915	-42.1566520375346	83.6356308504779	-12.2758248533505	-85.0351660514068	
1535100000	-11.851147847938	-92.1675445473761	-42.8728026463313	81.3213845634655	-42.2423348040492	80.5545050079715	-12.2876597848547	-86.2120935512127	
1535550000	-11.844816658004	-93.450417549629	-42.5380500843906	77.0468169274579	-42.3334391572118	77.8564049840831	-12.3123168465004	-87.4150718058842	
1536000000	-11.8304720844703	-94.6161643778887	-42.3901189262555	75.4821882197569	-41.9538624493819	72.939954966301	-12.2984039407984	-88.5469144789387	
1536450000	-11.8173614247664	-95.7096227720744	-42.6570145250067	69.2748277563257	-42.5737376363998	70.8469178641336	-12.332420271248	-89.8045220105085	
1536900000	-11.8177171600232	-97.0406194170204	-42.3745199858917	68.8944928992086	-42.3850655734032	67.0461484243162	-12.3328899993686	-91.0035946417567	
1537350000	-11.7976692849942	-98.2170738276212	-42.6343150771395	64.6367845865647	-41.9955700964123	62.9186177606944	-12.3488883008176	-92.2438961052443	
1537800000	-11.7976280043893	-99.518968589934	-42.7040181197858	61.3780155580997	-42.4862138971473	59.8402397141753	-12.366692959371	-93.3489117646189	
1538250000	-11.808639653163	-100.799044932189	-42.6829554565282	57.7718289531346	-42.6645255391886	56.4088669872557	-12.3920941724198	-94.486109457662	
1538700000	-11.7961865783534	-101.956031698112	-43.0437592824423	55.2271139842932	-42.4468993209825	53.5184775273932	-12.4129977619138	-95.6493560398606	
1539150000	-11.7922978673004	-103.110837636328	-42.9371908495054	51.8581891488343	-42.7947081507477	49.8231743563915	-12.4126125622213	-96.8318032745367	
1539600000	-11.7735379256797	-104.289888954179	-43.0806462834752	48.8070114667543	-42.619090661571	48.2085417338737	-12.4483484322235	-97.9988075571342	
1540050000	-11.7815404951811	-105.522780320465	-43.1686443928128	43.9673979955596	-42.9226406485895	44.2667464712009	-12.4491998289159	-99.1724255918754	
1540500000	-11.7837094974141	-106.862545588262	-43.1236086643558	44.465097310787	-43.1526036596369	42.8973503992934	-12.4581041132145	-100.265401335767	
1540950000	-11.7798985312215	-108.07103844898	-43.1960903836359	40.525159630256	-43.1475756457445	42.6155391219563	-12.4835790243762	-101.359370869808	
1541400000	-11.7844622570684	-109.186580489833	-43.3474769885505	39.720627189617	-43.3666302327216	40.2291483360673	-12.4841891360386	-102.543788728582	
1541850000	-11.7630217888951	-110.455376595835	-43.0364033230754	36.0299422844693	-42.8308999871241	33.1983976947824	-12.4876433078447	-103.683331855384	
1542300000	-11.7644619416283	-111.704199095412	-43.1463741803625	34.2086818884803	-42.7612154560932	34.2660366174976	-12.5087147236619	-104.86104466696	
1542750000	-11.7666830179176	-112.8593343115	-42.8654919036201	31.1593478132312	-43.0067088635584	34.0792342466373	-12.5340776528673	-105.947543080759	
1543200000	-11.770799111326	-113.98606061577	-42.6572202836993	31.2528428599826	-42.7176436328906	27.7640211874265	-12.5293583227188	-107.176637896005	
1543650000	-11.7831925053976	-115.30115203541	-42.6583561880002	25.1675395086763	-42.2817634281163	26.9109637771035	-12.5439918442642	-108.206553680313	
1544100000	-11.7716229898485	-116.482028932874	-42.7996885095733	23.926832196332	-42.5633127457444	23.2689176753396	-12.5714753170521	-109.404665885794	
1544550000	-11.786604725265	-117.783333980426	-42.4269193562936	17.8162663081653	-42.135302257947	18.9018313429752	-12.5627441904521	-110.524191883538	
1545000000	-11.7756171136572	-118.89554697171	-42.5724984848823	15.5306489653042	-42.1149353161396	16.9704546877944	-12.5687246274482	-111.758381384534	
1545450000	-11.7715964601646	-120.182190764761	-42.5635484501977	13.2519108367934	-42.1398182310117	12.3802536987272	-12.5648708912013	-112.796462949939	
1545900000	-11.7772947062517	-121.391950390982	-42.3786963661389	8.40458840213858	-42.1128874388668	10.3133214497432	-12.5962495865322	-114.029005047895	
1546350000	-11.7784044113204	-122.623916818282	-42.3741031989708	6.27418060596491	-41.9703415479649	5.16630061959005	-12.6034750067124	-115.248977607964	
1546800000	-11.7744301268681	-123.784550784071	-42.7841060671538	2.58081412279833	-42.2932102952236	2.51322767000486	-12.602669699229	-116.440664765983	
1547250000	-11.7824072514964	-125.101890144197	-42.6349405598192	-4.62401718464416	-42.3925042426359	-1.18458712766997	-12.6257190523814	-117.543759780284	
1547700000	-11.7824187274767	-126.301607280706	-43.0448465254592	-7.14727428508152	-42.0843291740069	-5.98840370519335	-12.6244295497638	-118.863673539307	
1548150000	-11.783432669998	-127.507823726597	-43.0851910642634	-8.67143736155837	-42.444947222759	-9.38757532815529	-12.6440571079663	-120.092832769606	
1548600000	-11.7963641621974	-128.648055259818	-43.2252999427406	-12.7067396594379	-42.8064882192435	-14.5965287867704	-12.6668731232803	-121.250743151876	
1549050000	-11.7985967892272	-129.990712976953	-43.6187226843241	-15.1150772045161	-42.870545329794	-17.6810620126344	-12.6619671838065	-122.501893336541	
1549500000	-11.8097997645563	-131.101107668554	-43.5449058270487	-16.6691933885219	-43.0401115113762	-19.3495021449303	-12.6769338984737	-123.558129612001	
1549950000	-11.8063014418285	-132.297961614274	-43.6712047657284	-18.8085384548701	-43.2432382599957	-19.9672702268681	-12.6976753386089	-124.870361504298	
1550400000	-11.8120828624623	-133.503339138323	-43.6673160463199	-18.6008419205042	-43.5951211302687	-22.9588084727136	-12.7082905330329	-126.159803356312	
1550850000	-11.8128614861075	-134.719269350935	-44.0006706124641	-19.2662932320834	-43.335246312849	-24.6056522639918	-12.7289735662031	-127.336205862768	
1551300000	-11.808920451114	-135.864994878311	-43.5411157107315	-22.4445150398852	-43.2120749575055	-25.9992039765287	-12.7432961035574	-128.559624252664	
1551750000	-11.805124743155	-137.125142602085	-43.5678885452007	-25.2772032574685	-43.5785786967206	-28.9662617407544	-12.7470886206345	-129.859026482394	
1552200000	-11.7893732171823	-138.299109247782	-43.5305608686345	-26.9425128514955	-43.2490937922041	-32.47778124587	-12.7776846633755	-131.056861794902	
1552650000	-11.7840762376783	-139.500363927737	-43.6296198883978	-31.9560813497925	-43.1732729349322	-33.4308383974496	-12.792120600333	-132.282335493682	
1553100000	-11.784910267444	-140.819598716553	-43.248460903991	-33.585539978856	-43.299914047884	-38.164148532651	-12.8119762784111	-133.450089291128	
1553550000	-11.7865583621911	-142.08931439768	-43.2795290063977	-37.9880410813654	-43.4027630344604	-38.8713518483269	-12.8368143887657	-134.79499315674	
1554000000	-11.7862039264685	-143.393688256689	-43.4321486807476	-40.4956994763909	-43.2172850387445	-42.3662135719715	-12.8479402804175	-135.893217102691	
1554450000	-11.7763910770756	-144.630971608319	-43.5179280009628	-41.7670649029476	-43.3077628611296	-44.7297405113932	-12.8605431305973	-137.178005950839	
1554900000	-11.7904896869047	-145.922672014518	-43.7616045534994	-44.7082238567211	-43.3779088594362	-46.7909357037558	-12.8793875098625	-138.457312316752	
1555350000	-11.7984390016881	-147.24820096813	-43.3498118461399	-47.6702571760311	-43.3502196256779	-50.4638920085618	-12.9004389304191	-139.799723907974	
1555800000	-11.8084910642968	-148.57226474226	-43.6989983953188	-48.5490150121872	-43.4443144998313	-51.2314066653611	-12.9381257067265	-141.104357463688	
1556250000	-11.8064637764778	-149.794528329611	-43.2467250499409	-53.3843353585435	-43.363417327074	-53.3991872691892	-12.9432906613477	-142.347603474702	
