# HZ S RI R 50
1000000000 0.06343913823366165 -0.512601912021637 -0.0031923791393637657 0.0016631875187158585 0 0 0 0
1000992063 0.038925133645534515 -0.5143304467201233 -0.002451052889227867 0.0017265509814023972 0 0 0 0
1001984126 0.014015182852745056 -0.515518844127655 -0.0019615590572357178 0.0015494870021939278 0 0 0 0
1002976189 -0.008384637534618378 -0.5139424204826355 -0.0018745753914117813 0.0011311173439025879 0 0 0 0
1003968252 -0.03653164952993393 -0.5108749866485596 -0.0019986405968666077 0.0009944755584001541 0 0 0 0
1004960315 -0.0615963339805603 -0.5067998170852661 -0.0018614297732710838 0.0012013884261250496 0 0 0 0
1005952378 -0.08460943400859833 -0.5042529702186584 -0.0016114367172122002 0.0012643123045563698 0 0 0 0
1006944441 -0.10800207406282425 -0.4977215528488159 -0.0015478972345590591 0.0009033111855387688 0 0 0 0
1007936504 -0.1337776780128479 -0.4892239570617676 -0.0017487984150648117 0.0006924262270331383 0 0 0 0
1008928567 -0.15591368079185486 -0.4824467897415161 -0.002225167118012905 0.0008758371695876122 0 0 0 0
1009920630 -0.17679482698440552 -0.4719196557998657 -0.0021841926500201225 0.0010237563401460648 0 0 0 0
1010912693 -0.20051135122776031 -0.46074098348617554 -0.0023601725697517395 0.0012780316174030304 0 0 0 0
1011904756 -0.22120225429534912 -0.44940614700317383 -0.0024543441832065582 0.0015803920105099678 0 0 0 0
1012896819 -0.24216175079345703 -0.4359947741031647 -0.002422954887151718 0.0019319374114274979 0 0 0 0
1013888882 -0.26212456822395325 -0.422993004322052 -0.002298729494214058 0.0023439181968569756 0 0 0 0
1014880945 -0.28021401166915894 -0.4079926311969757 -0.002069307491183281 0.002493632026016712 0 0 0 0
1015873008 -0.31305593252182007 -0.3848762512207031 -0.002068236470222473 0.0027705542743206024 0 0 0 0
1016865071 -0.3280816972255707 -0.36851823329925537 -0.0018830662593245506 0.0032887933775782585 0 0 0 0
1017857134 -0.344194620847702 -0.3516055643558502 -0.001519051380455494 0.0036628376692533493 0 0 0 0
1018849197 -0.35956719517707825 -0.3332124650478363 -0.0011321334168314934 0.004008186981081963 0 0 0 0
1019841260 -0.37473079562187195 -0.3139479458332062 -0.0005465717986226082 0.004437301307916641 0 0 0 0
1020833323 -0.386532723903656 -0.2941972017288208 0.00026520155370235443 0.00471859984099865 0 0 0 0
1021825386 -0.39822888374328613 -0.27533087134361267 0.0011727027595043182 0.004476746544241905 0 0 0 0
1022817449 -0.4114907681941986 -0.2544640004634857 0.0018129656091332436 0.0041538868099451065 0 0 0 0
1023809512 -0.4218026101589203 -0.234490305185318 0.0023527685552835464 0.0035983044654130936 0 0 0 0
1024801575 -0.43114015460014343 -0.21432806551456451 0.002758764661848545 0.0030478602275252342 0 0 0 0
1025793638 -0.4401475489139557 -0.1922181248664856 0.002939356490969658 0.0023009395226836205 0 0 0 0
1026785701 -0.4484385550022125 -0.16667655110359192 0.0028839288279414177 0.0017550215125083923 0 0 0 0
1027777764 -0.45447099208831787 -0.14494287967681885 0.002520564943552017 0.0013658832758665085 0 0 0 0
1028769827 -0.4599571228027344 -0.1226782351732254 0.0023100338876247406 0.0014042966067790985 0 0 0 0
1029761890 -0.46396446228027344 -0.09998388588428497 0.0022115828469395638 0.0014078840613365173 0 0 0 0
1030753953 -0.46747323870658875 -0.07382886111736298 0.002432296983897686 0.0014131562784314156 0 0 0 0
1031746016 -0.46875014901161194 -0.051975347101688385 0.00245730672031641 0.0013076774775981903 0 0 0 0
1032738079 -0.4693901836872101 -0.025958240032196045 0.0025909123942255974 0.0010413778945803642 0 0 0 0
1033730142 -0.4684757590293884 -0.004712224006652832 0.0026540271937847137 0.001190798357129097 0 0 0 0
1034722205 -0.4670224189758301 0.02062162384390831 0.0031058648601174355 0.0008005453273653984 0 0 0 0
1035714268 -0.463622123003006 0.04370163008570671 0.0030717356130480766 0.0002649892121553421 0 0 0 0
1036706331 -0.45919567346572876 0.06776217371225357 0.0027610156685113907 -0.00022307969629764557 0 0 0 0
1037698394 -0.45392024517059326 0.09170195460319519 0.002315940335392952 -0.000201457180082798 0 0 0 0
1038690457 -0.44807183742523193 0.11376521736383438 0.002071307972073555 0.00014187954366207123 0 0 0 0
1039682520 -0.4406583309173584 0.13436466455459595 0.0023847632110118866 0.0004817768931388855 0 0 0 0
1040674583 -0.43206867575645447 0.15698175132274628 0.002743510529398918 0.0006345361471176147 0 0 0 0
1041666646 -0.4224202334880829 0.18001331388950348 0.003213603049516678 0.0004686955362558365 0 0 0 0
1042658709 -0.41203558444976807 0.1998474895954132 0.0037200143560767174 0.00022581033408641815 0 0 0 0
1043650772 -0.4009777903556824 0.21954597532749176 0.0043253470212221146 -0.000516246072947979 0 0 0 0
1044642835 -0.38787031173706055 0.24159333109855652 0.004488304257392883 -0.001492111012339592 0 0 0 0
1045634898 -0.37418562173843384 0.26085010170936584 0.004226863384246826 -0.00250287726521492 0 0 0 0
1046626961 -0.36112019419670105 0.27803099155426025 0.003660152666270733 -0.0033206958323717117 0 0 0 0
1047619024 -0.34518879652023315 0.29717734456062317 0.002816031686961651 -0.003682865761220455 0 0 0 0
1048611087 -0.32836639881134033 0.31507858633995056 0.002073349431157112 -0.003974709659814835 0 0 0 0
1049603150 -0.31241893768310547 0.33125340938568115 0.0015533966943621635 -0.003978444263339043 0 0 0 0
1050595213 -0.2947617769241333 0.34716153144836426 0.0009577376767992973 -0.0039115725085139275 0 0 0 0
1051587276 -0.2758275270462036 0.3619743883609772 0.0005628988146781921 -0.0038403132930397987 0 0 0 0
1052579339 -0.2568313479423523 0.3752591609954834 0.0002642553299665451 -0.0038536312058568 0 0 0 0
1053571402 -0.2365311086177826 0.38785460591316223 -0.00020706560462713242 -0.004013270139694214 0 0 0 0
1054563465 -0.21711590886116028 0.3995973765850067 -0.0009337859228253365 -0.003946835175156593 0 0 0 0
1055555528 -0.1972644031047821 0.41029030084609985 -0.001681099645793438 -0.0036415131762623787 0 0 0 0
1056547591 -0.1752348244190216 0.4220905601978302 -0.0021209362894296646 -0.0030090175569057465 0 0 0 0
1057539654 -0.15484362840652466 0.43094104528427124 -0.002140248194336891 -0.002527971751987934 0 0 0 0
1058531717 -0.13097597658634186 0.4394015669822693 -0.002369319088757038 -0.00231107696890831 0 0 0 0
1059523780 -0.10920816659927368 0.44702544808387756 -0.0027606626972556114 -0.0019948845729231834 0 0 0 0
1060515843 -0.08593270927667618 0.4527077078819275 -0.0030612992122769356 -0.0012756641954183578 0 0 0 0
1061507906 -0.0632801502943039 0.4586164355278015 -0.0029962630942463875 -0.0005392832681536674 0 0 0 0
1062499969 -0.03838600218296051 0.46343931555747986 -0.002785809338092804 0.0002197902649641037 0 0 0 0
1063492032 -0.0148535817861557 0.46573740243911743 -0.002202162519097328 0.0009359531104564667 0 0 0 0
1064484095 0.01050567626953125 0.4672594368457794 -0.0012216558679938316 0.0011707115918397903 0 0 0 0
1065476158 0.03441256284713745 0.4686412513256073 -0.00027325376868247986 0.0009055836126208305 0 0 0 0
1066468221 0.06028713285923004 0.46808505058288574 0.000154898501932621 0.00026225950568914413 0 0 0 0
1067460284 0.08590266853570938 0.46674099564552307 0.0002909097820520401 -0.00039639975875616074 0 0 0 0
1068452347 0.10925805568695068 0.46221500635147095 0.0002984851598739624 -0.0010394100099802017 0 0 0 0
1069444410 0.13602328300476074 0.45713478326797485 -0.00033198948949575424 -0.0018033599480986595 0 0 0 0
1070436473 0.15874063968658447 0.45171356201171875 -0.0011062510311603546 -0.001977830193936825 0 0 0 0
1071428536 0.18152382969856262 0.44503462314605713 -0.001654420979321003 -0.0017732912674546242 0 0 0 0
1072420599 0.2068082094192505 0.4361826777458191 -0.002169824205338955 -0.0014268001541495323 0 0 0 0
1073412662 0.22753816843032837 0.42839664220809937 -0.0025213612243533134 -0.0012145675718784332 0 0 0 0
1074404725 0.25417035818099976 0.41528189182281494 -0.0027959896251559258 -0.0006514759734272957 0 0 0 0
1075396788 0.27343234419822693 0.40475720167160034 -0.002907699905335903 -9.057018905878067e-05 0 0 0 0
1076388851 0.2950822114944458 0.3904416561126709 -0.0028328709304332733 0.0003253007307648659 0 0 0 0
1077380914 0.31447237730026245 0.37824463844299316 -0.0027942974120378494 0.0006911829113960266 0 0 0 0
1078372977 0.33493271470069885 0.3615192174911499 -0.0026286542415618896 0.0011161034926772118 0 0 0 0
1079365040 0.35427120327949524 0.34604766964912415 -0.0023294957354664803 0.0014250315725803375 0 0 0 0
1080357103 0.3726716637611389 0.3282555341720581 -0.002231861464679241 0.0016728518530726433 0 0 0 0
1081349166 0.39064323902130127 0.31050905585289 -0.002024800516664982 0.0020693382248282433 0 0 0 0
1082341229 0.40727218985557556 0.2927890121936798 -0.0014858385547995567 0.0023903483524918556 0 0 0 0
1083333292 0.4229104518890381 0.2741745114326477 -0.0008293762803077698 0.0022690221667289734 0 0 0 0
1084325355 0.43821775913238525 0.25331223011016846 -0.0004965392872691154 0.0018661124631762505 0 0 0 0
1085317418 0.4531274735927582 0.23125460743904114 -0.0005716448649764061 0.0015261871740221977 0 0 0 0
1086309481 0.4660238027572632 0.2099311649799347 -0.000713900662958622 0.001680108718574047 0 0 0 0
1087301544 0.47738394141197205 0.18729698657989502 -0.0005100471898913383 0.0017810706049203873 0 0 0 0
1088293607 0.48883363604545593 0.1628836691379547 -0.00033201463520526886 0.0017396043986082077 0 0 0 0
1089285670 0.4978731870651245 0.14192868769168854 -0.00023712217807769775 0.0016819769516587257 0 0 0 0
1090277733 0.5055890083312988 0.11720628291368484 -0.00017316173762083054 0.0015362268313765526 0 0 0 0
1091269796 0.5128260254859924 0.094298355281353 -0.00021230988204479218 0.00141924899071455 0 0 0 0
1092261859 0.5190547704696655 0.068302221596241 -0.0002620052546262741 0.0014491630718111992 0 0 0 0
1093253922 0.524046003818512 0.04320397600531578 -0.00029707327485084534 0.0015055909752845764 0 0 0 0
1094245985 0.5266616940498352 0.016865413635969162 -0.0004619220271706581 0.0015512686222791672 0 0 0 0
1095238048 0.5288163423538208 -0.008871801197528839 -0.0004771249368786812 0.001932060346007347 0 0 0 0
1096230111 0.5297773480415344 -0.03327615186572075 -9.706523269414902e-05 0.0020981933921575546 0 0 0 0
1097222174 0.5281420350074768 -0.06009071320295334 0.00019259192049503326 0.002056271769106388 0 0 0 0
1098214237 0.5262317061424255 -0.0853140652179718 0.0002865064889192581 0.0019478453323245049 0 0 0 0
1099206300 0.5228230357170105 -0.11204899847507477 0.0004294831305742264 0.0018942328169941902 0 0 0 0
1100198363 0.5235346555709839 -0.11759096384048462 0.00048496294766664505 0.0021418416872620583 0 0 0 0
1101190426 0.5185797810554504 -0.1408829689025879 0.0006573256105184555 0.0021623875945806503 0 0 0 0
1102182489 0.5099213123321533 -0.16811063885688782 0.0008639739826321602 0.002121935598552227 0 0 0 0
1103174552 0.5026707053184509 -0.19279614090919495 0.0010082433000206947 0.0020550070330500603 0 0 0 0
1104166615 0.4925393760204315 -0.21523500978946686 0.0012347539886832237 0.001951516605913639 0 0 0 0
1105158678 0.48162293434143066 -0.23841288685798645 0.0013080602511763573 0.0015028882771730423 0 0 0 0
1106150741 0.4706510305404663 -0.2607535719871521 0.0010211654007434845 0.0013719750568270683 0 0 0 0
1107142804 0.4562374949455261 -0.2839832603931427 0.0007336251437664032 0.0014932947233319283 0 0 0 0
1108134867 0.4439718425273895 -0.30497294664382935 0.0005472134798765182 0.00209086574614048 0 0 0 0
1109126930 0.4308035373687744 -0.3228970468044281 0.0009610150009393692 0.002740035764873028 0 0 0 0
1110118993 0.416500985622406 -0.34105876088142395 0.001612383872270584 0.0029840609058737755 0 0 0 0
1111111056 0.3996582329273224 -0.3610060513019562 0.002269357442855835 0.0029364340007305145 0 0 0 0
1112103119 0.38090160489082336 -0.3785472512245178 0.0030359430238604546 0.0026486199349164963 0 0 0 0
1113095182 0.36388278007507324 -0.39526432752609253 0.0035601146519184113 0.002115316689014435 0 0 0 0
1114087245 0.3438678979873657 -0.41206875443458557 0.003882809542119503 0.0016401438042521477 0 0 0 0
1115079308 0.3269168734550476 -0.42476996779441833 0.004169078543782234 0.0011067269369959831 0 0 0 0
1116071371 0.3041214942932129 -0.44064754247665405 0.00441419892013073 0.0004518479108810425 0 0 0 0
1117063434 0.28379762172698975 -0.45225849747657776 0.004244844429194927 -0.00044052116572856903 0 0 0 0
1118055497 0.2607392966747284 -0.46503201127052307 0.0038200952112674713 -0.0012220973148941994 0 0 0 0
1119047560 0.2402770072221756 -0.4741571545600891 0.0030954424291849136 -0.0015412289649248123 0 0 0 0
1120039623 0.21681943535804749 -0.48432132601737976 0.0024084607139229774 -0.001368640922009945 0 0 0 0
1121031686 0.19582179188728333 -0.4922691881656647 0.0021060463041067123 -0.0009157750755548477 0 0 0 0
1122023749 0.17117734253406525 -0.49975302815437317 0.0023080753162503242 -0.0006104446947574615 0 0 0 0
1123015812 0.14704465866088867 -0.5080458521842957 0.002692542038857937 -0.0004090219736099243 0 0 0 0
1124007875 0.12521272897720337 -0.5107945203781128 0.0031705768778920174 -0.0007948065176606178 0 0 0 0
1124999938 0.10215535014867783 -0.5148952603340149 0.003219746984541416 -0.001420636661350727 0 0 0 0
1125992001 0.07734380662441254 -0.5176839828491211 0.0029176948592066765 -0.001796823926270008 0 0 0 0
1126984064 0.054017573595047 -0.5182219743728638 0.002696041017770767 -0.001848583109676838 0 0 0 0
1127976127 0.033173754811286926 -0.5334226489067078 0.0027007153257727623 -0.002226976677775383 0 0 0 0
1128968190 0.007681049406528473 -0.5146769285202026 0.002462483011186123 -0.002375188283622265 0 0 0 0
1129960253 -0.015308305621147156 -0.513460636138916 0.0021672677248716354 -0.002630414441227913 0 0 0 0
1130952316 -0.03936820477247238 -0.51111900806427 0.001790226437151432 -0.002684186212718487 0 0 0 0
1131944379 -0.060997650027275085 -0.5085309147834778 0.0015965010970830917 -0.0026552164927124977 0 0 0 0
1132936442 -0.08307231962680817 -0.5015256404876709 0.0015345299616456032 -0.0026818830519914627 0 0 0 0
1133928505 -0.12079393118619919 -0.49415475130081177 0.0014580469578504562 -0.0027754437178373337 0 0 0 0
1134920568 -0.14451813697814941 -0.4848417043685913 0.0013697938993573189 -0.0029045576229691505 0 0 0 0
1135912631 -0.1659351885318756 -0.47609004378318787 0.001331486739218235 -0.003085590898990631 0 0 0 0
1136904694 -0.18588396906852722 -0.4647257626056671 0.001034403219819069 -0.0032643424347043037 0 0 0 0
1137896757 -0.2047753930091858 -0.45308393239974976 0.00071739312261343 -0.0036708107218146324 0 0 0 0
1138888820 -0.2221563160419464 -0.4408920109272003 5.1645562052726746e-05 -0.003740072250366211 0 0 0 0
1139880883 -0.24016529321670532 -0.42816585302352905 -0.0005424236878752708 -0.003477737307548523 0 0 0 0
1140872946 -0.2594233453273773 -0.41568198800086975 -0.0007613124325871468 -0.0031483331695199013 0 0 0 0
1141865009 -0.2746737003326416 -0.40111586451530457 -0.0007945401594042778 -0.0026590703055262566 0 0 0 0
1142857072 -0.2910628318786621 -0.3855111300945282 -0.0006726188585162163 -0.002418236806988716 0 0 0 0
1143849135 -0.306029736995697 -0.3694939911365509 -0.0004372214898467064 -0.0025178445503115654 0 0 0 0
1144841198 -0.32078784704208374 -0.35286596417427063 -0.0004301276057958603 -0.0028097182512283325 0 0 0 0
1145833261 -0.33359494805336 -0.3383699357509613 -0.0008234195411205292 -0.003044774755835533 0 0 0 0
1146825324 -0.34719526767730713 -0.31724217534065247 -0.001171632669866085 -0.00281525868922472 0 0 0 0
1147817387 -0.3571843206882477 -0.3008855879306793 -0.0012232540175318718 -0.002569868229329586 0 0 0 0
1148809450 -0.3697248101234436 -0.28231295943260193 -0.0012941369786858559 -0.0025330660864710808 0 0 0 0
1149801513 -0.37866878509521484 -0.26254355907440186 -0.0012630932033061981 -0.002609454095363617 0 0 0 0
1150793576 -0.388964980840683 -0.24455472826957703 -0.001482582651078701 -0.0026083998382091522 0 0 0 0
1151785639 -0.3974619507789612 -0.223370760679245 -0.0015874532982707024 -0.00258522666990757 0 0 0 0
1152777702 -0.4037591516971588 -0.20595398545265198 -0.0015254700556397438 -0.0027280235663056374 0 0 0 0
1153769765 -0.41017404198646545 -0.18452277779579163 -0.0017529726028442383 -0.002920442260801792 0 0 0 0
1154761828 -0.4145437777042389 -0.16607624292373657 -0.002227197401225567 -0.0030745854601264 0 0 0 0
1155753891 -0.4199250340461731 -0.1447353959083557 -0.002902878448367119 -0.003072052262723446 0 0 0 0
1156745954 -0.4228666424751282 -0.1256815493106842 -0.003470928408205509 -0.0026801982894539833 0 0 0 0
1157738017 -0.42679184675216675 -0.10321860015392303 -0.0039394209161400795 -0.002071484923362732 0 0 0 0
1158730080 -0.42833733558654785 -0.08279048651456833 -0.003974344581365585 -0.0015042591840028763 0 0 0 0
1159722143 -0.4284835457801819 -0.06223791092634201 -0.003753241151571274 -0.0010313531383872032 0 0 0 0
1160714206 -0.4284762740135193 -0.04165804386138916 -0.0035514747723937035 -0.0010149264708161354 0 0 0 0
1161706269 -0.4272226393222809 -0.02062268555164337 -0.0036597708240151405 -0.0012460500001907349 0 0 0 0
1162698332 -0.4251604676246643 0.00016943737864494324 -0.004200898110866547 -0.0011948663741350174 0 0 0 0
1163690395 -0.4217333197593689 0.020971247926354408 -0.004707685671746731 -0.0007056603208184242 0 0 0 0
1164682458 -0.41741394996643066 0.040932390838861465 -0.004931909032166004 -6.0928985476493835e-05 0 0 0 0
1165674521 -0.4124302864074707 0.06063278019428253 -0.0049127815291285515 0.0006285617128014565 0 0 0 0
1166666584 -0.40618589520454407 0.07955124229192734 -0.004657672718167305 0.001264539547264576 0 0 0 0
1167658647 -0.39974474906921387 0.09814798831939697 -0.004318875260651112 0.001677115447819233 0 0 0 0
1168650710 -0.3925815522670746 0.11617082357406616 -0.004033231176435947 0.001810477115213871 0 0 0 0
1169642773 -0.38352054357528687 0.13658127188682556 -0.003846464678645134 0.002130810171365738 0 0 0 0
1170634836 -0.3746908903121948 0.15350022912025452 -0.0035141687840223312 0.0020906254649162292 0 0 0 0
1171626899 -0.36596184968948364 0.17178542912006378 -0.0034883571788668633 0.002045045606791973 0 0 0 0
1172618962 -0.3530277609825134 0.19129721820354462 -0.0037059923633933067 0.002091551199555397 0 0 0 0
1173611025 -0.34156009554862976 0.20762601494789124 -0.004034889861941338 0.002416246570646763 0 0 0 0
1174603088 -0.3307725787162781 0.22156991064548492 -0.004083204083144665 0.003184972330927849 0 0 0 0
1175595151 -0.3158257007598877 0.23699159920215607 -0.003788023255765438 0.003861628472805023 0 0 0 0
1176587214 -0.30199727416038513 0.252224862575531 -0.0034079141914844513 0.004243474453687668 0 0 0 0
1177579277 -0.28781402111053467 0.2661140263080597 -0.0029812809079885483 0.004561875015497208 0 0 0 0
1178571340 -0.2736297845840454 0.2788363993167877 -0.002787643112242222 0.0047330306842923164 0 0 0 0
1179563403 -0.25712835788726807 0.2912592589855194 -0.002592780627310276 0.0050747450441122055 0 0 0 0
1180555466 -0.2402578592300415 0.30341988801956177 -0.0021916069090366364 0.005773231387138367 0 0 0 0
1181547529 -0.2248169183731079 0.3147783875465393 -0.0014669820666313171 0.0064375633373856544 0 0 0 0
1182539592 -0.20541656017303467 0.3247109651565552 -0.00046398211270570755 0.006721452809870243 0 0 0 0
1183531655 -0.18803033232688904 0.33454087376594543 0.0005524884909391403 0.006633763201534748 0 0 0 0
1184523718 -0.17028376460075378 0.3412787616252899 0.001303243450820446 0.006472018547356129 0 0 0 0
1185515781 -0.15051285922527313 0.34900185465812683 0.0021209828555583954 0.006110798567533493 0 0 0 0
1186507844 -0.13374784588813782 0.3553139269351959 0.0027635740116238594 0.0055994912981987 0 0 0 0
1187499907 -0.11519411951303482 0.36045581102371216 0.0034022321924567223 0.004906882531940937 0 0 0 0
1188491970 -0.09776391834020615 0.36646148562431335 0.0036226538941264153 0.004343247041106224 0 0 0 0
1189484033 -0.07713139057159424 0.3706037998199463 0.003882540389895439 0.003842119127511978 0 0 0 0
1190476096 -0.058561503887176514 0.3743709921836853 0.004055037163197994 0.0032148603349924088 0 0 0 0
