# HZ S RI R 50
1000000000 0.06318573653697968 -0.5112267136573792 -0.0036173276603221893 0.003345351666212082 0 0 0 0
1000992063 0.0371382012963295 -0.5124071836471558 -0.0030590826645493507 0.0033303312957286835 0 0 0 0
1001984126 0.012958504259586334 -0.5103159546852112 -0.002603289671242237 0.003242150880396366 0 0 0 0
1002976189 -0.013040494173765182 -0.5113233327865601 -0.002330109477043152 0.0032665804028511047 0 0 0 0
1003968252 -0.036014191806316376 -0.5086921453475952 -0.0020571984350681305 0.003257802687585354 0 0 0 0
1004960315 -0.05959336459636688 -0.506175696849823 -0.0017243018373847008 0.0033952686935663223 0 0 0 0
1005952378 -0.08343745023012161 -0.5010891556739807 -0.0011679958552122116 0.0032543307170271873 0 0 0 0
1006944441 -0.10493718087673187 -0.49616461992263794 -0.0007462780922651291 0.0028344299644231796 0 0 0 0
1007936504 -0.13124236464500427 -0.48944857716560364 -0.0008658180013298988 0.0022872574627399445 0 0 0 0
1008928567 -0.15497541427612305 -0.48125651478767395 -0.0012203501537442207 0.0021930430084466934 0 0 0 0
1009920630 -0.17678958177566528 -0.47172409296035767 -0.0014698728919029236 0.002468099817633629 0 0 0 0
1010912693 -0.19854743778705597 -0.46143150329589844 -0.0014429613947868347 0.0027632061392068863 0 0 0 0
1011904756 -0.22032120823860168 -0.4496280550956726 -0.0012513399124145508 0.00283712986856699 0 0 0 0
1012896819 -0.2397599220275879 -0.4371837377548218 -0.0011607073247432709 0.003005511127412319 0 0 0 0
1013888882 -0.26006612181663513 -0.4239249527454376 -0.0011173039674758911 0.003058146685361862 0 0 0 0
1014880945 -0.28023791313171387 -0.40869027376174927 -0.0012250561267137527 0.003259924240410328 0 0 0 0
1015873008 -0.2985493540763855 -0.39315468072891235 -0.001488042064011097 0.0039197951555252075 0 0 0 0
1016865071 -0.32896149158477783 -0.369068443775177 -0.0008862940594553947 0.004651821218430996 0 0 0 0
1017857134 -0.34385472536087036 -0.3526301681995392 -5.53373247385025e-05 0.0052483174949884415 0 0 0 0
1018849197 -0.35945361852645874 -0.334804505109787 0.0008747614920139313 0.005350716412067413 0 0 0 0
1019841260 -0.3740267753601074 -0.3154333829879761 0.0017714863643050194 0.005238128826022148 0 0 0 0
1020833323 -0.3861970007419586 -0.2965029180049896 0.0025368481874465942 0.005136712454259396 0 0 0 0
1021825386 -0.3999978303909302 -0.2760423421859741 0.003709751181304455 0.004524740390479565 0 0 0 0
1022817449 -0.4117506444454193 -0.25612902641296387 0.004327339120209217 0.0038614189252257347 0 0 0 0
1023809512 -0.42322954535484314 -0.2347276359796524 0.004778395406901836 0.0028484156355261803 0 0 0 0
1024801575 -0.43144485354423523 -0.21430444717407227 0.00502164289355278 0.0019260440021753311 0 0 0 0
1025793638 -0.4410075545310974 -0.19121688604354858 0.004921272397041321 0.0008778972551226616 0 0 0 0
1026785701 -0.44839537143707275 -0.16849778592586517 0.004530684091150761 5.6560151278972626e-05 0 0 0 0
1027777764 -0.4551420211791992 -0.1458759307861328 0.0039938874542713165 -0.0004349490627646446 0 0 0 0
1028769827 -0.46128106117248535 -0.12177428603172302 0.0034257369115948677 -0.0007493514567613602 0 0 0 0
1029761890 -0.46531975269317627 -0.09999388456344604 0.002866288647055626 -0.0007344726473093033 0 0 0 0
1030753953 -0.4683167040348053 -0.07528254389762878 0.002801031805574894 -0.0006431806832551956 0 0 0 0
1031746016 -0.4699309468269348 -0.05192020162940025 0.0026289867237210274 -0.0006988979876041412 0 0 0 0
1032738079 -0.4705595374107361 -0.02720797434449196 0.002598547376692295 -0.0007162764668464661 0 0 0 0
1033730142 -0.46971622109413147 -0.003339894115924835 0.0026022465899586678 -0.000704287551343441 0 0 0 0
1034722205 -0.4686086177825928 0.019634809345006943 0.0027334531769156456 -0.0011002784594893456 0 0 0 0
1035714268 -0.46571221947669983 0.04390912503004074 0.0024749021977186203 -0.0015314389020204544 0 0 0 0
1036706331 -0.4616507887840271 0.06812021881341934 0.0019591404125094414 -0.0018222909420728683 0 0 0 0
1037698394 -0.4570656716823578 0.09091930836439133 0.0013996455818414688 -0.0015322016552090645 0 0 0 0
1038690457 -0.4500722885131836 0.11615891009569168 0.0010528014972805977 -0.0011782851070165634 0 0 0 0
1039682520 -0.44261202216148376 0.13694031536579132 0.0011978112161159515 -0.0005872985348105431 0 0 0 0
1040674583 -0.43380892276763916 0.15979257225990295 0.0016244901344180107 -0.0002805953845381737 0 0 0 0
1041666646 -0.4229559600353241 0.18236857652664185 0.002172897569835186 -0.0004149070009589195 0 0 0 0
1042658709 -0.412348210811615 0.2029886692762375 0.0024985317140817642 -0.0007740100845694542 0 0 0 0
1043650772 -0.40103691816329956 0.2233756184577942 0.0028494279831647873 -0.0011777384206652641 0 0 0 0
1044642835 -0.3894738554954529 0.2420516163110733 0.0030183708295226097 -0.0018214182928204536 0 0 0 0
1045634898 -0.3755076825618744 0.2629518210887909 0.002919965423643589 -0.002826225943863392 0 0 0 0
1046626961 -0.3602786660194397 0.28310638666152954 0.0022406941279768944 -0.003531365655362606 0 0 0 0
1047619024 -0.34579673409461975 0.2997278571128845 0.0014159753918647766 -0.003818926401436329 0 0 0 0
1048611087 -0.3286118507385254 0.318297415971756 0.0007176278159022331 -0.003801817074418068 0 0 0 0
1049603150 -0.31084346771240234 0.33542874455451965 0.00025918614119291306 -0.0037687579169869423 0 0 0 0
1050595213 -0.2926051914691925 0.3500472605228424 -0.00018996000289916992 -0.0036442428827285767 0 0 0 0
1051587276 -0.2751041054725647 0.3633979558944702 -0.0007748650386929512 -0.003563093952834606 0 0 0 0
1052579339 -0.2542341947555542 0.37777814269065857 -0.0012148953974246979 -0.0033968230709433556 0 0 0 0
1053571402 -0.23578880727291107 0.3901042640209198 -0.0017561065033078194 -0.003125707618892193 0 0 0 0
1054563465 -0.21310655772686005 0.4029996991157532 -0.0020938655361533165 -0.0026364903897047043 0 0 0 0
1055555528 -0.1938779205083847 0.4126082956790924 -0.002432389184832573 -0.002199803479015827 0 0 0 0
1056547591 -0.17444509267807007 0.4229743480682373 -0.0025501083582639694 -0.001644941046833992 0 0 0 0
1057539654 -0.15156565606594086 0.433157742023468 -0.0024394486099481583 -0.0012340107932686806 0 0 0 0
1058531717 -0.12844406068325043 0.441449910402298 -0.002499734051525593 -0.0009990651160478592 0 0 0 0
1059523780 -0.10543619841337204 0.44919565320014954 -0.0026310617104172707 -0.0006667710840702057 0 0 0 0
1060515843 -0.08280627429485321 0.45548367500305176 -0.0027406131848692894 -6.239954382181168e-05 0 0 0 0
1061507906 -0.05688491463661194 0.4603094756603241 -0.0025984561070799828 0.000516992062330246 0 0 0 0
1062499969 -0.03412812948226929 0.46348604559898376 -0.0022669583559036255 0.0011223601177334785 0 0 0 0
1063492032 -0.008905082941055298 0.4659096598625183 -0.0016006100922822952 0.0017635580152273178 0 0 0 0
1064484095 0.014552555978298187 0.4674110412597656 -0.0007561603561043739 0.001841079443693161 0 0 0 0
1065476158 0.03829722851514816 0.4667513966560364 3.100372850894928e-06 0.001636437140405178 0 0 0 0
1066468221 0.06507319957017899 0.46584421396255493 0.0005421899259090424 0.001117616891860962 0 0 0 0
1067460284 0.08887321501970291 0.4640403985977173 0.0009297579526901245 0.0005548065528273582 0 0 0 0
1068452347 0.11442980915307999 0.4611082673072815 0.0011923369020223618 -0.00024024676531553268 0 0 0 0
1069444410 0.13918182253837585 0.45384299755096436 0.0010294169187545776 -0.0009220996871590614 0 0 0 0
1070436473 0.16315916180610657 0.44739818572998047 0.00048549287021160126 -0.0014726584777235985 0 0 0 0
1071428536 0.18678832054138184 0.43983885645866394 -0.00013558939099311829 -0.0017983727157115936 0 0 0 0
1072420599 0.2086559683084488 0.43161889910697937 -0.0008904486894607544 -0.0017484407871961594 0 0 0 0
1073412662 0.23126593232154846 0.42204922437667847 -0.0013453597202897072 -0.001463247463107109 0 0 0 0
1074404725 0.2537989020347595 0.41060882806777954 -0.001796499826014042 -0.0010993555188179016 0 0 0 0
1075396788 0.27485257387161255 0.3989662230014801 -0.002033611759543419 -0.0007446613162755966 0 0 0 0
1076388851 0.29446929693222046 0.38585108518600464 -0.002063419669866562 -0.0003165304660797119 0 0 0 0
1077380914 0.3151853382587433 0.3722717761993408 -0.002059370279312134 -6.55902549624443e-05 0 0 0 0
1078372977 0.33503565192222595 0.3577829599380493 -0.002157684415578842 0.0002265172079205513 0 0 0 0
1079365040 0.35504835844039917 0.34110718965530396 -0.00208450760692358 0.00056423619389534 0 0 0 0
1080357103 0.37206313014030457 0.32489919662475586 -0.002182159572839737 0.0009917570278048515 0 0 0 0
1081349166 0.39080810546875 0.3076098561286926 -0.0019640885293483734 0.0015262356027960777 0 0 0 0
1082341229 0.4066747725009918 0.2886480391025543 -0.001578325405716896 0.0019887955859303474 0 0 0 0
1083333292 0.42274677753448486 0.2699928879737854 -0.0009711366146802902 0.0020983750000596046 0 0 0 0
1084325355 0.4380141496658325 0.24735920131206512 -0.00034158024936914444 0.0019898796454072 0 0 0 0
1085317418 0.4518227279186249 0.2254454493522644 -2.4318695068359375e-05 0.0015513310208916664 0 0 0 0
1086309481 0.4637301564216614 0.206346333026886 -0.00012698397040367126 0.0013333624228835106 0 0 0 0
1087301544 0.4756566286087036 0.18298274278640747 4.275701940059662e-06 0.001338733360171318 0 0 0 0
1088293607 0.4851563572883606 0.16257956624031067 0.00015267729759216309 0.0012065256014466286 0 0 0 0
1089285670 0.4952324628829956 0.13654378056526184 0.00021765101701021194 0.0009873416274785995 0 0 0 0
1090277733 0.5042943358421326 0.11210635304450989 9.704474359750748e-05 0.0007367189973592758 0 0 0 0
1091269796 0.5106253027915955 0.09025390446186066 2.3745931684970856e-05 0.0007146541029214859 0 0 0 0
1092261859 0.5156248211860657 0.06705797463655472 -7.608160376548767e-05 0.0004840558394789696 0 0 0 0
1093253922 0.52046799659729 0.038806039839982986 -0.0003709094598889351 0.00037703849375247955 0 0 0 0
1094245985 0.5237554311752319 0.015058964490890503 -0.0007425909861922264 0.0004771193489432335 0 0 0 0
1095238048 0.5240438580513 -0.011206068098545074 -0.0008174283429980278 0.0008173519745469093 0 0 0 0
1096230111 0.5237486362457275 -0.036169204860925674 -0.0007615992799401283 0.0011606691405177116 0 0 0 0
1097222174 0.5246402025222778 -0.06150643154978752 -0.0006920406594872475 0.001204412430524826 0 0 0 0
1098214237 0.5218616127967834 -0.0866091325879097 -0.0006873570382595062 0.0012913858518004417 0 0 0 0
1099206300 0.5184046626091003 -0.1125536859035492 -0.0009297206997871399 0.001448439434170723 0 0 0 0
1100198363 0.5190755724906921 -0.11748337745666504 -0.0011189030483365059 0.001976465806365013 0 0 0 0
1101190426 0.5138639211654663 -0.14139829576015472 -0.0007783304899930954 0.002602699212729931 0 0 0 0
1102182489 0.5075210332870483 -0.16478705406188965 -0.00017648842185735703 0.002838308922946453 0 0 0 0
1103174552 0.49867019057273865 -0.19101282954216003 0.00022771209478378296 0.002759716473519802 0 0 0 0
1104166615 0.48786288499832153 -0.2160681188106537 0.000537646934390068 0.002748786471784115 0 0 0 0
1105158678 0.47766193747520447 -0.23867487907409668 0.0007877573370933533 0.0026810364797711372 0 0 0 0
1106150741 0.46699127554893494 -0.25970080494880676 0.0009886911138892174 0.002563958056271076 0 0 0 0
1107142804 0.45518437027931213 -0.2799353003501892 0.0010634204372763634 0.002419542521238327 0 0 0 0
1108134867 0.44129225611686707 -0.30214178562164307 0.000930500216782093 0.0026964033022522926 0 0 0 0
1109126930 0.42753687500953674 -0.3218211233615875 0.001268601045012474 0.0031626950949430466 0 0 0 0
1110118993 0.4114702343940735 -0.34077146649360657 0.0019593005999922752 0.003251202404499054 0 0 0 0
1111111056 0.39588284492492676 -0.35845085978507996 0.0025896914303302765 0.003205733373761177 0 0 0 0
1112103119 0.3783756494522095 -0.3762752413749695 0.0033688638359308243 0.0029978640377521515 0 0 0 0
1113095182 0.36089375615119934 -0.3932683765888214 0.004037501290440559 0.002348797395825386 0 0 0 0
1114087245 0.3394727110862732 -0.4111872911453247 0.004402447491884232 0.0016019241884350777 0 0 0 0
1115079308 0.32322850823402405 -0.4223737418651581 0.0046034203842282295 0.0009080842137336731 0 0 0 0
1116071371 0.3011890649795532 -0.4369059205055237 0.004532933235168457 5.934014916419983e-05 0 0 0 0
1117063434 0.2825322151184082 -0.4492276608943939 0.004325130954384804 -0.0006028609350323677 0 0 0 0
1118055497 0.26004835963249207 -0.46181708574295044 0.003926543518900871 -0.001226356253027916 0 0 0 0
1119047560 0.2383204698562622 -0.47155946493148804 0.0034672701731324196 -0.0016106478869915009 0 0 0 0
1120039623 0.21745985746383667 -0.48228803277015686 0.0028727343305945396 -0.0018292488530278206 0 0 0 0
1121031686 0.1930548995733261 -0.4897194504737854 0.0023372462019324303 -0.0017433054745197296 0 0 0 0
1122023749 0.17103175818920135 -0.4979843497276306 0.002103951759636402 -0.0014361338689923286 0 0 0 0
1123015812 0.1494552046060562 -0.5015861988067627 0.002122732810676098 -0.0012500770390033722 0 0 0 0
1124007875 0.12453262507915497 -0.508145272731781 0.0022977935150265694 -0.0013296520337462425 0 0 0 0
1124999938 0.10124562680721283 -0.5105538368225098 0.00215922761708498 -0.001451876014471054 0 0 0 0
1125992001 0.07528098672628403 -0.5143454670906067 0.0021112319082021713 -0.0015503307804465294 0 0 0 0
1126984064 0.05407737195491791 -0.5136923789978027 0.0021125199273228645 -0.0014301864430308342 0 0 0 0
1127976127 0.039101675152778625 -0.5256358981132507 0.00224155280739069 -0.0017786575481295586 0 0 0 0
1128968190 0.005894005298614502 -0.5123758316040039 0.0021773390471935272 -0.0020429063588380814 0 0 0 0
1129960253 -0.012988060712814331 -0.5103480219841003 0.001997964456677437 -0.0023993980139493942 0 0 0 0
1130952316 -0.039312586188316345 -0.5076726078987122 0.0017163082957267761 -0.0024804556742310524 0 0 0 0
1131944379 -0.06359842419624329 -0.5035097002983093 0.0015116948634386063 -0.00242060050368309 0 0 0 0
1132936442 -0.08260730654001236 -0.49765148758888245 0.0015156939625740051 -0.002466515637934208 0 0 0 0
1133928505 -0.12141739577054977 -0.4905931353569031 0.001389489509165287 -0.0027484428137540817 0 0 0 0
1134920568 -0.1416812688112259 -0.482506662607193 0.0008836248889565468 -0.00294375978410244 0 0 0 0
1135912631 -0.1606646180152893 -0.4736602008342743 0.0007095504552125931 -0.002793719992041588 0 0 0 0
1136904694 -0.18243394792079926 -0.4624931216239929 0.000593588687479496 -0.0028060339391231537 0 0 0 0
1137896757 -0.20012527704238892 -0.451003760099411 0.0004258314147591591 -0.003040115348994732 0 0 0 0
1138888820 -0.22146829962730408 -0.43861350417137146 -0.0002812454476952553 -0.0030944431200623512 0 0 0 0
1139880883 -0.23710989952087402 -0.4265753924846649 -0.0007367823272943497 -0.0026144906878471375 0 0 0 0
1140872946 -0.2561933696269989 -0.412570983171463 -0.0006717275828123093 -0.0020558899268507957 0 0 0 0
1141865009 -0.2710700035095215 -0.3985273838043213 -0.0003473134711384773 -0.0019439123570919037 0 0 0 0
1142857072 -0.287647545337677 -0.38420823216438293 -0.00020073167979717255 -0.0019224509596824646 0 0 0 0
1143849135 -0.3018386960029602 -0.3689267933368683 -5.990266799926758e-05 -0.001944189891219139 0 0 0 0
1144841198 -0.318795770406723 -0.35367393493652344 7.271207869052887e-05 -0.0022462038323283195 0 0 0 0
1145833261 -0.33111506700515747 -0.3387529253959656 -0.00014587678015232086 -0.002435646951198578 0 0 0 0
1146825324 -0.3444744348526001 -0.318450003862381 -0.00044410862028598785 -0.002440640702843666 0 0 0 0
1147817387 -0.35605159401893616 -0.302222341299057 -0.0004857610911130905 -0.002242998220026493 0 0 0 0
1148809450 -0.36793625354766846 -0.2836538255214691 -0.00037439726293087006 -0.002315327525138855 0 0 0 0
1149801513 -0.37693047523498535 -0.2640911638736725 -0.00031115952879190445 -0.0025467649102211 0 0 0 0
1150793576 -0.38637232780456543 -0.24454520642757416 -0.00042185094207525253 -0.0029463740065693855 0 0 0 0
1151785639 -0.39444494247436523 -0.2254694104194641 -0.000698920339345932 -0.0033127618953585625 0 0 0 0
1152777702 -0.40045201778411865 -0.2082042545080185 -0.001134118065237999 -0.0035357121378183365 0 0 0 0
1153769765 -0.40666675567626953 -0.1889730542898178 -0.0017041601240634918 -0.003700174391269684 0 0 0 0
1154761828 -0.41395825147628784 -0.1677062213420868 -0.0023702476173639297 -0.0035003963857889175 0 0 0 0
1155753891 -0.41890451312065125 -0.1478852480649948 -0.002877327613532543 -0.0032652942463755608 0 0 0 0
1156745954 -0.42352059483528137 -0.12669771909713745 -0.0034684715792536736 -0.0028775744140148163 0 0 0 0
1157738017 -0.4256772994995117 -0.10793454945087433 -0.003704683855175972 -0.0022402293980121613 0 0 0 0
1158730080 -0.4286455810070038 -0.08450959622859955 -0.0037894751876592636 -0.0016487352550029755 0 0 0 0
1159722143 -0.42878609895706177 -0.06411857903003693 -0.0035630185157060623 -0.0013746563345193863 0 0 0 0
1160714206 -0.42923110723495483 -0.04319112002849579 -0.003403507173061371 -0.0013355007395148277 0 0 0 0
1161706269 -0.4278627932071686 -0.02173725701868534 -0.0034871073439717293 -0.0014346074312925339 0 0 0 0
1162698332 -0.42553263902664185 -0.0003240015357732773 -0.003884623758494854 -0.0015318319201469421 0 0 0 0
1163690395 -0.4221721291542053 0.021554993465542793 -0.00438738614320755 -0.001240340992808342 0 0 0 0
1164682458 -0.41850516200065613 0.04031352698802948 -0.004795697517693043 -0.0007366267964243889 0 0 0 0
1165674521 -0.4126156270503998 0.06054249033331871 -0.004978667013347149 1.026596873998642e-05 0 0 0 0
1166666584 -0.40663251280784607 0.07921043783426285 -0.00474972277879715 0.0006497111171483994 0 0 0 0
1167658647 -0.3996553421020508 0.09872682392597198 -0.004511772654950619 0.0010350961238145828 0 0 0 0
1168650710 -0.39192575216293335 0.11819785088300705 -0.004269715398550034 0.0011643720790743828 0 0 0 0
1169642773 -0.384304404258728 0.13521917164325714 -0.00416231993585825 0.001264103688299656 0 0 0 0
1170634836 -0.37532734870910645 0.15299901366233826 -0.004355687648057938 0.0012424709275364876 0 0 0 0
1171626899 -0.3651026785373688 0.1712045967578888 -0.0047204941511154175 0.0016226544976234436 0 0 0 0
1172618962 -0.3529435992240906 0.1907266080379486 -0.004820606671273708 0.0022927336394786835 0 0 0 0
1173611025 -0.3421584963798523 0.20516566932201385 -0.004913550801575184 0.0031336508691310883 0 0 0 0
1174603088 -0.3313775360584259 0.22025196254253387 -0.004579645581543446 0.003774430602788925 0 0 0 0
1175595151 -0.3167969882488251 0.23656460642814636 -0.004033930599689484 0.004170787520706654 0 0 0 0
1176587214 -0.3033280372619629 0.2518567740917206 -0.003623531199991703 0.0044586434960365295 0 0 0 0
1177579277 -0.28863033652305603 0.26516714692115784 -0.0033952193334698677 0.004849839024245739 0 0 0 0
1178571340 -0.2728407382965088 0.2804045081138611 -0.00321242306381464 0.005092937499284744 0 0 0 0
1179563403 -0.25641772150993347 0.2922584116458893 -0.003147137351334095 0.005742221139371395 0 0 0 0
1180555466 -0.2412353754043579 0.3043535053730011 -0.0027354173362255096 0.006691892631351948 0 0 0 0
1181547529 -0.2239333689212799 0.3165023922920227 -0.0016513857990503311 0.007536174729466438 0 0 0 0
1182539592 -0.2056107372045517 0.32481706142425537 -0.00020017661154270172 0.007810528390109539 0 0 0 0
1183531655 -0.18698614835739136 0.33574947714805603 0.0011208271607756615 0.007444205693900585 0 0 0 0
1184523718 -0.1689588725566864 0.34205731749534607 0.0020319130271673203 0.007037662900984287 0 0 0 0
1185515781 -0.14867913722991943 0.34940391778945923 0.0029405299574136734 0.006512492895126343 0 0 0 0
1186507844 -0.1312125325202942 0.3542359471321106 0.0037163225933909416 0.005879506468772888 0 0 0 0
1187499907 -0.1106962040066719 0.36115583777427673 0.004407173953950405 0.004944930784404278 0 0 0 0
1188491970 -0.09454726427793503 0.3661035895347595 0.004444161430001259 0.0038566840812563896 0 0 0 0
1189484033 -0.0732286348938942 0.36976638436317444 0.004306289367377758 0.003121349960565567 0 0 0 0
1190476096 -0.053827084600925446 0.37189608812332153 0.004144823178648949 0.002594582736492157 0 0 0 0
