# HZ S RI R 50
1000000000 0.06139098107814789 -0.5132682919502258 -0.004022844135761261 0.0022480376064777374 0 0 0 0
1000992063 0.03485056012868881 -0.5137552618980408 -0.0036184685304760933 0.002494608983397484 0 0 0 0
1001984126 0.007015198469161987 -0.5125319957733154 -0.0032120821997523308 0.0025008590891957283 0 0 0 0
1002976189 -0.015588939189910889 -0.5114629864692688 -0.0029858648777008057 0.002532143145799637 0 0 0 0
1003968252 -0.03921709954738617 -0.5085792541503906 -0.0027454057708382607 0.00267629511654377 0 0 0 0
1004960315 -0.062108419835567474 -0.5044491291046143 -0.0024050110951066017 0.0028555728495121002 0 0 0 0
1005952378 -0.08700662851333618 -0.5005519986152649 -0.0018164273351430893 0.0027750059962272644 0 0 0 0
1006944441 -0.10898895561695099 -0.49434685707092285 -0.0015762075781822205 0.002357880584895611 0 0 0 0
1007936504 -0.13424690067768097 -0.48808372020721436 -0.0016775550320744514 0.001969536766409874 0 0 0 0
1008928567 -0.1561124324798584 -0.47943028807640076 -0.0021906867623329163 0.0019212868064641953 0 0 0 0
1009920630 -0.17781654000282288 -0.46942469477653503 -0.0023634983226656914 0.002343021333217621 0 0 0 0
1010912693 -0.19897228479385376 -0.45947083830833435 -0.0023418813943862915 0.00266275554895401 0 0 0 0
1011904756 -0.22038710117340088 -0.44761720299720764 -0.002223295159637928 0.003079250454902649 0 0 0 0
1012896819 -0.24085518717765808 -0.43503814935684204 -0.001974843442440033 0.0032527223229408264 0 0 0 0
1013888882 -0.2609741985797882 -0.4210885465145111 -0.0017212433740496635 0.0033658789470791817 0 0 0 0
1014880945 -0.2938958406448364 -0.3999437689781189 -0.0016868729144334793 0.0034899506717920303 0 0 0 0
1015873008 -0.3115876019001007 -0.3840349316596985 -0.0017523085698485374 0.003897329792380333 0 0 0 0
1016865071 -0.32791608572006226 -0.3665923774242401 -0.0015885531902313232 0.004490099847316742 0 0 0 0
1017857134 -0.34391188621520996 -0.35002201795578003 -0.0009332634508609772 0.005055428482592106 0 0 0 0
1018849197 -0.35952824354171753 -0.3334895372390747 -0.00022390950471162796 0.00551960151642561 0 0 0 0
1019841260 -0.37247729301452637 -0.3144489824771881 0.0006921188905835152 0.005618581548333168 0 0 0 0
1020833323 -0.3861556649208069 -0.29470008611679077 0.001592540182173252 0.005581536330282688 0 0 0 0
1021825386 -0.39923274517059326 -0.27419835329055786 0.0024932175874710083 0.0053858086466789246 0 0 0 0
1022817449 -0.40964698791503906 -0.2547706961631775 0.0033375751227140427 0.00490178819745779 0 0 0 0
1023809512 -0.4215058982372284 -0.23352345824241638 0.00407321285456419 0.004139588214457035 0 0 0 0
1024801575 -0.43065449595451355 -0.2130664885044098 0.004556029103696346 0.003176184371113777 0 0 0 0
1025793638 -0.43976664543151855 -0.19183608889579773 0.004688424989581108 0.0021433476358652115 0 0 0 0
1026785701 -0.4468754231929779 -0.16915015876293182 0.0043742116540670395 0.0012624943628907204 0 0 0 0
1027777764 -0.4542797803878784 -0.147272989153862 0.003871598280966282 0.0006395298987627029 0 0 0 0
1028769827 -0.4596234858036041 -0.12428900599479675 0.003383297473192215 0.0005107847973704338 0 0 0 0
1029761890 -0.46432074904441833 -0.09959691762924194 0.003129393793642521 0.0005379123613238335 0 0 0 0
1030753953 -0.4676024615764618 -0.07599718868732452 0.0029645152390003204 0.0006728935986757278 0 0 0 0
1031746016 -0.4693733751773834 -0.050735071301460266 0.003075467422604561 0.0006955089047551155 0 0 0 0
1032738079 -0.47014397382736206 -0.027467451989650726 0.0030917059630155563 0.0007737847045063972 0 0 0 0
1033730142 -0.46937763690948486 -0.002986334264278412 0.0033769430592656136 0.0007153404876589775 0 0 0 0
1034722205 -0.4676498770713806 0.01943771168589592 0.0038565751165151596 0.00035505369305610657 0 0 0 0
1035714268 -0.4636157751083374 0.045775286853313446 0.00399027019739151 -0.0003934120759367943 0 0 0 0
1036706331 -0.4598295986652374 0.06806549429893494 0.003592276945710182 -0.0009772619232535362 0 0 0 0
1037698394 -0.4537373185157776 0.09270988404750824 0.0030392324551939964 -0.0011768247932195663 0 0 0 0
1038690457 -0.4481559991836548 0.11471353471279144 0.0028709731996059418 -0.001011730171740055 0 0 0 0
1039682520 -0.4403894245624542 0.13588188588619232 0.0030034007504582405 -0.0008989106863737106 0 0 0 0
1040674583 -0.431367963552475 0.15907897055149078 0.0032220538705587387 -0.0009581791236996651 0 0 0 0
1041666646 -0.42276257276535034 0.1787860095500946 0.0033550169318914413 -0.0013943109661340714 0 0 0 0
1042658709 -0.4112960398197174 0.20137816667556763 0.0035518407821655273 -0.0016993870958685875 0 0 0 0
1043650772 -0.4003659188747406 0.22128841280937195 0.0036121411249041557 -0.002202700823545456 0 0 0 0
1044642835 -0.38842201232910156 0.24067354202270508 0.0034124236553907394 -0.002873429097235203 0 0 0 0
1045634898 -0.37474507093429565 0.2603006660938263 0.0029879529029130936 -0.003586054779589176 0 0 0 0
1046626961 -0.36028891801834106 0.27837374806404114 0.0023183515295386314 -0.003908932209014893 0 0 0 0
1047619024 -0.34450846910476685 0.29689332842826843 0.0015727756544947624 -0.004010048694908619 0 0 0 0
1048611087 -0.3291375935077667 0.31461742520332336 0.0011996813118457794 -0.003964269533753395 0 0 0 0
1049603150 -0.3127758502960205 0.3313957452774048 0.0008343178778886795 -0.004071447066962719 0 0 0 0
1050595213 -0.29467156529426575 0.34730789065361023 0.00044967327266931534 -0.00405791774392128 0 0 0 0
1051587276 -0.276302695274353 0.3616827726364136 -3.649294376373291e-05 -0.004100458696484566 0 0 0 0
1052579339 -0.25698599219322205 0.37545254826545715 -0.0005400031805038452 -0.004035088233649731 0 0 0 0
1053571402 -0.2374519258737564 0.3879523277282715 -0.0010984381660819054 -0.0038686729967594147 0 0 0 0
1054563465 -0.21753469109535217 0.4007231593132019 -0.001419474370777607 -0.003550195135176182 0 0 0 0
1055555528 -0.19677290320396423 0.41225025057792664 -0.001884525641798973 -0.0033354079350829124 0 0 0 0
1056547591 -0.17706362903118134 0.4224182367324829 -0.0021991953253746033 -0.0029433351010084152 0 0 0 0
1057539654 -0.15349125862121582 0.43338724970817566 -0.002299242652952671 -0.0026074079796671867 0 0 0 0
1058531717 -0.1323356181383133 0.44123801589012146 -0.002467670477926731 -0.0023323344066739082 0 0 0 0
1059523780 -0.1071087196469307 0.44871872663497925 -0.002941521815955639 -0.0020154882222414017 0 0 0 0
1060515843 -0.08389320224523544 0.45486876368522644 -0.0032710768282413483 -0.001388399861752987 0 0 0 0
1061507906 -0.06026146560907364 0.4602459967136383 -0.0033188946545124054 -0.0006037456914782524 0 0 0 0
1062499969 -0.03619763255119324 0.464239239692688 -0.002987661398947239 0.0001546517014503479 0 0 0 0
1063492032 -0.012297041714191437 0.46651533246040344 -0.002342027612030506 0.0007113944739103317 0 0 0 0
1064484095 0.011877603828907013 0.46831345558166504 -0.0016769487410783768 0.0008523957803845406 0 0 0 0
1065476158 0.037117354571819305 0.46825918555259705 -0.0010371580719947815 0.0005005458369851112 0 0 0 0
1066468221 0.06040455400943756 0.4686402380466461 -0.000843685120344162 0.00021570175886154175 0 0 0 0
1067460284 0.08777215331792831 0.46530401706695557 -0.0007895501330494881 1.0954216122627258e-05 0 0 0 0
1068452347 0.11192062497138977 0.45991581678390503 -0.000652063637971878 -0.0002957480028271675 0 0 0 0
1069444410 0.13718867301940918 0.4561972916126251 -0.0007423311471939087 -0.0006522126495838165 0 0 0 0
1070436473 0.16093477606773376 0.4490390121936798 -0.0010983319953083992 -0.0007906751707196236 0 0 0 0
1071428536 0.18294064700603485 0.4422086179256439 -0.001351911574602127 -0.0009602215141057968 0 0 0 0
1072420599 0.20633122324943542 0.43338850140571594 -0.0017702681943774223 -0.0009423913434147835 0 0 0 0
1073412662 0.22955764830112457 0.42452472448349 -0.00219538901001215 -0.0006386442109942436 0 0 0 0
1074404725 0.25194892287254333 0.41287654638290405 -0.0023826779797673225 -0.00038333144038915634 0 0 0 0
1075396788 0.2735123932361603 0.4016127586364746 -0.002538316883146763 -1.2489035725593567e-06 0 0 0 0
1076388851 0.29471713304519653 0.38903701305389404 -0.002586563117802143 0.000229530967772007 0 0 0 0
1077380914 0.31527554988861084 0.37384986877441406 -0.002520700916647911 0.0004976717755198479 0 0 0 0
1078372977 0.3335936665534973 0.36109036207199097 -0.0027268975973129272 0.0008774008601903915 0 0 0 0
1079365040 0.35467660427093506 0.34382516145706177 -0.002827123738825321 0.0013033831492066383 0 0 0 0
1080357103 0.3740828335285187 0.3266332447528839 -0.002688255161046982 0.00202757865190506 0 0 0 0
1081349166 0.3912624716758728 0.30913931131362915 -0.002215367741882801 0.0026905639097094536 0 0 0 0
1082341229 0.40762707591056824 0.2910083830356598 -0.0015110848471522331 0.0029949676245450974 0 0 0 0
1083333292 0.4235481321811676 0.2711603343486786 -0.0008668722584843636 0.0030106212943792343 0 0 0 0
1084325355 0.4386807978153229 0.24941352009773254 -0.0003033773973584175 0.002783326432108879 0 0 0 0
1085317418 0.45217224955558777 0.22830407321453094 7.501151412725449e-05 0.0024316832423210144 0 0 0 0
1086309481 0.46395957469940186 0.2059754729270935 0.00010478124022483826 0.0021777814254164696 0 0 0 0
1087301544 0.4756351411342621 0.1851646900177002 0.00022111181169748306 0.0019787009805440903 0 0 0 0
1088293607 0.4863913655281067 0.16106152534484863 0.00035502854734659195 0.0019200239330530167 0 0 0 0
1089285670 0.4954798221588135 0.1380588412284851 0.00048086512833833694 0.0016715377569198608 0 0 0 0
1090277733 0.5031912326812744 0.11476684361696243 0.0003626784309744835 0.0013761026784777641 0 0 0 0
1091269796 0.5096890926361084 0.09085008502006531 0.00033354200422763824 0.0013204747810959816 0 0 0 0
1092261859 0.5157055258750916 0.06496921181678772 0.00023176893591880798 0.0012700194492936134 0 0 0 0
1093253922 0.5204251408576965 0.04220392182469368 0.0001477198675274849 0.0012705735862255096 0 0 0 0
1094245985 0.5231643319129944 0.014671079814434052 -3.284867852926254e-05 0.0013122698292136192 0 0 0 0
1095238048 0.5248278379440308 -0.008616261184215546 -4.918314516544342e-05 0.0015591811388731003 0 0 0 0
1096230111 0.524788498878479 -0.03604309260845184 0.00017545931041240692 0.0017695631831884384 0 0 0 0
1097222174 0.5232768058776855 -0.061313871294260025 0.0004671197384595871 0.0017280811443924904 0 0 0 0
1098214237 0.521976888179779 -0.08457081019878387 0.0004540560767054558 0.0015456629917025566 0 0 0 0
1099206300 0.5186135172843933 -0.11046519875526428 0.00034081749618053436 0.0015224618837237358 0 0 0 0
1100198363 0.5185887813568115 -0.11719446629285812 0.0002585817128419876 0.0018128957599401474 0 0 0 0
1101190426 0.5130260586738586 -0.141506627202034 0.0005251402035355568 0.00198298878967762 0 0 0 0
1102182489 0.5068623423576355 -0.1637715995311737 0.0009103380143642426 0.002005615271627903 0 0 0 0
1103174552 0.4989567697048187 -0.18977800011634827 0.001041540876030922 0.002073712646961212 0 0 0 0
1104166615 0.48920339345932007 -0.21420012414455414 0.0012671668082475662 0.0019497303292155266 0 0 0 0
1105158678 0.48045361042022705 -0.2350141406059265 0.0014162026345729828 0.0016529541462659836 0 0 0 0
1106150741 0.4687163233757019 -0.25790855288505554 0.0014633946120738983 0.0015803007408976555 0 0 0 0
1107142804 0.45798391103744507 -0.2787879705429077 0.001298278570175171 0.00147294532507658 0 0 0 0
1108134867 0.4432551860809326 -0.30161982774734497 0.001079062931239605 0.0016987910494208336 0 0 0 0
1109126930 0.4290158748626709 -0.32131853699684143 0.0013480260968208313 0.002035105600953102 0 0 0 0
1110118993 0.4136476218700409 -0.3402572572231293 0.001852395012974739 0.0022872788831591606 0 0 0 0
1111111056 0.39795738458633423 -0.3580269515514374 0.0023691458627581596 0.0021769562736153603 0 0 0 0
1112103119 0.3802475035190582 -0.3771531283855438 0.002983090467751026 0.0021086279302835464 0 0 0 0
1113095182 0.3631022274494171 -0.392482191324234 0.0034950869157910347 0.001635824330151081 0 0 0 0
1114087245 0.3442055881023407 -0.40857866406440735 0.003758261911571026 0.0010044174268841743 0 0 0 0
1115079308 0.3254837095737457 -0.42231541872024536 0.0039510829374194145 0.00043229665607213974 0 0 0 0
1116071371 0.30491501092910767 -0.43661731481552124 0.004112539812922478 -0.00030880142003297806 0 0 0 0
1117063434 0.28381332755088806 -0.45026054978370667 0.003746945410966873 -0.001134360209107399 0 0 0 0
1118055497 0.26256299018859863 -0.46148672699928284 0.0030181212350726128 -0.001571877859532833 0 0 0 0
1119047560 0.2437341809272766 -0.4708400368690491 0.0024605952203273773 -0.0017158882692456245 0 0 0 0
1120039623 0.22186285257339478 -0.4820176661014557 0.001909594051539898 -0.0016569523140788078 0 0 0 0
1121031686 0.19777850806713104 -0.4919210970401764 0.001617266796529293 -0.0012871623039245605 0 0 0 0
1122023749 0.1760808229446411 -0.4984317719936371 0.0016308901831507683 -0.0009880131110548973 0 0 0 0
1123015812 0.152459517121315 -0.5043972730636597 0.0016961470246315002 -0.0006101345643401146 0 0 0 0
1124007875 0.1267806440591812 -0.5091190338134766 0.002043154090642929 -0.0006754118949174881 0 0 0 0
1124999938 0.10442658513784409 -0.5124993324279785 0.0021406328305602074 -0.0010009240359067917 0 0 0 0
1125992001 0.07969645410776138 -0.51547771692276 0.002027202397584915 -0.001205996610224247 0 0 0 0
1126984064 0.05614151805639267 -0.5160643458366394 0.002024630084633827 -0.0011359890922904015 0 0 0 0
1127976127 0.041419386863708496 -0.5295315980911255 0.00212051160633564 -0.0013622986152768135 0 0 0 0
1128968190 0.011350087821483612 -0.5157931447029114 0.002148211933672428 -0.0016850866377353668 0 0 0 0
1129960253 -0.008148148655891418 -0.5142025351524353 0.0019279373809695244 -0.001855551265180111 0 0 0 0
1130952316 -0.03476563096046448 -0.5123856067657471 0.001555304042994976 -0.001867346465587616 0 0 0 0
1131944379 -0.05667019635438919 -0.5088822841644287 0.0015246085822582245 -0.0016793757677078247 0 0 0 0
1132936442 -0.0837131217122078 -0.5020222067832947 0.0018445979803800583 -0.0017910553142428398 0 0 0 0
1133928505 -0.10592281073331833 -0.49573177099227905 0.001838192343711853 -0.002211456187069416 0 0 0 0
1134920568 -0.1416614055633545 -0.4867438077926636 0.0015688398852944374 -0.0024550575762987137 0 0 0 0
1135912631 -0.16176825761795044 -0.4767497181892395 0.0013750456273555756 -0.0024332795292139053 0 0 0 0
1136904694 -0.184182807803154 -0.4647091329097748 0.0014070384204387665 -0.0026895571500062943 0 0 0 0
1137896757 -0.20067210495471954 -0.45486271381378174 0.0013978620991110802 -0.003117647022008896 0 0 0 0
1138888820 -0.22042328119277954 -0.44180828332901 0.0007617156952619553 -0.003514534793794155 0 0 0 0
1139880883 -0.23738256096839905 -0.4305078387260437 0.0001661619171500206 -0.003460448235273361 0 0 0 0
1140872946 -0.25819528102874756 -0.4167478680610657 -0.0002593984827399254 -0.0032443692907691 0 0 0 0
1141865009 -0.27476823329925537 -0.40131640434265137 -0.0004997923970222473 -0.003013443201780319 0 0 0 0
1142857072 -0.28955742716789246 -0.3879818320274353 -0.0006444687023758888 -0.0028306031599640846 0 0 0 0
1143849135 -0.30352553725242615 -0.3743078410625458 -0.0007891608402132988 -0.0027555692940950394 0 0 0 0
1144841198 -0.3197993338108063 -0.3565952777862549 -0.0009232629090547562 -0.002629620023071766 0 0 0 0
1145833261 -0.3343859612941742 -0.34024739265441895 -0.001095176674425602 -0.002442518249154091 0 0 0 0
1146825324 -0.34731918573379517 -0.32095757126808167 -0.0011863643303513527 -0.0021430552005767822 0 0 0 0
1147817387 -0.3581182062625885 -0.3037104308605194 -0.0010124295949935913 -0.0020132362842559814 0 0 0 0
1148809450 -0.3694661855697632 -0.2846989035606384 -0.0007490217685699463 -0.0019857240840792656 0 0 0 0
1149801513 -0.38002923130989075 -0.26710766553878784 -0.0006987061351537704 -0.002259841188788414 0 0 0 0
1150793576 -0.3901289701461792 -0.24513506889343262 -0.0009427452459931374 -0.002432694658637047 0 0 0 0
1151785639 -0.39723867177963257 -0.22797363996505737 -0.0012529753148555756 -0.002418331801891327 0 0 0 0
1152777702 -0.4039872884750366 -0.20931550860404968 -0.001336413435637951 -0.00228070467710495 0 0 0 0
1153769765 -0.41087737679481506 -0.18948692083358765 -0.0013783732429146767 -0.002369101159274578 0 0 0 0
1154761828 -0.4165500998497009 -0.16805613040924072 -0.0014742957428097725 -0.0026266807690262794 0 0 0 0
1155753891 -0.4226354658603668 -0.14741529524326324 -0.001805129460990429 -0.0028523048385977745 0 0 0 0
1156745954 -0.42606592178344727 -0.127590611577034 -0.0022507701069116592 -0.0029295943677425385 0 0 0 0
1157738017 -0.42848849296569824 -0.10579293221235275 -0.002778870053589344 -0.0027314815670251846 0 0 0 0
1158730080 -0.43078160285949707 -0.0838380977511406 -0.0030084094032645226 -0.0023431945592164993 0 0 0 0
1159722143 -0.4309788644313812 -0.06415872275829315 -0.0032126251608133316 -0.002059346064925194 0 0 0 0
1160714206 -0.4312869608402252 -0.04260147362947464 -0.003380945883691311 -0.0019238246604800224 0 0 0 0
1161706269 -0.43016910552978516 -0.021231573075056076 -0.0036675771698355675 -0.001929950900375843 0 0 0 0
1162698332 -0.42809516191482544 4.9678608775138855e-05 -0.004210589453577995 -0.0017402572557330132 0 0 0 0
1163690395 -0.4243164658546448 0.020691072568297386 -0.004682249389588833 -0.001121903769671917 0 0 0 0
1164682458 -0.42029789090156555 0.03953395411372185 -0.004918226040899754 -0.00048612523823976517 0 0 0 0
1165674521 -0.41496679186820984 0.058874063193798065 -0.0048887599259614944 0.00020558014512062073 0 0 0 0
1166666584 -0.4088701605796814 0.07994300127029419 -0.0046616243198513985 0.0007155034691095352 0 0 0 0
1167658647 -0.4028269946575165 0.09855576604604721 -0.004300344735383987 0.0012338748201727867 0 0 0 0
1168650710 -0.3951667547225952 0.11776161938905716 -0.003989462740719318 0.0014503831043839455 0 0 0 0
1169642773 -0.38726890087127686 0.13653650879859924 -0.0036789914593100548 0.0015885401517152786 0 0 0 0
1170634836 -0.37715834379196167 0.154658704996109 -0.003535877913236618 0.0014119576662778854 0 0 0 0
1171626899 -0.3667650520801544 0.1731351613998413 -0.0037805140018463135 0.0014246897771954536 0 0 0 0
1172618962 -0.35598838329315186 0.19097502529621124 -0.004157406277954578 0.0017317142337560654 0 0 0 0
1173611025 -0.34462064504623413 0.20762163400650024 -0.004251466132700443 0.0023007914423942566 0 0 0 0
1174603088 -0.3333038091659546 0.2222277671098709 -0.004146394319832325 0.002903568558394909 0 0 0 0
1175595151 -0.3190157115459442 0.23863691091537476 -0.0038817208260297775 0.0034239664673805237 0 0 0 0
1176587214 -0.3054477572441101 0.2537163197994232 -0.0035302545875310898 0.003733898513019085 0 0 0 0
1177579277 -0.2911219596862793 0.2673109471797943 -0.0032458556815981865 0.003902420401573181 0 0 0 0
1178571340 -0.275037556886673 0.28216296434402466 -0.0030987560749053955 0.004222220741212368 0 0 0 0
1179563403 -0.2583993077278137 0.29495149850845337 -0.002938804216682911 0.004735149443149567 0 0 0 0
1180555466 -0.24229946732521057 0.30653563141822815 -0.0026218825951218605 0.005282944068312645 0 0 0 0
1181547529 -0.2261541783809662 0.31837350130081177 -0.0019158590584993362 0.005943648517131805 0 0 0 0
1182539592 -0.20809942483901978 0.32853764295578003 -0.0011554397642612457 0.006157668307423592 0 0 0 0
1183531655 -0.18907430768013 0.33783456683158875 -0.00033623911440372467 0.0062050409615039825 0 0 0 0
1184523718 -0.17040148377418518 0.3458351194858551 0.0002623600885272026 0.006021082401275635 0 0 0 0
1185515781 -0.15174373984336853 0.35320746898651123 0.000940307043492794 0.005902597680687904 0 0 0 0
1186507844 -0.1325206756591797 0.35880112648010254 0.0016409559175372124 0.005693268962204456 0 0 0 0
1187499907 -0.11405517905950546 0.3645126223564148 0.0021935151889920235 0.0053047360852360725 0 0 0 0
1188491970 -0.09470820426940918 0.37041813135147095 0.0026487084105610847 0.004759523086249828 0 0 0 0
1189484033 -0.07289930433034897 0.3735962510108948 0.0028129220008850098 0.0043824464082717896 0 0 0 0
