# HZ S RI R 50
1000000000 0.05508024990558624 -0.5078471302986145 -0.002012415789067745 0.0008862866088747978 0 0 0 0
1000992063 0.03133348375558853 -0.5076985359191895 -0.0014973217621445656 0.0006688451394438744 0 0 0 0
1001984126 0.007017150521278381 -0.5054284930229187 -0.001144896261394024 0.0003405911847949028 0 0 0 0
1002976189 -0.015245802700519562 -0.5055455565452576 -0.001050107181072235 -0.00018623657524585724 0 0 0 0
1003968252 -0.040971554815769196 -0.5041065812110901 -0.0013058418408036232 -0.0007678112015128136 0 0 0 0
1004960315 -0.06537941098213196 -0.49973490834236145 -0.001631227321922779 -0.0009795129299163818 0 0 0 0
1005952378 -0.08699076622724533 -0.49562931060791016 -0.0020293816924095154 -0.0011311471462249756 0 0 0 0
1006944441 -0.10960044711828232 -0.48957642912864685 -0.0025675566866993904 -0.00125204399228096 0 0 0 0
1007936504 -0.13326215744018555 -0.4841228425502777 -0.0031366683542728424 -0.001133633777499199 0 0 0 0
1008928567 -0.15675963461399078 -0.47516924142837524 -0.003794047050178051 -0.0006855130195617676 0 0 0 0
1009920630 -0.17874675989151 -0.46506983041763306 -0.00416015088558197 2.0305626094341278e-05 0 0 0 0
1010912693 -0.19931289553642273 -0.45396313071250916 -0.0042814696207642555 0.0007103532552719116 0 0 0 0
1011904756 -0.22133979201316833 -0.44231337308883667 -0.004166643135249615 0.0014598825946450233 0 0 0 0
1012896819 -0.24121473729610443 -0.43011435866355896 -0.0039629098027944565 0.0019339127466082573 0 0 0 0
1013888882 -0.25981301069259644 -0.4178321957588196 -0.0036605969071388245 0.0024041831493377686 0 0 0 0
1014880945 -0.29303306341171265 -0.3953271210193634 -0.0035949964076280594 0.002727626822888851 0 0 0 0
1015873008 -0.30950015783309937 -0.3804371654987335 -0.003485690802335739 0.0032114824280142784 0 0 0 0
1016865071 -0.3265557587146759 -0.36368000507354736 -0.0030881641432642937 0.0038329409435391426 0 0 0 0
1017857134 -0.34142255783081055 -0.3471600413322449 -0.002701445482671261 0.004349957220256329 0 0 0 0
1018849197 -0.35861700773239136 -0.3278157711029053 -0.002224891446530819 0.004935096018016338 0 0 0 0
1019841260 -0.3718526363372803 -0.3098917007446289 -0.0013510016724467278 0.0054990630596876144 0 0 0 0
1020833323 -0.3852584958076477 -0.28934890031814575 -0.0002814987674355507 0.005599421449005604 0 0 0 0
1021825386 -0.3971668481826782 -0.2701694667339325 0.0007809484377503395 0.005283846519887447 0 0 0 0
1022817449 -0.4076647162437439 -0.24882227182388306 0.0014691762626171112 0.004766104742884636 0 0 0 0
1023809512 -0.41749075055122375 -0.23045378923416138 0.0018610116094350815 0.00436012726277113 0 0 0 0
1024801575 -0.4272056221961975 -0.20916609466075897 0.0024613570421934128 0.0039525749161839485 0 0 0 0
1025793638 -0.43596041202545166 -0.18710827827453613 0.0028836019337177277 0.0032922914251685143 0 0 0 0
1026785701 -0.4436369836330414 -0.1652035415172577 0.0030452758073806763 0.0025108549743890762 0 0 0 0
1027777764 -0.44996410608291626 -0.14316166937351227 0.002847309224307537 0.0020029479637742043 0 0 0 0
1028769827 -0.4549143314361572 -0.11968276649713516 0.0025599338114261627 0.0016441671177744865 0 0 0 0
1029761890 -0.4593902826309204 -0.09681917726993561 0.002296801656484604 0.0015913378447294235 0 0 0 0
1030753953 -0.46252334117889404 -0.07234623283147812 0.0023075519129633904 0.0016874494031071663 0 0 0 0
1031746016 -0.4636273980140686 -0.048425305634737015 0.002434764988720417 0.0015988098457455635 0 0 0 0
1032738079 -0.4643976390361786 -0.025694046169519424 0.002603215165436268 0.0014117127284407616 0 0 0 0
1033730142 -0.46318501234054565 -0.0029087401926517487 0.002835281193256378 0.0013179350644350052 0 0 0 0
1034722205 -0.4619459807872772 0.021222971379756927 0.003253449685871601 0.0008839303627610207 0 0 0 0
1035714268 -0.4588868021965027 0.0437125489115715 0.0032106228172779083 0.00011947751045227051 0 0 0 0
1036706331 -0.454493910074234 0.06875956058502197 0.002673438750207424 -0.00046966131776571274 0 0 0 0
1037698394 -0.44941967725753784 0.09141860157251358 0.0020478758960962296 -0.00048774946480989456 0 0 0 0
1038690457 -0.442594051361084 0.11315688490867615 0.0016287406906485558 -8.801929652690887e-05 0 0 0 0
1039682520 -0.43545979261398315 0.1339932382106781 0.0016774693503975868 0.00031665246933698654 0 0 0 0
1040674583 -0.42699098587036133 0.15708936750888824 0.0018874909728765488 0.000589161179959774 0 0 0 0
1041666646 -0.4181382656097412 0.17674942314624786 0.00240160059183836 0.0006851367652416229 0 0 0 0
1042658709 -0.407518595457077 0.1994343101978302 0.0029190098866820335 0.0004515917971730232 0 0 0 0
1043650772 -0.396528959274292 0.2186225950717926 0.003253720700740814 2.8505921363830566e-05 0 0 0 0
1044642835 -0.3844744861125946 0.23925627768039703 0.003509143367409706 -0.000606028363108635 0 0 0 0
1045634898 -0.37035098671913147 0.25879377126693726 0.003436869941651821 -0.0015084045007824898 0 0 0 0
1046626961 -0.35636815428733826 0.2763485610485077 0.0028100134804844856 -0.0022197822108864784 0 0 0 0
1047619024 -0.34062889218330383 0.29465317726135254 0.0019410336390137672 -0.0022285180166363716 0 0 0 0
1048611087 -0.3252485394477844 0.31142789125442505 0.0014894083142280579 -0.0018511433154344559 0 0 0 0
1049603150 -0.3092513084411621 0.3282977342605591 0.0015505347400903702 -0.0015144310891628265 0 0 0 0
1050595213 -0.29176729917526245 0.343715101480484 0.0017761420458555222 -0.0014816243201494217 0 0 0 0
1051587276 -0.2720791697502136 0.3592959940433502 0.002038678154349327 -0.0016662348061800003 0 0 0 0
1052579339 -0.2527506649494171 0.37203192710876465 0.002131178043782711 -0.002054920420050621 0 0 0 0
1053571402 -0.23371681571006775 0.38479048013687134 0.002062511630356312 -0.0026350831612944603 0 0 0 0
1054563465 -0.21503135561943054 0.39660564064979553 0.0016305483877658844 -0.0033818138763308525 0 0 0 0
1055555528 -0.19339993596076965 0.4079352021217346 0.0007160361856222153 -0.003885239362716675 0 0 0 0
1056547591 -0.1742776334285736 0.4175397753715515 -0.00019146408885717392 -0.003631703555583954 0 0 0 0
1057539654 -0.15205597877502441 0.42805325984954834 -0.0007013548165559769 -0.003368893638253212 0 0 0 0
1058531717 -0.13078239560127258 0.43596628308296204 -0.0012167347595095634 -0.0030715037137269974 0 0 0 0
1059523780 -0.10753565281629562 0.4431650638580322 -0.0017187250778079033 -0.0026156501844525337 0 0 0 0
1060515843 -0.08453017473220825 0.4500744640827179 -0.0020859837532043457 -0.001955857500433922 0 0 0 0
1061507906 -0.06135387718677521 0.4544273018836975 -0.0021609915420413017 -0.0012202421203255653 0 0 0 0
1062499969 -0.037169136106967926 0.4586547613143921 -0.0020077358931303024 -0.0004385346546769142 0 0 0 0
1063492032 -0.0132061168551445 0.4612586200237274 -0.0013796854764223099 0.00014615803956985474 0 0 0 0
1064484095 0.009644784033298492 0.4632958471775055 -0.0005547190085053444 0.00027961283922195435 0 0 0 0
1065476158 0.03437680006027222 0.46450144052505493 0.00012816302478313446 -0.0001325812190771103 0 0 0 0
1066468221 0.060604967176914215 0.4635148346424103 0.0003295131027698517 -0.0006591547280550003 0 0 0 0
1067460284 0.08340546488761902 0.462331086397171 0.00037415605038404465 -0.0010743755847215652 0 0 0 0
1068452347 0.11024416983127594 0.4590336084365845 0.0004789000377058983 -0.0013833558186888695 0 0 0 0
1069444410 0.13525766134262085 0.45281022787094116 0.0001917155459523201 -0.0020232265815138817 0 0 0 0
1070436473 0.15858176350593567 0.4473400413990021 -0.00032101478427648544 -0.0025100931525230408 0 0 0 0
1071428536 0.1817600280046463 0.44039303064346313 -0.0009742649272084236 -0.002605421468615532 0 0 0 0
1072420599 0.2060060054063797 0.430461049079895 -0.0016733864322304726 -0.0025153430178761482 0 0 0 0
1073412662 0.22718080878257751 0.42232781648635864 -0.0020640920847654343 -0.002272871322929859 0 0 0 0
1074404725 0.2490118145942688 0.41085582971572876 -0.0025740349665284157 -0.0019466457888484001 0 0 0 0
1075396788 0.27101248502731323 0.3989325165748596 -0.0029244134202599525 -0.001338038593530655 0 0 0 0
1076388851 0.2913801670074463 0.3862040042877197 -0.0030354605987668037 -0.0009440341964364052 0 0 0 0
1077380914 0.31127387285232544 0.37273237109184265 -0.003222615458071232 -0.0006326520815491676 0 0 0 0
1078372977 0.3322083055973053 0.35745713114738464 -0.0035389289259910583 -8.610077202320099e-06 0 0 0 0
1079365040 0.3493626117706299 0.3426329493522644 -0.003539908677339554 0.0006864657625555992 0 0 0 0
1080357103 0.3676624596118927 0.32694998383522034 -0.00332457572221756 0.001499413512647152 0 0 0 0
1081349166 0.3855583071708679 0.3088480234146118 -0.002904190681874752 0.00215794425457716 0 0 0 0
1082341229 0.40286797285079956 0.2909429967403412 -0.0021016616374254227 0.0026190485805273056 0 0 0 0
1083333292 0.418568879365921 0.272161066532135 -0.0012001963332295418 0.0026627620682120323 0 0 0 0
1084325355 0.43329375982284546 0.2529928684234619 -0.0006052041426301003 0.002340954728424549 0 0 0 0
1085317418 0.44759052991867065 0.22883474826812744 -0.0004142569378018379 0.001961248926818371 0 0 0 0
1086309481 0.46039846539497375 0.20799899101257324 -0.00042525678873062134 0.001651158556342125 0 0 0 0
1087301544 0.4714258313179016 0.18605796992778778 -0.00027201324701309204 0.001658138819038868 0 0 0 0
1088293607 0.48254257440567017 0.1648307591676712 -0.00013435538858175278 0.001489771530032158 0 0 0 0
1089285670 0.49216461181640625 0.13968993723392487 -0.0002029845491051674 0.0013039419427514076 0 0 0 0
1090277733 0.49967530369758606 0.1169266551733017 -9.86950471997261e-05 0.0011663008481264114 0 0 0 0
1091269796 0.50678551197052 0.0936850905418396 -0.0001353975385427475 0.0011546844616532326 0 0 0 0
1092261859 0.5125685930252075 0.06723923981189728 -0.00011824630200862885 0.0009008841589093208 0 0 0 0
1093253922 0.516960859298706 0.043638307601213455 -0.000355294905602932 0.0007268739864230156 0 0 0 0
1094245985 0.5192662477493286 0.017937112599611282 -0.0007201544940471649 0.0007044607773423195 0 0 0 0
1095238048 0.5218418836593628 -0.00502820685505867 -0.0008860258385539055 0.0010641030967235565 0 0 0 0
1096230111 0.5225674510002136 -0.031429488211870193 -0.0009434027597308159 0.0014251889660954475 0 0 0 0
1097222174 0.5219249129295349 -0.05597400292754173 -0.0007015662267804146 0.001532193273305893 0 0 0 0
1098214237 0.519899845123291 -0.08090001344680786 -0.0007321899756789207 0.0016000960022211075 0 0 0 0
1099206300 0.5172339081764221 -0.10590296983718872 -0.0008206889033317566 0.001873052679002285 0 0 0 0
1100198363 0.5180001854896545 -0.11194658279418945 -0.0007320577278733253 0.0021766703575849533 0 0 0 0
1101190426 0.5124020576477051 -0.1383640468120575 -0.0005512787029147148 0.00273936428129673 0 0 0 0
1102182489 0.5061140060424805 -0.16176772117614746 5.215313285589218e-05 0.002804398536682129 0 0 0 0
1103174552 0.498895525932312 -0.18644621968269348 0.0005060592666268349 0.002816971391439438 0 0 0 0
1104166615 0.48886996507644653 -0.2084038257598877 0.0009039528667926788 0.002586629241704941 0 0 0 0
1105158678 0.4782208800315857 -0.23172737658023834 0.0010417317971587181 0.0021938756108283997 0 0 0 0
1106150741 0.4670723080635071 -0.254055917263031 0.0009480118751525879 0.0020735403522849083 0 0 0 0
1107142804 0.4559972286224365 -0.27278590202331543 0.0006872611120343208 0.002060066908597946 0 0 0 0
1108134867 0.44191840291023254 -0.29771512746810913 0.0006390223279595375 0.0024466896429657936 0 0 0 0
1109126930 0.4297361671924591 -0.3158794641494751 0.0009190915152430534 0.0030865631997585297 0 0 0 0
1110118993 0.4140793979167938 -0.3339308798313141 0.001470683142542839 0.0032585598528385162 0 0 0 0
1111111056 0.3983345031738281 -0.3534961938858032 0.0021265950053930283 0.0033377734944224358 0 0 0 0
1112103119 0.38237395882606506 -0.37161844968795776 0.0029223142191767693 0.003079969435930252 0 0 0 0
1113095182 0.36295241117477417 -0.38880330324172974 0.003581719473004341 0.0025618402287364006 0 0 0 0
1114087245 0.347725510597229 -0.40232035517692566 0.003959269262850285 0.0020354026928544044 0 0 0 0
1115079308 0.32622408866882324 -0.4178730845451355 0.004216024652123451 0.0014994600787758827 0 0 0 0
1116071371 0.3078968822956085 -0.4314723610877991 0.004407631233334541 0.0008258046582341194 0 0 0 0
1117063434 0.2876216173171997 -0.44573014974594116 0.0043474892154335976 -2.5570392608642578e-05 0 0 0 0
1118055497 0.2662040889263153 -0.4567994177341461 0.003964751027524471 -0.0006316099315881729 0 0 0 0
1119047560 0.2459128201007843 -0.46763360500335693 0.0034023644402623177 -0.0009604711085557938 0 0 0 0
1120039623 0.2224327176809311 -0.4783962368965149 0.0029826750978827477 -0.0008097728714346886 0 0 0 0
1121031686 0.2027147114276886 -0.488129585981369 0.002910805866122246 -0.0006716353818774223 0 0 0 0
1122023749 0.17899635434150696 -0.4957338571548462 0.003124958835542202 -0.0006898604333400726 0 0 0 0
1123015812 0.15437859296798706 -0.501315176486969 0.0033075008541345596 -0.0009032627567648888 0 0 0 0
1124007875 0.13227729499340057 -0.5060437321662903 0.003313549794256687 -0.0013731177896261215 0 0 0 0
1124999938 0.10834164917469025 -0.509746789932251 0.0031761983409523964 -0.0017329957336187363 0 0 0 0
1125992001 0.0873124897480011 -0.5128864645957947 0.002826385200023651 -0.00194533821195364 0 0 0 0
1126984064 0.06174475699663162 -0.5134113430976868 0.00272347591817379 -0.0019798148423433304 0 0 0 0
1127976127 0.043928362429142 -0.5296396017074585 0.002676771953701973 -0.0023274580016732216 0 0 0 0
1128968190 0.01571960747241974 -0.5125678181648254 0.00228241179138422 -0.002629157155752182 0 0 0 0
1129960253 -0.007877878844738007 -0.5123100280761719 0.001997333951294422 -0.0027539413422346115 0 0 0 0
1130952316 -0.026859700679779053 -0.5108016729354858 0.00165614765137434 -0.002706971950829029 0 0 0 0
1131944379 -0.05000147223472595 -0.5088368058204651 0.001376376487314701 -0.002680686302483082 0 0 0 0
1132936442 -0.0743248462677002 -0.503394603729248 0.0014185039326548576 -0.0025576232001185417 0 0 0 0
1133928505 -0.09944160282611847 -0.4964749217033386 0.0014167381450533867 -0.002720033749938011 0 0 0 0
1134920568 -0.13467687368392944 -0.48749297857284546 0.0011338209733366966 -0.002928192727267742 0 0 0 0
1135912631 -0.1549309343099594 -0.4774791896343231 0.0009486973285675049 -0.002874228172004223 0 0 0 0
1136904694 -0.17686867713928223 -0.4684089720249176 0.00084689911454916 -0.003070773556828499 0 0 0 0
1137896757 -0.19401884078979492 -0.4574601352214813 0.00042437948286533356 -0.003259258344769478 0 0 0 0
1138888820 -0.2143058478832245 -0.4467772841453552 -2.9939226806163788e-05 -0.003182678483426571 0 0 0 0
1139880883 -0.23097363114356995 -0.4354667365550995 -0.00034599099308252335 -0.002904384396970272 0 0 0 0
1140872946 -0.250975102186203 -0.4231519401073456 -0.00027339719235897064 -0.002594469115138054 0 0 0 0
1141865009 -0.2693665027618408 -0.40902581810951233 -0.00022378098219633102 -0.0025874609127640724 0 0 0 0
1142857072 -0.28532299399375916 -0.39528560638427734 -0.00031659286469221115 -0.0025732554495334625 0 0 0 0
1143849135 -0.3006800413131714 -0.3795033097267151 -0.0004257708787918091 -0.0026494618505239487 0 0 0 0
1144841198 -0.3173447847366333 -0.36243221163749695 -0.0005885856226086617 -0.00268455408513546 0 0 0 0
1145833261 -0.3306305408477783 -0.34797775745391846 -0.00079352967441082 -0.0026290426030755043 0 0 0 0
1146825324 -0.3461420238018036 -0.3289681673049927 -0.0008684108033776283 -0.0024442048743367195 0 0 0 0
1147817387 -0.3568391501903534 -0.31051960587501526 -0.0007096230983734131 -0.0023721856996417046 0 0 0 0
1148809450 -0.3689814805984497 -0.29139113426208496 -0.0007926728576421738 -0.002339651808142662 0 0 0 0
1149801513 -0.37917274236679077 -0.27247869968414307 -0.0007679294794797897 -0.0025101853534579277 0 0 0 0
1150793576 -0.38777512311935425 -0.25370365381240845 -0.0008051693439483643 -0.0027776705101132393 0 0 0 0
1151785639 -0.3962647318840027 -0.23414185643196106 -0.0011520134285092354 -0.0029096873477101326 0 0 0 0
1152777702 -0.4041001796722412 -0.21474766731262207 -0.0013502314686775208 -0.002979530021548271 0 0 0 0
1153769765 -0.41086268424987793 -0.19579383730888367 -0.001817033626139164 -0.0030277231708168983 0 0 0 0
1154761828 -0.4168890118598938 -0.1759059727191925 -0.002136806957423687 -0.0029967082664370537 0 0 0 0
1155753891 -0.4232320487499237 -0.1559486836194992 -0.0025346577167510986 -0.0028602061793208122 0 0 0 0
1156745954 -0.42798706889152527 -0.13499382138252258 -0.0029230453073978424 -0.002626108005642891 0 0 0 0
1157738017 -0.4319632947444916 -0.11206729710102081 -0.003334558568894863 -0.002255787141621113 0 0 0 0
1158730080 -0.4342423975467682 -0.0917728841304779 -0.003414757549762726 -0.0018083471804857254 0 0 0 0
1159722143 -0.434692919254303 -0.06978635489940643 -0.0032463520765304565 -0.0015327055007219315 0 0 0 0
1160714206 -0.43580159544944763 -0.04836276173591614 -0.0031273746863007545 -0.001639014109969139 0 0 0 0
1161706269 -0.43504899740219116 -0.028729591518640518 -0.0034582512453198433 -0.0018027005717158318 0 0 0 0
1162698332 -0.433491051197052 -0.007006268948316574 -0.004037793725728989 -0.0017929840832948685 0 0 0 0
1163690395 -0.43100789189338684 0.014455720782279968 -0.0046150339767336845 -0.0011775121092796326 0 0 0 0
1164682458 -0.4267171025276184 0.03424189239740372 -0.004713159985840321 -0.0005664005875587463 0 0 0 0
1165674521 -0.42234838008880615 0.055313676595687866 -0.004688159562647343 6.22328370809555e-05 0 0 0 0
1166666584 -0.41736945509910583 0.07471901178359985 -0.004446971230208874 0.00039731431752443314 0 0 0 0
1167658647 -0.41095346212387085 0.09534034132957458 -0.004184558987617493 0.0006687510758638382 0 0 0 0
1168650710 -0.4041402339935303 0.11409789323806763 -0.003990557976067066 0.0005775578320026398 0 0 0 0
1169642773 -0.39652571082115173 0.13339422643184662 -0.004307509399950504 0.0005037048831582069 0 0 0 0
1170634836 -0.3866959512233734 0.15363609790802002 -0.0046679917722940445 0.000583394430577755 0 0 0 0
1171626899 -0.37716662883758545 0.17130473256111145 -0.005183864384889603 0.0010028937831521034 0 0 0 0
1172618962 -0.36611467599868774 0.1913170963525772 -0.0056502241641283035 0.001736619509756565 0 0 0 0
1173611025 -0.35445719957351685 0.20889627933502197 -0.005924294702708721 0.0026495615020394325 0 0 0 0
1174603088 -0.3431541323661804 0.22409482300281525 -0.005847649648785591 0.0037100743502378464 0 0 0 0
1175595151 -0.3290219008922577 0.2412625104188919 -0.005280408076941967 0.004644118249416351 0 0 0 0
1176587214 -0.3144260048866272 0.2576436996459961 -0.004742296412587166 0.005245146341621876 0 0 0 0
1177579277 -0.2996351718902588 0.2725508213043213 -0.0041783517226576805 0.005761079490184784 0 0 0 0
1178571340 -0.2829297184944153 0.28719377517700195 -0.0037529412657022476 0.006220382638275623 0 0 0 0
1179563403 -0.2678646445274353 0.3002984821796417 -0.0032631205394864082 0.006943260319530964 0 0 0 0
1180555466 -0.25134992599487305 0.3132699131965637 -0.0024501457810401917 0.007869893684983253 0 0 0 0
1181547529 -0.23295706510543823 0.326774001121521 -0.001145881600677967 0.00831390917301178 0 0 0 0
1182539592 -0.21229027211666107 0.33709633350372314 0.0002998495474457741 0.008292119950056076 0 0 0 0
1183531655 -0.19342198967933655 0.3461880683898926 0.0013487888500094414 0.008027350530028343 0 0 0 0
1184523718 -0.17593757808208466 0.353669136762619 0.0023530563339591026 0.00754750519990921 0 0 0 0
1185515781 -0.15601767599582672 0.3604310154914856 0.0034124059602618217 0.0070332931354641914 0 0 0 0
1186507844 -0.13566476106643677 0.3676949143409729 0.004213542677462101 0.006297421641647816 0 0 0 0
1187499907 -0.1160198450088501 0.37334418296813965 0.004873795434832573 0.005422690883278847 0 0 0 0
1188491970 -0.0986979529261589 0.3793752193450928 0.005147358402609825 0.004297992214560509 0 0 0 0
1189484033 -0.07529064267873764 0.3833613097667694 0.005138503387570381 0.003389652818441391 0 0 0 0
1190476096 -0.05474482849240303 0.3855409026145935 0.004916789010167122 0.0024714553728699684 0 0 0 0
