# HZ S RI R 50
1000000000 0.028848660853828187 0.3814387249559898 0.018687967210309353 -0.004896653685608368 0 0 0 0
1000495295 0.039777935642323146 0.3801322717711558 0.018649136284755695 -0.005090828445617527 0 0 0 0
1000990590 0.04810087573402049 0.38066191418128476 0.018597895597791167 -0.0055509959575412065 0 0 0 0
1001485885 0.05590637777403775 0.3801064642482212 0.018986801026881713 -0.005909279434430391 0 0 0 0
1001981180 0.06327499877500246 0.37998922650502825 0.01904052945038748 -0.006423682416633821 0 0 0 0
1002476475 0.07276071171723619 0.3774561741311945 0.018970092082661604 -0.006958679779313264 0 0 0 0
1002971770 0.08030241749534885 0.3771134461813964 0.018915816831809307 -0.007453306301291056 0 0 0 0
1003467065 0.08774153844040807 0.37623785156425915 0.018751496579797605 -0.00807749780159278 0 0 0 0
1003962360 0.09581516403023639 0.3746692175379195 0.01864583467045839 -0.008456975201656015 0 0 0 0
1004457655 0.10553317064250912 0.3734232799521085 0.018357408222241356 -0.009010180879958984 0 0 0 0
1004952950 0.1125434118451757 0.3726742046930933 0.018218734597266653 -0.009202147299181332 0 0 0 0
1005448245 0.12304708136052203 0.3705863196700699 0.018130812276995745 -0.009622961163696087 0 0 0 0
1005943540 0.1301347148521649 0.36842592494967086 0.018051110054093024 -0.010128573835270351 0 0 0 0
1006438835 0.13724008988321904 0.36620195034683894 0.017855763866819828 -0.010535110656046079 0 0 0 0
1006934130 0.1471243454076875 0.3640710187808692 0.017640539209374067 -0.010894391224140307 0 0 0 0
1007429425 0.15287614140051903 0.36225627090207557 0.01745223471011757 -0.011513177817047143 0 0 0 0
1007924720 0.16219922420081784 0.35895962728839165 0.016860179634691823 -0.011837386925934132 0 0 0 0
1008420015 0.17035989077155791 0.3556037751061934 0.016756958917069038 -0.01227208811337058 0 0 0 0
1008915310 0.17912246153174793 0.35383960905625356 0.016541371419121063 -0.012761881176768818 0 0 0 0
1009410605 0.18635360831618014 0.34963947805696377 0.016124619951055408 -0.01321591816097211 0 0 0 0
1009905900 0.1958345280635058 0.34709702640294726 0.01559710043451683 -0.013369432666487713 0 0 0 0
1010401195 0.2052379764119424 0.34366977886814265 0.015249082825206085 -0.013835019144695442 0 0 0 0
1010896490 0.2143538833246891 0.33961478873976364 0.014885159154978898 -0.014082783458463848 0 0 0 0
1011391785 0.22079876981065338 0.3361256806810673 0.014477008474668167 -0.014021243745244556 0 0 0 0
1011887080 0.22763470637187308 0.3314683000755717 0.014275662535909303 -0.014026818078939528 0 0 0 0
1012382375 0.23787955452067994 0.3250264638178955 0.014070786556048286 -0.01418263184230352 0 0 0 0
1012877670 0.2446152676890262 0.32185666191953743 0.014043030979040074 -0.014562651265519921 0 0 0 0
1013372965 0.25358316671962483 0.31469130165531845 0.013932889628860827 -0.014875541302331931 0 0 0 0
1013868260 0.2617708280728905 0.3079979316670287 0.013853299797134552 -0.015198782485273352 0 0 0 0
1014363555 0.2668504841751006 0.30401434899603863 0.013344939173263695 -0.015760804563359924 0 0 0 0
1014858850 0.2744559842025442 0.2971489849624986 0.0130561110974612 -0.016083681866943436 0 0 0 0
1015354145 0.28068111734346046 0.29081131891172957 0.012684851960808078 -0.016255248743365078 0 0 0 0
1015849440 0.2854931541048201 0.2854607778840555 0.012129426264828554 -0.016619754222829537 0 0 0 0
1016344735 0.2936611244825857 0.2792910864725966 0.01171791989190551 -0.016704881048312904 0 0 0 0
1016840030 0.29984345437807347 0.2730704550995178 0.011518539136178977 -0.01672090568135052 0 0 0 0
1017335325 0.3066571618777445 0.26697917958512696 0.011310096510154811 -0.016603738416835476 0 0 0 0
1017830620 0.3130674173677322 0.2609492688385592 0.011272616416456226 -0.01706160210527796 0 0 0 0
1018325915 0.31737101905054654 0.25578625401094296 0.010962059502056335 -0.017632319895947737 0 0 0 0
1018821210 0.32382240442123394 0.24922608015096054 0.010921267507289686 -0.017800536962599253 0 0 0 0
1019316505 0.33088994774507374 0.24257380693315964 0.01056894932443585 -0.017985405327918633 0 0 0 0
1019811800 0.33746467343752046 0.23520734792654813 0.010049333511351751 -0.018628054456815046 0 0 0 0
1020307095 0.3429947094857654 0.2269466179781316 0.009663139152583643 -0.018933917624212166 0 0 0 0
1020802390 0.35105864406425913 0.217774256706987 0.009364625650115385 -0.019217532559847154 0 0 0 0
1021297685 0.3547325394512541 0.21109628847298367 0.009006585498814982 -0.019455711600485738 0 0 0 0
1021792980 0.3607764660980442 0.20366841794595258 0.00839196665924479 -0.01980910567100545 0 0 0 0
1022288275 0.3652870252736103 0.19345451004446226 0.007944424334579621 -0.019977944917168193 0 0 0 0
1022783570 0.37052831821358245 0.18537271017340734 0.007347691497229433 -0.020290260975920207 0 0 0 0
1023278865 0.3733269728049474 0.176102317854685 0.006814601727181394 -0.020410773957834524 0 0 0 0
1023774160 0.37815216509394534 0.16931508168646056 0.006387860620751601 -0.020438623261492313 0 0 0 0
1024269455 0.3829487355290056 0.16031577145072226 0.005664599075161755 -0.020550393269044766 0 0 0 0
1024764750 0.3861888919772066 0.15036145446055316 0.00539547054942227 -0.020759803334215912 0 0 0 0
1025260045 0.3901073783676346 0.14155667606331676 0.004599128947670664 -0.02078489845009255 0 0 0 0
1025755340 0.39391750988929874 0.13322574497695516 0.004342564599138017 -0.021018415227760094 0 0 0 0
1026250635 0.39622171017563057 0.12450130291943817 0.0038656808792536827 -0.02092423553931291 0 0 0 0
1026745930 0.39832246055777837 0.11657088985816166 0.003367581410617145 -0.021018413510747302 0 0 0 0
1027241225 0.40154291862144326 0.1062328593905588 0.002712069426475581 -0.021093495736022715 0 0 0 0
1027736520 0.4044143556962801 0.09710652209070414 0.0021301684169423517 -0.020879947144956036 0 0 0 0
1028231815 0.4070104561249515 0.08938041552382045 0.0018965032104539964 -0.020702201536859574 0 0 0 0
1028727110 0.40895958572072555 0.0801020860993495 0.0014611387559696045 -0.020493489011365416 0 0 0 0
1029222405 0.4112772626429028 0.06892798094249795 0.0013566720780738804 -0.020409258497157863 0 0 0 0
1029717700 0.41204988627220374 0.06092635659845726 0.001119690781530504 -0.02047955252494295 0 0 0 0
1030212995 0.41326780793584356 0.05298035438878233 0.0007905614483168504 -0.020971185811853033 0 0 0 0
1030708290 0.4150938380949095 0.04299796294127721 0.0005739925649921842 -0.021111409862045072 0 0 0 0
1031203585 0.41557561374964863 0.03297028520010565 -0.00034433250460202036 -0.021110551016863138 0 0 0 0
1031698880 0.4166802401372687 0.024518732899898373 -0.0010762756812553926 -0.021106953774819925 0 0 0 0
1032194175 0.4170908273868191 0.01453049052909081 -0.0014041167381791766 -0.021044089842509963 0 0 0 0
1032689470 0.4173980586802266 0.005327187398723103 -0.0020383750982161863 -0.020854969530771622 0 0 0 0
1033184765 0.4182054028216101 -0.002594850751702771 -0.002381191335200904 -0.02067344852754689 0 0 0 0
1033680060 0.4176397053175171 -0.01213211660384058 -0.0027458787956972934 -0.02058379351499755 0 0 0 0
1034175355 0.4180062656642085 -0.025655382307079075 -0.003137568277135876 -0.020440357581988478 0 0 0 0
1034670650 0.4176819408845262 -0.03370931780855837 -0.003587007405232012 -0.02043729523234459 0 0 0 0
1035165945 0.41734129820298727 -0.04229029711538009 -0.004142939657712318 -0.020367875901309722 0 0 0 0
1035661240 0.41735578014298264 -0.05292306397815273 -0.0045256296062525 -0.02030330267160603 0 0 0 0
1036156535 0.4150940945116225 -0.06291161458164905 -0.004790210072390204 -0.020227939742931703 0 0 0 0
1036651830 0.4137360491517028 -0.07202295660473598 -0.005341279668160095 -0.01995750636109231 0 0 0 0
1037147125 0.4115747791304262 -0.08232067158878768 -0.00579613652549109 -0.019931540752355096 0 0 0 0
1037642420 0.40932962566763526 -0.0910689418855922 -0.006478437659876843 -0.019658611226904158 0 0 0 0
1038137715 0.4064137077391846 -0.1007393483108857 -0.006769066647897397 -0.01935251913914453 0 0 0 0
1038633010 0.4049417367477134 -0.10699545518629044 -0.0070953486660057345 -0.019168812595239896 0 0 0 0
1039128305 0.40219819926793365 -0.11763447770741982 -0.007094607661330629 -0.01884912974761093 0 0 0 0
1039623600 0.39975973312463997 -0.12605032046929468 -0.007380752868782141 -0.018635790389334998 0 0 0 0
1040118895 0.3969453616458052 -0.1352342705260536 -0.0074974898090587275 -0.018774094769409822 0 0 0 0
1040614190 0.3938224844457552 -0.14492256091820943 -0.007963605768080034 -0.018627051421599237 0 0 0 0
1041109485 0.3909987819735378 -0.1528421265561909 -0.008333301748054951 -0.018684849060550575 0 0 0 0
1041604780 0.38699808742751923 -0.16336352417341893 -0.00872687917933446 -0.01847792142677083 0 0 0 0
1042100075 0.38364842558262024 -0.17104537374787013 -0.009415337067861762 -0.01862180252870291 0 0 0 0
1042595370 0.37842699670221686 -0.17997436576134107 -0.00961604862337939 -0.018249934495087865 0 0 0 0
1043090665 0.3751216035109409 -0.1879434648871935 -0.01009058063169464 -0.018237812264609465 0 0 0 0
1043585960 0.37142369443310097 -0.19592270129727196 -0.010579878162629246 -0.018039543532791087 0 0 0 0
1044081255 0.3661449067379225 -0.20481718140354466 -0.010825189043720325 -0.017648927049337654 0 0 0 0
1044576550 0.3619990417124508 -0.213295360023306 -0.011217426366526694 -0.0174473763095298 0 0 0 0
1045071845 0.3580361778595735 -0.22014526035261384 -0.011789235110365382 -0.01723802736406985 0 0 0 0
1045567140 0.3518989617460085 -0.22825156416386413 -0.012148039253889593 -0.01700697898091166 0 0 0 0
1046062435 0.34762251452718235 -0.23617512481928093 -0.012359676837815421 -0.016945455312723637 0 0 0 0
1046557730 0.3414596917401587 -0.24438376472554918 -0.012921303981373852 -0.016818688397134823 0 0 0 0
1047053025 0.3353916853653995 -0.2531944059580295 -0.013282694524625327 -0.01671128150354904 0 0 0 0
1047548320 0.3294445815464594 -0.26030819750169704 -0.013843693147691622 -0.0164468155799193 0 0 0 0
1048043615 0.3239980013222956 -0.2671057060993043 -0.014467487354764429 -0.016127555208303723 0 0 0 0
1048538910 0.31950515380546 -0.2733081056060333 -0.015121674725791984 -0.015577723467787767 0 0 0 0
1049034205 0.3123361796435125 -0.2804442586593621 -0.015430326633500656 -0.015287738746590014 0 0 0 0
1049529500 0.30696523076613336 -0.2868086817638296 -0.01575949991665631 -0.014819275288619769 0 0 0 0
1050024795 0.3000899637214412 -0.294829075969026 -0.01623380662860795 -0.014367799000234585 0 0 0 0
1050520090 0.29466582891013987 -0.30161549932162973 -0.016667300534271897 -0.013937327246053751 0 0 0 0
1051015385 0.28905595997167033 -0.30936050637211954 -0.01686404977508986 -0.013301343364972351 0 0 0 0
1051510680 0.28183362491839603 -0.3147879381162688 -0.017110310473925555 -0.012599411739656586 0 0 0 0
1052005975 0.27400847807243334 -0.32342247116140715 -0.01729093060651124 -0.01222767151220417 0 0 0 0
1052501270 0.2662420852686037 -0.3292671548931949 -0.01735501385015815 -0.01175074881000358 0 0 0 0
1052996565 0.25906156331374036 -0.33650099017953666 -0.017730318903361752 -0.011484482057717297 0 0 0 0
1053491860 0.25161979932242895 -0.3423996031696269 -0.017807933839145265 -0.011034797525578396 0 0 0 0
1053987155 0.24263891552983455 -0.34917897486213584 -0.01805274543546906 -0.010652455800614757 0 0 0 0
1054482450 0.23570575614880895 -0.35432951507282473 -0.01817555425151912 -0.010282279511189851 0 0 0 0
1054977745 0.22693292170911347 -0.35923624324633757 -0.01838274006562267 -0.009913395366619759 0 0 0 0
1055473040 0.21795808560695631 -0.3654345949008113 -0.0184574671584131 -0.009696835738533091 0 0 0 0
1055968335 0.20868678764389853 -0.3699264355036596 -0.01883921740353249 -0.009250357100004035 0 0 0 0
1056463630 0.20024176350647546 -0.3744826312836858 -0.019223704029389624 -0.009076556192802563 0 0 0 0
1056958925 0.19245121311650448 -0.3785638968724189 -0.019621278314100127 -0.00868406266472298 0 0 0 0
1057454220 0.18310219018863458 -0.38297958414458444 -0.020139477809049698 -0.008069148344105163 0 0 0 0
1057949515 0.17374424588376228 -0.3873991192668914 -0.020395083202743976 -0.007382575440725135 0 0 0 0
1058444810 0.16592011661110917 -0.38976043844145997 -0.020490148932630032 -0.006939061487573653 0 0 0 0
1058940105 0.15615616168159954 -0.39380790840680535 -0.0205872553035219 -0.006435406693271978 0 0 0 0
1059435400 0.1485977769612208 -0.3976283076684901 -0.020805995612761155 -0.005605620432417136 0 0 0 0
1059930695 0.1379454537221032 -0.4009415193682617 -0.020994195929104262 -0.0050590212395528605 0 0 0 0
1060425990 0.1281028139457909 -0.40392806724749125 -0.021060737941501075 -0.004528383257844731 0 0 0 0
1060921285 0.11929937423198696 -0.4056190254401909 -0.02117000944606228 -0.0037789367428822628 0 0 0 0
1061416580 0.10877906917357447 -0.40897655378898573 -0.021385141622753935 -0.0033023009214379574 0 0 0 0
1061911875 0.09924525151268895 -0.4100765936617252 -0.02158026711767607 -0.0027440272310821964 0 0 0 0
1062407170 0.09026268325244434 -0.4123219503004134 -0.021543334507099127 -0.0021260219209159933 0 0 0 0
1062902465 0.08028238639455257 -0.4136247974949668 -0.021502761589977038 -0.001154932767144123 0 0 0 0
1063397760 0.07120329523470265 -0.41460564733682687 -0.02139453538284299 -0.0005176591265105623 0 0 0 0
1063893055 0.0637742028398808 -0.4161975168601044 -0.021297300139073563 0.00023666399282938286 0 0 0 0
1064388350 0.05440695251917432 -0.41685378643633425 -0.021027500853553486 0.0007305794685816231 0 0 0 0
1064883645 0.04481472641639729 -0.4174909897366586 -0.020854234189673963 0.001427054854709266 0 0 0 0
1065378940 0.03608131112073382 -0.41856495714096054 -0.02052048678692465 0.0019774190799593722 0 0 0 0
1065874235 0.026473449823792915 -0.4199569055641801 -0.020274568655609653 0.0027879763269078443 0 0 0 0
1066369530 0.018795035228495807 -0.41933867451564877 -0.02013701593277944 0.003252978885044397 0 0 0 0
1066864825 0.008423129588680151 -0.4188685090014453 -0.01962110440046531 0.0037578983574184407 0 0 0 0
1067360120 -5.727273594125209e-05 -0.42059920034634274 -0.01940684622358711 0.00412779772804957 0 0 0 0
1067855415 -0.009150515677418777 -0.4202593827108798 -0.019034553187669712 0.00459834597481824 0 0 0 0
1068350710 -0.01758184752918971 -0.4207263194519213 -0.018659993909212157 0.004807006415154802 0 0 0 0
1068846005 -0.02902795570102456 -0.4199614559915218 -0.018366875007882887 0.0053214660815878514 0 0 0 0
1069341300 -0.03699650495661349 -0.42151313536920204 -0.018159305172856535 0.005296187891476266 0 0 0 0
1069836595 -0.045985130453437995 -0.41916850184338583 -0.018025882131624274 0.005615906098107636 0 0 0 0
1070331890 -0.05560297734597755 -0.41834812605918426 -0.01785181661381437 0.006108862037389343 0 0 0 0
1070827185 -0.0656673691377398 -0.4170700049692822 -0.01755701541915233 0.006587281109986101 0 0 0 0
1071322480 -0.0735539584756291 -0.4148784474795883 -0.01740416846826492 0.00697798924850794 0 0 0 0
1071817775 -0.08338866021863786 -0.41374129212967947 -0.016986311838067678 0.00735945995470945 0 0 0 0
1072313070 -0.09198151357037246 -0.412847376918489 -0.01654411991348973 0.0077416327204896055 0 0 0 0
1072808365 -0.10231585750283412 -0.41005053172467704 -0.016068790853066856 0.008054459261900165 0 0 0 0
1073303660 -0.1111713274312909 -0.4082535318368175 -0.015802655011497167 0.008182148199861527 0 0 0 0
1073798955 -0.12106541453420984 -0.40553219403245855 -0.015387677647861779 0.00842226488002193 0 0 0 0
1074294250 -0.13072495654342484 -0.40346718621884453 -0.015239318647075324 0.008484769336548051 0 0 0 0
1074789545 -0.13901723474211622 -0.4002638031260602 -0.014938557290025535 0.008797948448906502 0 0 0 0
1075284840 -0.1471402136264731 -0.39699709958226526 -0.014773962968946352 0.008813256275040477 0 0 0 0
1075780135 -0.15553176408567224 -0.39380861723619376 -0.014390914571790476 0.00899994496579306 0 0 0 0
1076275430 -0.16351873295506816 -0.3907124239560409 -0.014229343486866006 0.008962553995543895 0 0 0 0
1076770725 -0.17334988865495105 -0.3865914019481796 -0.013967132301233505 0.009045070200430447 0 0 0 0
1077266020 -0.18119880811367708 -0.38383674494385994 -0.01387012292014211 0.009203503725290926 0 0 0 0
1077761315 -0.1901214678303041 -0.3803344200476584 -0.013873511215054181 0.009392597452084572 0 0 0 0
1078256610 -0.19848419204390946 -0.3735263788285997 -0.013875219681515548 0.009443258534017368 0 0 0 0
1078751905 -0.20732204039210134 -0.3709533530233174 -0.013606086395660289 0.009806517675741346 0 0 0 0
1079247200 -0.2155094564920523 -0.3668646529088477 -0.01368507896493624 0.01018597036447931 0 0 0 0
1079742495 -0.2231685245166626 -0.3633165060709063 -0.013582156452516451 0.010603277454911708 0 0 0 0
1080237790 -0.23140149974498517 -0.35791994785014186 -0.013343131659279465 0.010908642950418655 0 0 0 0
1080733085 -0.23979096595913896 -0.3541987859552441 -0.013285890264234502 0.011287762263424808 0 0 0 0
1081228380 -0.24800897575957667 -0.3483773636815284 -0.013111483116590768 0.01171619490036393 0 0 0 0
1081723675 -0.2565850307144908 -0.3439312745843593 -0.012787264451012728 0.011979630144100141 0 0 0 0
1082218970 -0.2637396989429829 -0.33712286781178663 -0.012676701448065757 0.012247147931163282 0 0 0 0
1082714265 -0.27255805947126827 -0.33127583973167873 -0.012302405537467209 0.012738296773907183 0 0 0 0
1083209560 -0.28078731866859125 -0.3244184552682158 -0.012082716878437847 0.013038489765282556 0 0 0 0
1083704855 -0.2872175234749933 -0.3208238018663249 -0.012032871200228293 0.013588730233839337 0 0 0 0
1084200150 -0.29415625823620806 -0.31262556969689964 -0.011666423643782703 0.014004275144005296 0 0 0 0
1084695445 -0.30203886535219765 -0.3052737704643351 -0.011406714759286018 0.014413959643075614 0 0 0 0
1085190740 -0.30837070594920835 -0.3005603109405211 -0.011020542560495731 0.014945808959305114 0 0 0 0
1085686035 -0.31394941136393967 -0.2926220066511429 -0.010376564740470422 0.015439427874242484 0 0 0 0
1086181330 -0.32051751117420885 -0.28722972140080566 -0.009830124705393711 0.015951123647948373 0 0 0 0
1086676625 -0.32714154506646703 -0.27771422184397987 -0.009014653594427121 0.016232039794912195 0 0 0 0
1087171920 -0.3326158598147896 -0.27338915752713977 -0.00823224149633353 0.01654008436810757 0 0 0 0
1087667215 -0.3394088841267439 -0.2653701681298859 -0.007439084421124632 0.01678541633160926 0 0 0 0
1088162510 -0.34442421162821546 -0.260135519449731 -0.006867533063330513 0.016592189463278017 0 0 0 0
1088657805 -0.3502221520838183 -0.2529011923002689 -0.006114706127251887 0.01667017449451553 0 0 0 0
1089153100 -0.35765894597520065 -0.24386642882056847 -0.005583803605242461 0.016534792465524386 0 0 0 0
1089648395 -0.36338238870818623 -0.2370604785107238 -0.004982236473368286 0.016522369917088872 0 0 0 0
1090143690 -0.36863285641313753 -0.23113550882586945 -0.004565251748824703 0.016360952597858493 0 0 0 0
1090638985 -0.37455908528744736 -0.22026304589923132 -0.003831509152427237 0.01619016237244374 0 0 0 0
1091134280 -0.3808445769187929 -0.21038159922904104 -0.003686681755559934 0.01606613100797901 0 0 0 0
1091629575 -0.38505330004009525 -0.20608515395303517 -0.0032695171238142345 0.015959112066762104 0 0 0 0
1092124870 -0.3902362010734902 -0.19611910121189405 -0.0028933487070973304 0.015853088841519064 0 0 0 0
1092620165 -0.3948924553200108 -0.18793807369110246 -0.002423545313567931 0.015994940735756014 0 0 0 0
1093115460 -0.4003756217696722 -0.176755076431927 -0.001966352329714004 0.015854436556632302 0 0 0 0
1093610755 -0.4032083145842401 -0.17011088807494595 -0.0013899663759161063 0.015897324043956124 0 0 0 0
1094106050 -0.4073670612461854 -0.159367793067379 -0.0008684854923014993 0.015597609680136038 0 0 0 0
1094601345 -0.4113194056969937 -0.15151959394095516 -0.00048464827369502147 0.01531639361230791 0 0 0 0
1095096640 -0.41474999477524854 -0.14303484542536035 -2.5439553759864188e-05 0.014913402700427977 0 0 0 0
1095591935 -0.41829476625136885 -0.13412958518163715 9.924770003722963e-05 0.014696728361868206 0 0 0 0
1096087230 -0.4217372225873485 -0.1258347802626459 0.0002924175951085265 0.014409418605963554 0 0 0 0
