!Keysight Technologies N9923A: A.08.15
!Date: Friday, 16 February 2024 21:28:47
!Timezone: (GMT-05:00) Eastern Time (US & Canada)
!Model: N9923A
!Serial: MY52412730
!GPS Latitude: 
!GPS Longitude: 
!GPS TimeStamp: 0001-01-01 00:00:00Z
!GPS Seconds Since Last Read: 0
!CHECKSUM:1818027876
!Correction: S11(ON Q)S21(ON Q)S12(ON Q)S22(ON Q)
!S2P File: Measurements:S11,S21,S12,S22:
# Hz S DB R 50
1000000000	-0.773839408771976	-12.4073217064452	-63.6251332065037	-103.720593256831	-58.7172106410431	-108.504845533041	-10.1834335758292	76.076191638921	
1000050000	-0.77971072862657	-12.5262490024809	-61.9921868135979	-93.9029406346346	-58.2277071367845	-91.320896856481	-10.1769029491356	75.9795644521193	
1000100000	-0.781430817948184	-12.6663270592104	-59.9300533619422	-112.410154094317	-58.1651341643007	-98.1143026273409	-10.1762848076876	75.8959535276635	
1000150000	-0.780408378629784	-12.801842624605	-59.2997141190201	-107.571353267424	-57.6667740510026	-88.5711670731123	-10.1742054451222	75.6714725653864	
1000200000	-0.778420585543325	-12.9216273373389	-59.7301126464241	-115.038368461756	-58.7154106795553	-99.6583878878538	-10.1812268675073	75.5829544937059	
1000250000	-0.775658732615953	-13.0574316036314	-59.8073587638968	-96.0334676200361	-59.3861019154064	-108.462449439601	-10.1719833703856	75.4445920622866	
1000300000	-0.777445811019325	-13.1583756105908	-60.4780698378486	-99.6766542674278	-58.9844320421524	-91.9166900233909	-10.1746068750944	75.3336948569398	
1000350000	-0.780396817240136	-13.3345589233314	-59.5572168235181	-96.9205888073063	-57.6318017703793	-98.8636806969582	-10.1634499822357	75.2081912243022	
1000400000	-0.776004241739586	-13.4587936736898	-59.1299951422217	-104.707201063757	-59.2196246808828	-94.442650071184	-10.1815671395557	75.0722295708567	
1000450000	-0.780163472357254	-13.5970974979334	-62.3402030749965	-108.408211554163	-59.4095077235678	-101.981316132401	-10.1643794185474	74.9504946832075	
1000500000	-0.776601595170525	-13.7274234309257	-59.8247988016701	-111.410726714387	-59.5417384953783	-106.529218224232	-10.1673905463304	74.7971913164386	
1000550000	-0.781487317689527	-13.873637959515	-60.9414833637393	-126.762101235728	-58.4305418511904	-91.8646144877911	-10.1672401417299	74.6844486321396	
1000600000	-0.778690441861841	-14.0340687706913	-59.4416433477669	-99.6536800355681	-58.7530909390152	-108.16274894329	-10.1593366491181	74.5309838266229	
1000650000	-0.776266980165437	-14.1233926536695	-59.7363855159292	-103.638758405255	-59.3104258223747	-97.4658564494456	-10.1672643104032	74.4075098959837	
1000700000	-0.774656346594193	-14.2730134494006	-61.286983229775	-113.140118056483	-56.5617875415241	-102.568957532455	-10.1672149008983	74.2757220439614	
1000750000	-0.777265599965457	-14.4141782907234	-60.394053755256	-118.061068568767	-59.1890103205628	-100.174943289856	-10.1681516205732	74.2260953644833	
1000800000	-0.778839385794502	-14.5463003062908	-59.7122878110268	-112.064842211512	-59.1735310653005	-98.5617757192569	-10.1678241150132	74.0854144006384	
1000850000	-0.775193419644317	-14.6784826035144	-59.7793933729194	-120.173936999656	-57.8055065439819	-93.7172385651349	-10.1590750847662	73.9306960605215	
1000900000	-0.776367667950912	-14.8269432506612	-61.2542051672292	-101.875622664688	-58.3012952188814	-93.1681085955096	-10.1727115860473	73.809526528286	
1000950000	-0.7779773489236	-14.9620273226807	-60.592203048237	-98.7611233947967	-58.7101666215666	-107.167955312807	-10.1670367350836	73.6827637597078	
1001000000	-0.778456702471192	-15.105138459365	-59.9249207160959	-116.974562258803	-59.7986851459995	-99.092190524422	-10.1691354578375	73.585670660144	
1001050000	-0.77882008720271	-15.2565422951977	-58.6345126505694	-118.927203114996	-58.0841358888505	-92.2038018677204	-10.1613647568638	73.4056520825286	
1001100000	-0.779029015571192	-15.3699959097712	-60.3781471298657	-109.144006760752	-58.7044401397186	-93.1581348616079	-10.1534717508937	73.2831311036731	
1001150000	-0.777132385929551	-15.5005261176095	-60.8659290439506	-125.373538558011	-58.0012000655244	-101.070274552059	-10.1580495519162	73.1295232928848	
1001200000	-0.780881012201028	-15.6633432554845	-59.5423590736987	-124.582488970283	-58.7244273131482	-101.935311909701	-10.1457451959543	72.9926861688803	
1001250000	-0.77350178874179	-15.7889044519007	-57.8677643522214	-109.952590529319	-59.1039415636485	-111.727748046437	-10.1617198998638	72.8761131889208	
1001300000	-0.779453354289023	-15.921335728369	-60.5137197026849	-112.841811247968	-58.0375861837352	-102.87041735733	-10.1518857280867	72.7684829295106	
1001350000	-0.778027435807816	-16.088683621291	-60.2339422609906	-117.672037665352	-58.7437720868565	-101.470753104548	-10.1596784229303	72.6887631777878	
1001400000	-0.775128697365245	-16.1694694045118	-60.9747376235989	-102.56024152783	-59.6758354526289	-100.217364121716	-10.1519972510949	72.5238472073538	
1001450000	-0.775908920096281	-16.3110463491189	-58.4606997810143	-114.224955357513	-60.3994042717455	-101.23893325132	-10.1574192405918	72.4578080530298	
1001500000	-0.775033062928109	-16.4679522849319	-61.7658115026624	-132.118720574501	-57.9205369824489	-102.696176365285	-10.1506062944757	72.2312995279281	
1001550000	-0.778427276491083	-16.5845255889006	-58.2957757474212	-112.431241706163	-57.371519863644	-104.123315209525	-10.1550470174925	72.2219347396169	
1001600000	-0.771275920797239	-16.756407079615	-62.906505944555	-121.290828473067	-58.3653736938053	-106.69328233203	-10.1458559676505	72.0944248462827	
1001650000	-0.775337267797446	-16.8633318957631	-60.3485293723676	-119.358745781298	-58.3409939929699	-101.930687138751	-10.1481338552023	71.9659640071016	
1001700000	-0.773074733805989	-17.0179520002604	-59.5334069219995	-123.678741615676	-58.6025748345405	-102.580456250537	-10.1494810005421	71.7966653649615	
1001750000	-0.779394607037855	-17.1368628414744	-60.7833535905022	-131.843840841013	-60.3380363349739	-107.992378778458	-10.1436094639785	71.6656885885653	
1001800000	-0.775332620454409	-17.3018878306781	-60.1422639020101	-114.486783376442	-58.4252367087375	-112.375670176692	-10.1426847264426	71.5082376994267	
1001850000	-0.773714380548386	-17.4176093874838	-61.7015862686569	-112.528825113216	-58.594749597083	-99.2027538767182	-10.147265607945	71.3644406925297	
1001900000	-0.775024291376487	-17.5802353424439	-60.8738926492196	-114.168189577197	-59.4208613235721	-103.461722280706	-10.1494783333797	71.2938821782025	
1001950000	-0.77776955005201	-17.7025427141843	-58.4676308616122	-116.439357762561	-59.7089409862309	-92.2347803068055	-10.1389180981421	71.1567524187603	
1002000000	-0.779581233288543	-17.8254893475054	-58.1245420077845	-121.913270814536	-58.4735057016358	-112.940381382055	-10.1357912019163	71.0323475564888	
1002050000	-0.772989562212693	-17.970769487865	-62.0215597869111	-120.72528775308	-58.4241761906308	-104.33837993937	-10.130385198987	70.875810161601	
1002100000	-0.775247151221209	-18.0777188918761	-61.0294340293987	-136.237470818091	-61.3527497962543	-100.895975058582	-10.1376301815099	70.7733205900805	
1002150000	-0.775694457949124	-18.2580968588956	-59.6259263017771	-107.635219100802	-58.3861502026556	-104.186608128985	-10.1505834412791	70.6652100673333	
1002200000	-0.77422965933959	-18.391152892796	-60.3638384445019	-124.539179074566	-57.4043173982586	-106.768232792333	-10.1402919800436	70.5327113887244	
1002250000	-0.77505419116997	-18.5151013142996	-60.875168905065	-112.915708558759	-58.4774920671635	-99.4113900330045	-10.127678758103	70.3687344183183	
1002300000	-0.770079278400178	-18.6603796291535	-60.5684613836949	-125.859166909314	-59.047651863149	-110.879565667713	-10.128846186717	70.2531906772392	
1002350000	-0.774634595047704	-18.7846769539441	-58.0313190264376	-126.087469031503	-59.0304924668978	-115.918222202237	-10.1305272273484	70.0623687555509	
1002400000	-0.77731865454987	-18.9211439456636	-60.6292769010337	-125.32654835895	-57.7907040047483	-105.741579333446	-10.125701885957	69.9823378748897	
1002450000	-0.775204816321702	-19.0405342223063	-59.7881242951152	-111.50729484127	-58.7426915546698	-105.041736270103	-10.1244843475081	69.8534546771496	
1002500000	-0.772808290105205	-19.1679984554902	-59.9647861797551	-125.178504629118	-59.2639523405796	-111.575572918913	-10.130593719185	69.7581499521483	
1002550000	-0.777186892230575	-19.3361513423105	-60.4273223957129	-126.543979626845	-60.1346012631307	-102.984292532959	-10.11874475326	69.631496491304	
1002600000	-0.776554406674048	-19.445204729121	-61.6199244127526	-135.915584403262	-60.3222589171991	-110.81848156336	-10.1171525680669	69.3915903593019	
1002650000	-0.776017005718455	-19.5856712463028	-58.2157848313838	-114.093662397622	-59.6200259205211	-119.714603956579	-10.1143138454866	69.3381685790042	
1002700000	-0.773879449473831	-19.7259221715	-62.5210059306281	-120.7392979548	-59.1418795708108	-103.812903163514	-10.113567415428	69.285018445121	
1002750000	-0.776587900825086	-19.8632213008121	-59.7145883464267	-120.916232373766	-59.5173045934111	-108.088254753112	-10.1181541100861	69.1232683678248	
1002800000	-0.776556324035085	-19.984796253779	-60.5587039118389	-109.297301861326	-58.1008447316122	-106.957392547032	-10.1103504474313	68.9884532037384	
1002850000	-0.774991026676593	-20.1310257254958	-59.76503012178	-124.732985416314	-59.5518181245203	-111.399175583206	-10.1149636634613	68.8738038097671	
1002900000	-0.779293834314998	-20.2637449300355	-60.7209157740095	-126.437846603086	-59.3533089150233	-108.007119202165	-10.1099277794717	68.702949934882	
1002950000	-0.77187792533636	-20.4029709311774	-59.147366833624	-130.738217517336	-58.01621103245	-117.899161402893	-10.0982565363534	68.5830614321878	
1003000000	-0.772885702881155	-20.5312919630211	-58.6779321758741	-127.043178663203	-60.1385200232957	-104.853346013436	-10.1122735055264	68.5302606994845	
1003050000	-0.778528252605544	-20.7083182021953	-61.767311326892	-114.796839587651	-58.5605333805452	-105.921983773607	-10.1031573089005	68.3421872499039	
1003100000	-0.775592133805517	-20.8267003564008	-62.7335402120522	-138.341344756772	-57.6061710580554	-118.951927784634	-10.0986055762696	68.1784467371442	
1003150000	-0.774449328932026	-20.964132536741	-58.846300869552	-123.346668997619	-59.6191522772338	-109.275406767368	-10.095296369118	68.1189106603277	
1003200000	-0.770285081401776	-21.0804606873622	-61.1297997237742	-125.605524533411	-58.5509531595163	-114.702482023567	-10.1003173253028	67.9742417388653	
1003250000	-0.773997901254961	-21.2640748754271	-60.5700500639412	-113.048359871987	-59.037181809373	-110.799768322961	-10.0969694137442	67.8420680533421	
1003300000	-0.77609605466382	-21.3768053196264	-59.6069067308371	-111.929755558847	-58.4721660771077	-101.600044044955	-10.0919034460138	67.7343389609258	
1003350000	-0.773612560558066	-21.5020109910659	-59.2036250514088	-123.051593315293	-58.3129863958368	-99.1997812203697	-10.0914625011458	67.5842964048997	
1003400000	-0.773772131645199	-21.6356954782745	-61.3763469980055	-128.907851726305	-59.5462928118632	-127.768075805735	-10.0945670615767	67.3753988347393	
1003450000	-0.774101530136695	-21.784500466508	-60.3636319291837	-129.778045503278	-57.4269038479219	-114.373648513451	-10.0798665794463	67.3628791226343	
1003500000	-0.774084854696217	-21.9145073595776	-59.7638388312091	-116.613757408411	-58.1964441998538	-109.386054178415	-10.093664911365	67.2278075371989	
1003550000	-0.769891745819288	-22.0804080597826	-61.3494948968793	-127.005415057144	-59.9966015034573	-109.357881188778	-10.0888357017496	67.0917476897071	
1003600000	-0.772431143909681	-22.1590698591207	-58.8675581708613	-121.917343908879	-58.188191546262	-100.061932319675	-10.085301599107	67.001330768351	
1003650000	-0.774541017975641	-22.3445233974186	-59.3688817852924	-115.519317701015	-58.7889923881307	-112.205029878227	-10.0838627202077	66.8150946880893	
1003700000	-0.772411554956349	-22.4707174982085	-61.4314808817622	-136.591153605582	-59.7524328041817	-111.311394318392	-10.0873749107117	66.757905161304	
1003750000	-0.771730162450335	-22.6002081334839	-62.1337381483469	-114.465665246675	-58.6883617401488	-110.562640622535	-10.076265122021	66.6682116597413	
1003800000	-0.774704041677385	-22.7345047879358	-61.5886178493072	-128.979773728739	-57.4224324357249	-118.512407653074	-10.0749895606151	66.4952760118096	
1003850000	-0.773445248061803	-22.8608031875908	-64.4970988861019	-133.866220967745	-58.858551053452	-116.132024456763	-10.0695068414491	66.3777695967025	
1003900000	-0.771407872448855	-22.9875733927845	-61.0942173885007	-133.546053996426	-58.4046853426679	-102.535094504605	-10.0733588204474	66.2314764289914	
1003950000	-0.771732452394304	-23.1461362815128	-59.9911525867419	-132.458757226367	-58.8980039124946	-121.035959201021	-10.0658565081118	66.0645340441693	
1004000000	-0.772653071411687	-23.2660487971329	-59.0257056743832	-126.187046203763	-57.8265841257988	-114.518710517541	-10.0628377043949	65.9456676807725	
1004050000	-0.772830296503575	-23.4074909412719	-59.3386593002085	-129.320480688403	-59.3976008906654	-112.318563482892	-10.0671222046456	65.8137104385416	
1004100000	-0.769156643671985	-23.5102683998332	-60.2976781108454	-126.942230615851	-57.7565399558111	-115.841813653468	-10.0480595429037	65.672191591691	
1004150000	-0.774025594418524	-23.660598075886	-61.5362388815099	-130.477907691839	-59.8306287479709	-127.211151848991	-10.0491013525787	65.5597513120515	
1004200000	-0.774791095964286	-23.8442982468038	-61.0366510077168	-124.949442893927	-58.6259728759679	-114.504368717105	-10.0446818499429	65.4305064809719	
1004250000	-0.772919028389122	-23.9396403235642	-59.177182568852	-128.227873477659	-59.654168426712	-115.954270652416	-10.0504318064666	65.3492383198589	
1004300000	-0.777444276210105	-24.0953268403724	-60.3063366215564	-141.99726358436	-57.7250939202143	-114.387035021862	-10.0459453425071	65.1447887266398	
1004350000	-0.770449536938337	-24.2428035555626	-61.1995808635726	-112.006815705016	-59.9734459036827	-113.840424073616	-10.0301877550498	65.0150118088265	
1004400000	-0.776891152529739	-24.3402493716333	-61.0783053090166	-116.92534137273	-58.2362719457194	-111.745750221666	-10.0375636666028	64.9580952185377	
1004450000	-0.773524391856271	-24.4851059228684	-59.4709478171656	-123.310640609981	-59.0678259457495	-106.456703334083	-10.0373098318825	64.8737380451739	
1004500000	-0.773756977482254	-24.6171593486712	-60.4612951492123	-123.777553667253	-57.5231659058604	-120.142863859448	-10.0366021801081	64.6369744999523	
1004550000	-0.773896327585343	-24.7513832905352	-59.3054050813463	-132.960726114443	-57.6260388784081	-114.614887487439	-10.0330593343855	64.5585480580788	
1004600000	-0.771367080334475	-24.9016802909257	-62.7395317990045	-125.996409984395	-58.8862593238596	-114.316512739285	-10.0238211709694	64.4233363057078	
1004650000	-0.775375016895948	-25.0371203102869	-62.4097518522288	-133.714850297726	-59.8728969658025	-124.462836175279	-10.022788069365	64.2555083439308	
1004700000	-0.77138804431869	-25.1996483129544	-64.2626783862435	-116.52627099947	-59.5524941130252	-104.154447930103	-10.0315549427621	64.1708332781994	
1004750000	-0.773727574133224	-25.3294604611132	-60.7843777831157	-132.031555194189	-61.3469826969648	-114.723393447465	-10.0166748944357	64.0349955464288	
1004800000	-0.771269464542952	-25.4492871383372	-59.7806903097611	-139.569080170065	-58.1353719635895	-122.938271494097	-10.0193832341973	63.9168389604467	
1004850000	-0.772661639846475	-25.573048964299	-58.6501666014048	-140.286691745656	-58.7111162677778	-117.181082021786	-10.0043387597528	63.7481373895755	
1004900000	-0.770184008501873	-25.7178681710597	-59.7810184032924	-130.279603586683	-58.5350816916184	-118.690998913661	-10.0258572141332	63.664106317698	
1004950000	-0.769504117978443	-25.8894476809631	-61.5206288845105	-115.190972438779	-60.5210106510976	-118.997846312746	-10.0044306247975	63.5236941135232	
1005000000	-0.769277767601013	-25.9825145622486	-62.5696592301948	-113.81683653995	-57.6277594961116	-120.904942781959	-10.0089070691095	63.405144024728	
1005050000	-0.769527222818698	-26.1457627319016	-61.8604008360693	-118.372374379511	-57.95731083544	-120.477833409464	-10.0031991112747	63.2861417496595	
1005100000	-0.773408238367094	-26.262577021101	-59.9463089123132	-123.598377349988	-57.9368409962367	-116.740539233495	-10.0005183761842	63.1095799683285	
1005150000	-0.776317673309434	-26.4027472518288	-62.3033382543392	-138.349485432558	-60.0380111084235	-117.030741674228	-10.0016329339305	62.9826649606426	
1005200000	-0.771010426501474	-26.5312754842799	-60.5672791648976	-127.226948421415	-58.5651607618268	-125.926056313408	-9.99894539544182	62.88827388838	
1005250000	-0.772680834080869	-26.6754861026654	-62.596447003963	-143.204921129787	-57.9637851898042	-123.917315373937	-9.99920869495586	62.7255377437831	
1005300000	-0.773022011524735	-26.7848178502409	-60.1136150977254	-140.39513132415	-57.8940529891297	-122.899155006193	-9.99701903933748	62.6566532229746	
1005350000	-0.77016358857294	-26.9422393125543	-59.7003511098477	-126.380637945745	-60.2506811324246	-124.619577015042	-9.99440315689948	62.4966801455805	
1005400000	-0.77128280449974	-27.043764950785	-60.012170825401	-128.377796384618	-56.5190386560888	-118.615599953584	-9.9824218389302	62.3979041989163	
1005450000	-0.773908556380749	-27.2021857815276	-59.4955212055737	-127.162444585002	-61.2408611640043	-119.859583650902	-9.97959229350436	62.1715414784684	
1005500000	-0.774095608794258	-27.3509052997619	-59.6041562374804	-155.612644145707	-59.8727676224684	-113.345513383937	-9.9893156289303	62.1343352912678	
1005550000	-0.773489209506983	-27.4997958759287	-62.3168717433435	-127.912590281511	-59.3088753195955	-112.174517822484	-9.97159705142937	61.9965139348144	
1005600000	-0.773016155860767	-27.6111954063224	-62.5015248894457	-142.919283755757	-58.6877046306761	-127.63205963462	-9.98364898861291	61.8137365236551	
1005650000	-0.767510971014634	-27.7637778143795	-60.4905183667918	-131.812245494653	-59.8012581317968	-125.229274671126	-9.96592285226964	61.666735050259	
1005700000	-0.770903963452254	-27.8977036457302	-60.095759328169	-141.941684918201	-58.9168001191673	-128.260351744431	-9.9679630809667	61.6333457286263	
1005750000	-0.766869427033641	-28.0424033478673	-60.4025269040126	-133.277342020324	-59.1675703842204	-125.597143585969	-9.9628112835976	61.4937308391801	
1005800000	-0.771298745178389	-28.1654997118885	-61.8368848443353	-132.725895457893	-59.4316788693597	-127.711189478508	-9.96847377026905	61.316196988051	
1005850000	-0.768221326746139	-28.3210719215972	-61.2745239636671	-130.900238447313	-58.8297235346544	-127.805283922367	-9.97133677762393	61.2395830675818	
1005900000	-0.77067526211906	-28.4465000875868	-61.1733335795824	-133.395393569127	-57.2508737948306	-127.467912141751	-9.9592041773729	61.0437954793955	
1005950000	-0.771734435571288	-28.5690801416097	-61.9359002102782	-126.099929508867	-61.2277576355766	-120.541428539847	-9.94983702339091	60.8730782746961	
1006000000	-0.771612986959123	-28.7058340758258	-59.1397694103191	-126.716158579807	-56.5827254479636	-119.712992041067	-9.95109874587732	60.7951118558153	
1006050000	-0.769083123559776	-28.8379226703568	-59.4921390425228	-128.414852811365	-61.0626420782394	-122.408645117008	-9.95314113111881	60.6929878785097	
1006100000	-0.770995860069973	-28.9767421174384	-61.2168582850188	-133.03579260881	-59.6117106366579	-121.886718760957	-9.948846481922	60.4998148205824	
1006150000	-0.777058982192325	-29.1042951523943	-62.5408040860744	-120.921854545972	-58.6144167796697	-129.011651234565	-9.95057264836623	60.4447533240226	
1006200000	-0.769114464522947	-29.2570640284687	-60.9381020630708	-142.562910105728	-59.0311914506175	-126.406630066323	-9.93256538496005	60.332915220515	
