!Keysight Technologies N9923A: A.08.15
!Date: Friday, 16 February 2024 21:16:40
!Timezone: (GMT-05:00) Eastern Time (US & Canada)
!Model: N9923A
!Serial: MY52412730
!GPS Latitude: 
!GPS Longitude: 
!GPS TimeStamp: 0001-01-01 00:00:00Z
!GPS Seconds Since Last Read: 0
!CHECKSUM:1720261653
!Correction: S11(ON Q)S21(ON Q)S12(ON Q)S22(ON Q)
!S2P File: Measurements:S11,S21,S12,S22:
# Hz S DB R 50
1000000000	-8.45872475542612	80.7624704968369	-39.6640167609293	106.189133136503	-39.2986802135876	113.137714535791	-10.0076745523201	75.7215181271376	
1000050000	-8.47266396958042	80.7455683202335	-39.6638606961673	107.072698542918	-39.2368842169627	113.407349811371	-9.99952957361785	75.6135899650724	
1000100000	-8.47185972541946	80.5497583744675	-39.6653735730925	106.724322654598	-39.2055186744073	112.176337238234	-9.99829630082252	75.4908620418461	
1000150000	-8.48004638067289	80.4526900862638	-39.6698967723536	106.47798589137	-39.4469814563844	112.327127778165	-9.99660784083331	75.3219321474507	
1000200000	-8.4675350212748	80.3118914734406	-39.5314868283762	105.631618619515	-39.2434454749097	112.653687847067	-10.0001970212283	75.2146633363936	
1000250000	-8.47535025129211	80.1004750365403	-39.6581584629364	105.199038266068	-39.2491796301464	111.741852171448	-9.98908342297888	75.0472184129494	
1000300000	-8.46675533932184	80.0321271781503	-39.552503853746	103.882609320295	-39.1163300356361	111.801541075205	-9.99197130446866	74.9613411892097	
1000350000	-8.46084397523774	79.9252461428958	-39.7038827597903	105.935989617953	-39.2596239810166	110.857973528685	-9.98912112915345	74.7696176075815	
1000400000	-8.46499781951246	79.7001155330308	-39.6517191874923	104.509318813387	-39.147107397941	111.325260005461	-9.995649260338	74.6822885987297	
1000450000	-8.47155276285555	79.5470786972497	-39.7976096533627	105.259353054475	-39.261671827716	110.875290532808	-9.98693713649335	74.5162620507926	
1000500000	-8.46340927970954	79.453239134905	-39.7965685949709	106.688710831644	-39.3354147951507	111.920661860144	-9.99185191713101	74.3437541377331	
1000550000	-8.47590918076246	79.2710018538653	-39.5810306145581	105.287657065633	-39.1188775997507	111.838399471671	-9.98490225570835	74.2333778557642	
1000600000	-8.4588489631415	79.1442958998257	-39.498599583026	105.952281934512	-39.1969764018895	110.627311560961	-9.99039168660331	74.129396301571	
1000650000	-8.46498230657518	79.0450792606443	-39.6668415357063	106.450570054105	-39.2387474658385	111.404820084539	-9.98583227147651	73.9756094562487	
1000700000	-8.47092828459159	78.8837610810274	-39.6992838583278	105.592856657606	-39.2158155633737	110.713903827474	-9.99254623804771	73.8709511915925	
1000750000	-8.46424838203354	78.723493250297	-39.5456998560957	104.885625549931	-39.0588633444431	110.477880484302	-9.98781620765504	73.6893367888871	
1000800000	-8.47660374919864	78.6018738407902	-39.4364632217952	104.232480201532	-39.2241719637541	110.835677598513	-9.99502419554302	73.6030870254465	
1000850000	-8.46398999877747	78.4808454553266	-39.7792654029774	105.338981419412	-39.3055885909014	111.425911574298	-9.98489225719119	73.4293165842579	
1000900000	-8.46990877863249	78.4005265225688	-39.6479102817089	105.56014991512	-39.3161414574873	110.00701778103	-9.98547935563024	73.3032077118769	
1000950000	-8.48028415360947	78.2362018006237	-39.6170878979597	104.42964447777	-39.3271348672647	111.060888490713	-9.99358050596081	73.1626632702509	
1001000000	-8.46634244724859	78.0921448928937	-39.7037099483663	105.742977997933	-39.3944495597929	109.658362270568	-9.98610612836509	73.0138924870304	
1001050000	-8.48677571232986	77.8707766573141	-39.5823238183756	105.663672869007	-39.240027024312	109.613171213154	-9.97889362362324	72.8935026685707	
1001100000	-8.47733885005265	77.7795886481963	-39.4966261267264	103.699899774763	-39.0653679276948	109.964422322103	-9.97638525059141	72.7317544231306	
1001150000	-8.47322940034256	77.6204390326383	-39.6865631444232	105.176259735629	-39.2073770180706	110.383495103681	-9.98887671892202	72.5824533026771	
1001200000	-8.47389685316039	77.4986710600679	-39.6707512846045	104.169849525959	-39.1566441912417	108.88202592002	-9.97281626481019	72.4721974034549	
1001250000	-8.47573094298639	77.3357737476473	-39.4280705149404	104.629531315082	-39.177069072247	109.851017946515	-9.98311916171339	72.3233667370626	
1001300000	-8.47407262332865	77.2639550611089	-39.684794848566	104.922174134212	-39.0937559648665	111.01491262781	-9.97868485866356	72.2287312157855	
1001350000	-8.48328555311248	77.1403836417821	-39.5827038308137	104.313314479909	-39.2023188599768	109.737783055142	-9.98412776876569	72.0827062801819	
1001400000	-8.48221103899262	76.9262647393495	-39.5412443561496	104.512319834306	-39.0393198149035	108.500244944196	-9.98180949713546	71.9626962374378	
1001450000	-8.46820222528616	76.8329579400782	-39.5699787180151	104.188405015954	-39.1146746240684	109.684860613898	-9.98246939509021	71.803795488969	
1001500000	-8.47895446954468	76.6979014422005	-39.6332652246231	105.489126586608	-39.1156615370363	108.689280388875	-9.98150833113399	71.6363987677824	
1001550000	-8.48162213010568	76.5983741607223	-39.5790991348894	104.844996935705	-39.1679235640573	108.028602196447	-9.9812111592345	71.5500127725643	
1001600000	-8.47387341284165	76.4573350733273	-39.375481808379	103.539593842244	-39.135351951583	108.890080388656	-9.9797408988807	71.4030370910993	
1001650000	-8.47737301098359	76.2922988399719	-39.6013682670197	104.955602329573	-39.0800460922076	109.296174915133	-9.96972518962316	71.3165371771952	
1001700000	-8.47946665829285	76.1306400026446	-39.4862896206525	103.177638335149	-39.102531855026	108.810343713035	-9.97842590663835	71.1388511415365	
1001750000	-8.49159636870688	76.0607981732605	-39.4344544341233	104.512477240355	-39.1047943529556	108.912693918847	-9.97034774118067	71.0437993771833	
1001800000	-8.48528440039351	75.8250564688445	-39.4448900809405	104.210561617949	-39.0112596109474	108.07684589047	-9.97872893727547	70.8366589369372	
1001850000	-8.48418382270961	75.7258627553279	-39.4201325565266	103.407730191315	-39.0668878762653	107.221229702327	-9.98867383397869	70.6787343345727	
1001900000	-8.48767498829135	75.6330355753347	-39.5351725330976	104.420922431089	-39.0088360992035	108.071916189731	-9.98899980191476	70.6254978530181	
1001950000	-8.49112325420892	75.4634835979874	-39.3626850257558	103.369201655679	-38.9021508666115	107.043068270581	-9.97695930895594	70.5084755963264	
1002000000	-8.4917796761583	75.3520641493406	-39.2957553513823	103.367569285785	-38.8460762547969	108.187503609514	-9.98120810488333	70.3101483493703	
1002050000	-8.48640092606955	75.2097239302806	-39.4295719728808	103.90821696097	-39.0763756125613	107.216031875187	-9.96980304940416	70.2069984831215	
1002100000	-8.49207542445107	75.0481639483372	-39.231967076666	103.691380353596	-38.9814071593468	107.480271052644	-9.9770979072038	70.0500122980208	
1002150000	-8.49070457649912	74.9720635921104	-39.3011648143865	103.401152013243	-38.7638233673717	107.469556087541	-9.97939893390271	69.9838685255272	
1002200000	-8.49367501718414	74.8524866602559	-39.396352617401	103.30837166157	-38.7541249986916	107.614273312952	-9.98455144762181	69.8230494493924	
1002250000	-8.48388165153981	74.6840009951968	-39.1533518793759	104.680944844163	-38.9593295618475	105.909915841461	-9.97364011349862	69.6791836710986	
1002300000	-8.49461981048825	74.546010526961	-39.1911694859422	103.439036031734	-38.9154528476187	107.046022190811	-9.96814588493114	69.5709787737591	
1002350000	-8.49135972944969	74.366406441744	-39.1510339703291	103.51027901845	-38.9811629445127	105.691718993743	-9.97881867138793	69.430179068565	
1002400000	-8.49105691084661	74.2808659013423	-39.2927733800576	102.138886174222	-38.861974283374	105.632280597636	-9.97408825298437	69.3205559693491	
1002450000	-8.50171778118519	74.182001058429	-39.2425874370455	102.481402204352	-38.7854567770573	106.194333309273	-9.97435564780702	69.267249578833	
1002500000	-8.4930974711796	74.0721601749734	-39.1908803259908	102.815001532276	-38.7678587482547	105.440094558791	-9.97119652146631	69.0809315165019	
1002550000	-8.50058580370568	73.8605530604501	-39.0577462391624	102.047496860909	-38.8122615417689	105.063512054827	-9.96549529303385	68.9063968094624	
1002600000	-8.50693243874572	73.7407396640829	-39.0036139798596	102.817542479524	-38.5852320525066	105.740046965388	-9.96411223656365	68.7246333960312	
1002650000	-8.49785773080843	73.661017589783	-39.0373093606231	102.499531276941	-38.7449091596136	105.225040359422	-9.97511902028186	68.6543478748389	
1002700000	-8.504478274713	73.4841342522053	-39.0366971286477	100.808778334864	-38.6055565652055	105.439727899078	-9.9682246729711	68.5715802076996	
1002750000	-8.5015480891865	73.3576346426941	-38.9850657985759	100.909130558558	-38.6248420051012	104.761308558427	-9.96746534689665	68.4381622760501	
1002800000	-8.5105237330374	73.2241084355205	-38.9190619371123	101.450300458284	-38.7493237367964	104.53886222137	-9.96466441230011	68.2357398019407	
1002850000	-8.49601907079595	73.0985197277972	-38.965144228959	100.347253603704	-38.6560929473014	104.456786264941	-9.97145925177828	68.151222297217	
1002900000	-8.50837631838861	73.0465993867826	-38.797584181809	100.797505114579	-38.7058372789369	104.224785380612	-9.97719665327381	68.0227504583344	
1002950000	-8.49091930065404	72.8323494663588	-38.8959823642027	100.469065205982	-38.7051040740286	103.875588413805	-9.96232233957767	67.8889985558102	
1003000000	-8.50851091306376	72.7422048616416	-38.8760711699819	100.573007958145	-38.4953816505099	103.433369128681	-9.97172302958166	67.7720562040641	
1003050000	-8.51252707114633	72.5608831297665	-39.0004784023184	100.37216440464	-38.4562124883511	103.801147321438	-9.96868106945698	67.6058618793509	
1003100000	-8.4958085754199	72.4769797595874	-38.7704722543428	99.7186245426242	-38.5059649454725	102.818759589002	-9.96296268564121	67.4948021052373	
1003150000	-8.50445483740941	72.3243216360407	-38.8513465989605	100.947094756092	-38.5511002180914	103.028661968177	-9.95527876201396	67.3750943907286	
1003200000	-8.49885384289444	72.1950796242004	-38.934113166969	100.440790543755	-38.5689144916673	103.16047746327	-9.96192488987081	67.3130291390742	
1003250000	-8.50695336876448	72.0911406436859	-38.796098241805	98.4910814228451	-38.4523014195742	102.849232892867	-9.95184749221317	67.1727521207628	
1003300000	-8.50752271465458	72.0173137198374	-38.867203855989	98.4782855626187	-38.5486579029262	101.350596854428	-9.95094108955364	67.0071852415703	
1003350000	-8.50802873610989	71.7868966506511	-38.6916413914816	99.5309075257333	-38.4622118725204	102.671434198984	-9.95371294933649	66.9041935183052	
1003400000	-8.50988508345135	71.7140576048082	-38.7653653413927	98.7301822717721	-38.4603930741489	102.328588583471	-9.95734284215845	66.6993169093201	
1003450000	-8.51356270973258	71.5854743145326	-38.7599194070594	98.1058723713267	-38.5348094264058	102.237291712005	-9.94336797848475	66.6239961064559	
1003500000	-8.50781535094266	71.4425785277396	-38.6673260524414	98.9808991329237	-38.3134360747463	101.880430654105	-9.95121196783763	66.5190326164712	
1003550000	-8.49886870866909	71.3234888268556	-38.6634159894223	97.5952969279058	-38.4728472957799	100.924169750248	-9.95237020857668	66.4291848777859	
1003600000	-8.50418071956756	71.1723643826249	-38.626249018983	96.2654033443319	-38.4539524732455	101.419748685624	-9.94407269914367	66.2666884878355	
1003650000	-8.51203387996904	70.9993738149221	-38.6175349286637	96.8998642463243	-38.3421291285132	100.552379615187	-9.94527669356844	66.1376664977568	
1003700000	-8.50621530421723	70.9093551772466	-38.6428508482067	97.3504730403731	-38.4098738160643	99.213480031184	-9.94917099719844	66.0606918359005	
1003750000	-8.50304620318872	70.8005996432682	-38.4899852045331	96.713785315455	-38.5250330461161	100.654177715823	-9.93685163859151	65.8842280115487	
1003800000	-8.50188650157221	70.6407755466262	-38.3467907037056	95.5335032148847	-38.5563336425481	99.9077121725283	-9.92914902126591	65.798357932006	
1003850000	-8.50164393506485	70.5406850503414	-38.5299079785421	96.0742755213003	-38.395858788349	99.5444621355828	-9.94330835155903	65.6189282903937	
1003900000	-8.50627113093222	70.4132329522102	-38.5108136270459	95.8673009812693	-38.5120381649082	99.809980553482	-9.92981228944865	65.5302334039229	
1003950000	-8.51266050874498	70.2528866381668	-38.6065488331209	95.5332308558951	-38.3891161532844	99.3387400535851	-9.93410466553983	65.3833252224368	
1004000000	-8.49975716843477	70.1366341006155	-38.435597722847	95.3538806508279	-38.2758342575673	98.1712289433309	-9.92883382925633	65.2207892447155	
1004050000	-8.50207600361799	69.9985933208275	-38.4870699784404	95.2175384017393	-38.4753965057964	99.4686124140166	-9.92863171898666	65.1200474897594	
1004100000	-8.50615461038885	69.8557047345483	-38.5492116851131	94.484668009448	-38.5771026179516	97.6915759345074	-9.91282859609188	65.0083716653786	
1004150000	-8.50939648014107	69.763790755987	-38.4800773730404	95.4118914551109	-38.2659288407761	98.6906483881095	-9.92104117726484	64.8864078370938	
1004200000	-8.50911750064378	69.5480442203054	-38.3649824692299	94.1902171064587	-38.3679924320084	97.7228755152744	-9.92045185003929	64.7723723301113	
1004250000	-8.49989824400378	69.4585698837797	-38.3250527282754	94.3471730587487	-38.3870864212629	96.8199284699798	-9.92071613167113	64.5838958634623	
1004300000	-8.51148904229446	69.3343731812814	-38.3961804251639	93.1190731393523	-38.4013464369046	97.6256033456441	-9.90977282181436	64.5319507541274	
1004350000	-8.51003474404249	69.2333811543304	-38.3541916456052	93.2862818919881	-38.3665602468364	96.9601326746369	-9.90697486556115	64.3841210897701	
1004400000	-8.51156776105524	69.0635480335708	-38.3135693980114	93.7030135962405	-38.3763795621315	96.8668464311263	-9.90292824827219	64.2539825999515	
1004450000	-8.50810897265895	68.9435158130603	-38.4839419489843	92.5751086592807	-38.3353568313028	96.5002982610305	-9.90457044692365	64.1561691790756	
1004500000	-8.50543244235844	68.8229037997436	-38.2770583473406	92.6085806603696	-38.2148279158743	96.1384413861866	-9.91594337931486	63.9784235249203	
1004550000	-8.50040090501656	68.6800435568272	-38.3085486848526	92.7982771017001	-38.3359056973113	95.9899174228467	-9.89736045616637	63.8878286017693	
1004600000	-8.49852932967637	68.582772148985	-38.3636174826355	92.3875749633343	-38.3094869070686	96.2339531736529	-9.89487164181804	63.746274300595	
1004650000	-8.50528962160307	68.4280709569509	-38.2237861158969	90.8159070420533	-38.2893014160346	95.7407259385398	-9.89361656265023	63.5497370901238	
1004700000	-8.51371561758952	68.3085723783618	-38.2631902078135	91.2500885852853	-38.234713330841	95.4674085948439	-9.89361651055997	63.4794206525247	
1004750000	-8.51081297381851	68.1316288442722	-38.3502956871759	92.1825155005982	-38.3079176925917	95.2099119066753	-9.89037332261226	63.3109901077917	
1004800000	-8.50495114470212	68.015576096983	-38.2779452385911	90.2633871022016	-38.2207187888999	95.2118005155772	-9.89286778425097	63.2545207650148	
1004850000	-8.50227612184938	67.9257337361455	-38.1072705424967	92.0971617340811	-38.3316831366506	95.7850260949171	-9.8879188723295	63.1270193838677	
1004900000	-8.50083862499467	67.7616110487523	-38.3578905669785	90.7792214040881	-38.2363495339752	94.7686467600194	-9.8851255298535	62.978336153894	
1004950000	-8.49597834052371	67.6635851066547	-38.2930592758893	90.6199512272412	-38.3360997641794	94.6603640248139	-9.8797313266127	62.8498033628839	
1005000000	-8.4999523053975	67.4658702146811	-38.1259936148602	89.6154038175268	-38.1419099241518	94.7495275123518	-9.88190810517004	62.7087795326954	
1005050000	-8.50226142525061	67.3813674629161	-38.1010166299134	91.0135716598214	-38.3022166912681	94.8273761923744	-9.86865542775615	62.6196467047687	
1005100000	-8.5070104147467	67.2419479041542	-38.1910537942667	90.4216448564067	-38.1413023068895	94.1734723320303	-9.87459571711414	62.467112150973	
1005150000	-8.49943197757262	67.0856829877611	-38.3080333857795	90.1141148023504	-38.0114701219794	93.4154434956007	-9.86633957642821	62.2809109409241	
1005200000	-8.49969672723454	66.9438462170938	-38.2706122828646	88.9574646888586	-38.0356519283975	93.5084235622542	-9.86232770073492	62.2105704004087	
1005250000	-8.5066546245694	66.9229514051095	-38.3032323577755	90.225342743529	-38.1109089260793	93.5840324985756	-9.86647889551526	62.0403530967966	
1005300000	-8.50030984320082	66.7200782678331	-38.1959789435435	89.6381870941987	-38.2101728851882	95.1512450318437	-9.86539455444887	61.9869686328205	
1005350000	-8.49477233313063	66.6193110072638	-38.0886893328147	89.4254201537766	-38.1249771764678	94.1331657770777	-9.85648758258623	61.8108966084721	
1005400000	-8.50277453267383	66.4445991578868	-38.2559486780926	88.6970902508985	-38.0038421303754	92.4703443402143	-9.84962276346604	61.6619869237635	
1005450000	-8.49205207678128	66.3578808875386	-38.1363120215105	88.2031150258464	-38.224240009771	92.8923843227389	-9.84311268612324	61.5405082694646	
1005500000	-8.49990212504479	66.2060335094261	-38.0519851531056	88.1099314436026	-38.0583306238841	93.5701086856623	-9.86209769680824	61.4356905721543	
1005550000	-8.49922815023042	66.0858650616793	-37.9899923602157	89.1456098299846	-38.1655101183605	92.338854188639	-9.84081309112281	61.2436429920533	
1005600000	-8.50413723245995	65.9448688634186	-38.2203819370036	88.9521059488693	-38.0656087364777	92.5773738337486	-9.84529014802752	61.0805434341509	
1005650000	-8.50089593225807	65.7706785967308	-38.0479409462348	87.2216966462609	-38.1704734611049	92.0029744955138	-9.83663746116478	61.0137012713161	
1005700000	-8.49245947633431	65.6396021977315	-37.9793581746245	86.8556123605841	-37.920116186542	92.506895532291	-9.84065745990044	60.9082438093789	
1005750000	-8.50359414272375	65.4917398437331	-38.0869633594574	87.5630982848463	-38.0521099659425	91.9733983863915	-9.83513576824124	60.7658846192689	
1005800000	-8.49646956465236	65.3952012561593	-38.0940663248101	86.8693052117744	-37.9655840285316	91.4584634346007	-9.83487280984919	60.6237099321424	
1005850000	-8.50498061445843	65.251435738871	-37.9673147217061	86.3054092886235	-37.8794695266131	90.9971423508368	-9.82839325980294	60.525855550819	
1005900000	-8.50290320440007	65.0914063995682	-38.0782907412811	85.8180212317802	-37.8303147306293	90.6478102180979	-9.82398575798382	60.3597649796782	
1005950000	-8.49803832536556	64.9483477690879	-37.8423973563553	85.2785660286217	-37.9799284358494	91.5596940617909	-9.81671530879105	60.239403815661	
1006000000	-8.50127156778678	64.8095023967557	-37.893128868535	85.5744506580197	-37.8328896194168	91.8010746142154	-9.81622144633403	60.0667360126579	
1006050000	-8.50535479794284	64.7083308252585	-37.8097013536018	85.2797960600173	-37.7592688072794	91.1971289907608	-9.8226602441612	59.9474686476271	
1006100000	-8.50919924783212	64.6166566563085	-37.8741236500811	84.5708201070283	-37.8734030191389	90.9336915821588	-9.81319843152313	59.8023120940007	
1006150000	-8.506832645284	64.4640981752601	-37.8946179316547	84.3860040814163	-37.816346391383	89.6741209163981	-9.80960363732822	59.7240420856891	
1006200000	-8.50669781968406	64.2709106071387	-37.9496764769891	84.3834045075188	-37.8160525551282	89.7627901964415	-9.8023674890697	59.5818279925633	
1006250000	-8.50015522393416	64.2036332250691	-37.8733075677009	84.5636981936923	-37.7493777895925	89.4172374005329	-9.80282488967869	59.4228884146631	
1006300000	-8.50050618200772	64.0623978094449	-37.8199907703947	84.1196604680231	-37.7471421778727	88.937206936783	-9.79573537416418	59.268986334138	
1006350000	-8.50723257324678	63.8932010253621	-37.6253878480047	83.3418983659637	-37.6808467228338	89.4874124255297	-9.80092715042286	59.2165216771023	
