!Keysight Technologies N9923A: A.08.15
!Date: Friday, 16 February 2024 21:23:24
!Timezone: (GMT-05:00) Eastern Time (US & Canada)
!Model: N9923A
!Serial: MY52412730
!GPS Latitude: 
!GPS Longitude: 
!GPS TimeStamp: 0001-01-01 00:00:00Z
!GPS Seconds Since Last Read: 0
!CHECKSUM:0754641089
!Correction: S11(ON Q)S21(ON Q)S12(ON Q)S22(ON Q)
!S2P File: Measurements:S11,S21,S12,S22:
# Hz S DB R 50
1000000000	-7.17744970863113	70.9762965643114	-38.9423129162096	106.067053224942	-39.1237268596485	114.166824356037	-10.1415588529093	75.5993497791529	
1000050000	-7.18682422150284	70.8573716514638	-38.9893359662538	105.094068668944	-39.1677540895503	112.785462163876	-10.1337736143728	75.503599209689	
1000100000	-7.17863225855441	70.6899660814055	-39.0554771336117	105.947570285116	-39.1532164735441	112.395812153023	-10.1391513382857	75.3517981688419	
1000150000	-7.187334394638	70.5297850383991	-39.0475322050457	104.668951510572	-39.0693919711159	112.984345993292	-10.1338914193289	75.1888442998143	
1000200000	-7.17730328920506	70.4587222229676	-39.0454355918672	104.895285035017	-39.198453263408	112.786068312599	-10.1398076309776	75.0815344607861	
1000250000	-7.18228006511787	70.2376538658999	-38.8731914171316	105.658695667403	-38.9975654891257	112.492321205281	-10.1345820272513	74.9019774458808	
1000300000	-7.1793606822611	70.138118879548	-39.0292802184707	104.133525883616	-39.0276306309273	111.209401351418	-10.1310382191116	74.8255171899904	
1000350000	-7.17406461447877	70.0121558592936	-39.0941424532982	104.283356505883	-38.9907401924829	112.926785631841	-10.1359230330142	74.7187285874031	
1000400000	-7.18283308916506	69.8338126924947	-38.9946254152928	103.806512743399	-39.0861736967519	111.947326009646	-10.1334616520042	74.5434731019141	
1000450000	-7.1813077108454	69.65854191261	-38.8537221366977	103.83726781913	-39.0739082723519	111.10539201527	-10.1289159307892	74.4644531631185	
1000500000	-7.18012642872545	69.5474081682201	-38.976128800272	103.870228097485	-38.9480327051244	110.667853602866	-10.1305671490521	74.2470878338407	
1000550000	-7.18850068296841	69.3513549863619	-38.8236719078481	104.172552088388	-38.9693354161348	109.89905336277	-10.1298623041047	74.1119739203702	
1000600000	-7.17497455734859	69.2275128669424	-38.8598239580948	102.352136126536	-39.0523587654892	111.471274022813	-10.1187182665376	74.028790653724	
1000650000	-7.1794293406733	69.1161839141435	-38.7691878012872	102.859730154219	-38.9703142973053	111.049243428439	-10.1189395540602	73.8612125043657	
1000700000	-7.17960679017209	68.9871429358965	-38.9322774473901	102.225523515675	-38.916225412825	111.278137662166	-10.1283244209649	73.7479957901043	
1000750000	-7.1820341563537	68.837916782002	-38.9986087458575	103.146386004483	-38.9310946845082	110.014241756154	-10.122308263875	73.5413210890746	
1000800000	-7.18654510109138	68.6925895697438	-38.783880482796	102.211848048277	-38.9326410330796	110.7930167807	-10.1288959519408	73.4998992479954	
1000850000	-7.17859426999336	68.5903350986236	-38.7468419198596	102.044370271303	-38.5986626698511	110.239753481736	-10.1244483476479	73.3305845138637	
1000900000	-7.18777212163627	68.428848652188	-39.0357741944048	102.177321692697	-38.8361141218665	109.875829830104	-10.1309196445226	73.2014055513924	
1000950000	-7.18180259383346	68.2452968556254	-38.805434806144	101.564182866839	-38.9220412243182	108.331228255404	-10.1347527304376	73.0858913819614	
1001000000	-7.1848892079465	68.1691683623656	-38.859380144395	101.516384056999	-38.9833298832056	108.970882982533	-10.1324420558925	72.9710568465668	
1001050000	-7.19636651741269	67.9245705118258	-38.7101234965816	100.755389007372	-38.8592006704152	108.506822268681	-10.1242174919691	72.8117822031503	
1001100000	-7.1886385223066	67.8400593351703	-38.6705994002955	102.439075725766	-38.9741243367015	109.220329688313	-10.1172790799222	72.7002339151427	
1001150000	-7.18597127449531	67.6774132412307	-38.6664765889316	99.8141096215038	-38.8398422574006	107.322398424466	-10.1267990778251	72.5132736457561	
1001200000	-7.18814585625942	67.517503205133	-38.7416844038475	101.310739625951	-38.6190300743024	108.328539545747	-10.10740259558	72.3763416970169	
1001250000	-7.18539998194884	67.4027040356094	-38.6016608802258	99.9685214954013	-38.7764021661001	108.166624551606	-10.1267527592925	72.2534001454777	
1001300000	-7.18464261592387	67.2675529854554	-38.6894544930594	99.6930036001258	-38.7721904029367	108.247538124948	-10.1104573462	72.1532032409224	
1001350000	-7.19452508961385	67.1502355680208	-38.7003008556396	99.4540279036786	-38.8311456249716	106.772599188326	-10.1262048642793	72.0402730706307	
1001400000	-7.186398252146	67.0225780792805	-38.6322279174131	99.9281732783696	-38.7541921723868	106.665156996229	-10.1224328514872	71.9187049176112	
1001450000	-7.18985502281314	66.8438962923763	-38.7696163642122	98.066670322716	-38.7312407582917	106.140105845402	-10.1186277161035	71.7549530953831	
1001500000	-7.19082354333996	66.698527363107	-38.7817544047428	100.009577142277	-38.7238450051032	106.191543854602	-10.1234097667094	71.6196675123761	
1001550000	-7.1952566500302	66.5757252716728	-38.6929110099348	98.01022686297	-38.5125251795379	105.940343713363	-10.1137883914706	71.5205357659111	
1001600000	-7.18275878522856	66.4647702949881	-38.6416566420582	98.2168628013585	-38.6535698270433	106.576229968509	-10.1230932237909	71.423216847973	
1001650000	-7.19665959245299	66.2702039854638	-38.6859581305906	98.0592977057038	-38.6789145490367	105.749508529341	-10.108657500778	71.2599876826831	
1001700000	-7.19591541261311	66.1976298007259	-38.7467142422043	97.9149492460052	-38.6653224776707	105.144337918868	-10.1218536609677	71.1313005979925	
1001750000	-7.19573663372132	66.0323485097356	-38.8388474490359	97.7788484118335	-38.6775490813341	105.967824832515	-10.1175985923407	70.9429979625802	
1001800000	-7.19469070479219	65.8522623688846	-38.6283406967643	97.8088537504728	-38.681011012942	104.620489840394	-10.1214865708878	70.8201838301685	
1001850000	-7.19597954642306	65.7753700709038	-38.6693427424002	96.7770532836622	-38.6045209465982	103.069383524882	-10.1186697312356	70.7017456788494	
1001900000	-7.19407792464637	65.6124959765164	-38.6826800795629	97.016537868006	-38.5702356027665	103.958441814508	-10.1250540984484	70.6217807783878	
1001950000	-7.19805370595816	65.4772442131111	-38.5647875082423	96.5276686669356	-38.43534559393	104.312591031178	-10.1197282536789	70.4724498615101	
1002000000	-7.19608350260008	65.3696986729041	-38.5926346505511	97.0894853892597	-38.4463871558805	102.707703923049	-10.1252954247095	70.3617518583993	
1002050000	-7.19531387509801	65.2409133632171	-38.663360517719	95.9044881900914	-38.4124079533609	104.34666603678	-10.1084550465547	70.2093910696574	
1002100000	-7.20000467236961	65.123920136085	-38.4933165512588	96.3867281945782	-38.5031610972999	102.816402792222	-10.1239922702841	70.0806080986365	
1002150000	-7.19971516818356	64.9265485662035	-38.5479669501313	96.3150201401165	-38.4591224878197	102.813815100675	-10.1217741072463	70.0035892769249	
1002200000	-7.19909397946842	64.814807216571	-38.5398105557422	94.7886369322445	-38.4155686818627	103.634150838732	-10.1083141886571	69.8225517358045	
1002250000	-7.19403726714946	64.6983373892678	-38.5500003528815	95.3343962655759	-38.3830760524307	103.309851447746	-10.105283552584	69.68650532596	
1002300000	-7.19903316247914	64.5230948435428	-38.5860239440484	95.4143245516575	-38.4555792215032	102.828214445381	-10.108107133875	69.5558293397876	
1002350000	-7.19846814604865	64.386999027346	-38.564667444853	94.8472794042475	-38.3396378274171	101.652991107625	-10.1139666786798	69.4214944788114	
1002400000	-7.20215561794949	64.2885225549084	-38.5284011231263	94.9292506328953	-38.4737352127601	102.13827468549	-10.1158440757004	69.3391251174614	
1002450000	-7.20577630350759	64.1734794468537	-38.529848505735	95.1966824068111	-38.2607034542487	101.541423517749	-10.107393309648	69.2067104946193	
1002500000	-7.20212120351353	64.0785430269562	-38.3764143017099	95.173163063053	-38.4990776561789	100.855338693326	-10.1049966079804	69.082194130526	
1002550000	-7.20486614956591	63.847176560363	-38.5522203836252	93.5094818385079	-38.4938882919947	100.523979192295	-10.1125821857193	68.9323521324731	
1002600000	-7.20228421204958	63.7592106645245	-38.6207411243957	92.7790742071116	-38.4174126002851	100.85338493916	-10.104176279085	68.7422967567615	
1002650000	-7.20790306349973	63.6292023057066	-38.3573656432574	93.6912104149391	-38.5291281664462	100.206663034738	-10.1142638346673	68.68870099803	
1002700000	-7.20412902006463	63.4732747472818	-38.6206128149622	92.8433224992953	-38.4447614153569	98.8367600941163	-10.111543258209	68.5801707445654	
1002750000	-7.20368899013594	63.3603135075013	-38.55513182783	92.9801057134732	-38.3841918212485	98.738764123556	-10.1113002921221	68.4789486731016	
1002800000	-7.20670896457052	63.2123087573132	-38.4138417714531	91.7901930710064	-38.4664936440233	99.8775362155549	-10.1092642303795	68.3343340231871	
1002850000	-7.20075009496815	63.1220446791822	-38.3321916749114	92.2449868738988	-38.2648403528353	98.1110398500622	-10.100530841432	68.1423558196927	
1002900000	-7.21057041823788	62.9665040856798	-38.5460375946865	91.6302948867802	-38.182905889976	98.4420060296852	-10.1124168073433	68.0854615368709	
1002950000	-7.1888461338455	62.8442558046475	-38.4357368578995	91.4815561824327	-38.4492538139347	98.3057661462057	-10.0979015305726	68.0022782483935	
1003000000	-7.20814066657766	62.7034134155506	-38.6088231511289	90.6583677844233	-38.2021065747056	98.3978703285788	-10.1043006869808	67.8536707794417	
1003050000	-7.20762563513278	62.5725924594031	-38.4028141763549	91.8932030079154	-38.2471306639659	97.9019807059546	-10.1013159337299	67.6925860171525	
1003100000	-7.19832477999962	62.4306624475389	-38.4120025271438	92.0257719575187	-38.2223162183034	97.8696306132794	-10.0968993522419	67.5303748163106	
1003150000	-7.19639782644009	62.3283284291987	-38.4163444113916	90.9960972177459	-38.2916007136708	96.7109388689287	-10.0901372780795	67.4580916289481	
1003200000	-7.20053374210818	62.1500002061523	-38.4206159780675	89.7732095808312	-38.237294596351	97.3748597082893	-10.0977280016772	67.3654305473761	
1003250000	-7.2082991603578	62.0419177175768	-38.3493906849555	90.8657491038896	-38.1335806025112	96.906570804926	-10.085735396035	67.2084540005445	
1003300000	-7.20441803602188	61.9191443628	-38.2108701853176	89.1842238211624	-38.2029495656026	95.6636378037047	-10.0909032414492	67.0716786154663	
1003350000	-7.19803152784954	61.7590953454812	-38.3881445024227	89.4047897217974	-38.2183656757088	96.1535485025052	-10.0877553601126	66.983074985112	
1003400000	-7.1993825576477	61.63652908963	-38.4388446660491	89.3294482620069	-38.1381062765993	95.0288572584417	-10.0914378185827	66.7518527905961	
1003450000	-7.20266234084781	61.4506285036507	-38.3071101856173	88.2118828489629	-38.1729744470612	95.1901791681268	-10.0827386628625	66.7093758999708	
1003500000	-7.21235698657349	61.3313999088155	-38.2839552710102	88.8494695423432	-38.1428031024484	94.869142366202	-10.0920605828043	66.5375873103811	
1003550000	-7.19022711014885	61.1803959518243	-38.267130778568	88.4895316723628	-38.1602660509515	94.403365054142	-10.0838834007765	66.48743380868	
1003600000	-7.19075701288589	61.1014451075992	-38.4826248183336	87.4862495221199	-38.0722801414199	94.7060350553679	-10.0843856670562	66.3267296493405	
1003650000	-7.20860859105688	60.9614868445165	-38.2825085555692	88.8864008301043	-38.1434642552812	94.2176863966862	-10.0872208037364	66.1996058589571	
1003700000	-7.20288280548146	60.819109824048	-38.3850238301797	88.1381441442067	-38.0915012282555	93.8324113191678	-10.0857358692863	66.1226266531667	
1003750000	-7.19415714176693	60.6723395096895	-38.472036645686	88.2156879643265	-38.1617551696796	93.1238481003429	-10.0758158572534	65.9335565210346	
1003800000	-7.1988314421536	60.5664473752201	-38.3472655400586	86.9513309548263	-38.0736104223138	94.4420950950745	-10.0719457347965	65.8940804498146	
1003850000	-7.19605502499248	60.4256991060809	-38.2772695858229	87.1770774363565	-38.1461896931023	93.3068643612284	-10.0711154372962	65.7591509914685	
1003900000	-7.19970028724266	60.2672858150532	-38.226345249777	87.2562305353595	-38.1050744763712	92.6769480243029	-10.070669755395	65.5948959697366	
1003950000	-7.19491295058464	60.1366770663971	-38.3631767908069	87.0927516662204	-38.127341205676	92.7844608307351	-10.0676631690797	65.4782704125326	
1004000000	-7.19686752206725	60.0171642419592	-38.4893178570378	86.2801536639245	-38.1422034227113	92.4506321658546	-10.0734930926989	65.3093398941548	
1004050000	-7.18855698932023	59.8452701476666	-38.4212340608157	86.4926063156181	-38.068386510304	92.4101123013348	-10.0587101882862	65.2618047771022	
1004100000	-7.19640691934113	59.7306092467467	-38.2930290546626	86.1520644044317	-38.1397277083892	92.3675589853312	-10.0525536909533	65.1156048448559	
1004150000	-7.19827984974243	59.6336225625838	-38.2299632350635	87.2348736808168	-38.1295772965887	91.5868409130285	-10.0641606469821	64.9531325220948	
1004200000	-7.19532961343127	59.3782968513976	-38.2342808039702	86.4877975678483	-38.1021014576756	92.0115353648463	-10.0492225568163	64.8580625680075	
1004250000	-7.19103219260189	59.3098601877312	-38.2154033757077	86.0093384193919	-37.9932486153055	91.0522720205658	-10.0557734361456	64.7431925042758	
1004300000	-7.19806195797878	59.1488797818935	-38.3003882743295	85.306793932502	-38.0621387839369	91.1622454182803	-10.0427803318995	64.6010858629844	
1004350000	-7.19578207081794	59.0212616819126	-38.1597576775357	84.6751332111787	-38.0136963540511	90.7801403399677	-10.0409561929317	64.4574973430352	
1004400000	-7.19611291362019	58.903459379852	-38.456199461924	84.422419203711	-38.0330417255419	89.6634595093352	-10.0414786903421	64.362645819998	
1004450000	-7.19347142882286	58.8098409547476	-38.2976534902888	84.5190538000574	-38.1676388692239	90.723593613547	-10.0455018949444	64.2468985657136	
1004500000	-7.19669181868923	58.5957905490258	-38.1981485278824	83.3175538189513	-38.0243228442764	89.5757441561256	-10.0442665851541	64.0342522640105	
1004550000	-7.19925426520772	58.4847882720403	-38.1190725896947	84.6978153500182	-38.112912427699	89.3537829012748	-10.0321268977715	63.9542299948733	
1004600000	-7.19573660606842	58.3265410115485	-38.1320532511566	83.0570453252687	-37.983569569396	89.087238294959	-10.0283491425939	63.8805902064414	
1004650000	-7.19679632272429	58.1883290408227	-38.0988453706061	82.6081427568921	-38.0774434012841	90.3551897603583	-10.0290217834297	63.690723466453	
1004700000	-7.1987850111492	58.081162419888	-38.3153959185755	83.2921836838645	-38.0582921955504	88.5012662286127	-10.0286956356639	63.5621455761413	
1004750000	-7.19832620501676	57.89492829845	-38.2519390863632	82.3013262519676	-38.1055273779556	89.3089597408716	-10.0211068756623	63.4207147195667	
1004800000	-7.19475200072466	57.7754837207991	-38.1604098222659	83.2877786049642	-38.1280581637919	87.932348147932	-10.02243469909	63.3609662789134	
1004850000	-7.19496134080294	57.6666254185849	-38.1453495938517	83.0876761490488	-38.0366721108281	88.6683501742364	-10.0208098189608	63.2120996636436	
1004900000	-7.19271244954257	57.4771306120062	-38.203206020983	81.8502477157911	-38.045399549389	88.8677929170842	-10.0141342675688	63.0838577719305	
1004950000	-7.1976530506485	57.3980411010392	-38.193862752678	82.6010674421637	-38.0898741415484	88.0636345971745	-10.0077805022289	62.966337333468	
1005000000	-7.19705525340363	57.2206430984657	-38.2944047075935	80.832109245077	-38.0820527514221	86.7398713183994	-10.0106404455947	62.8631133197061	
1005050000	-7.19582846517934	57.0816525658604	-38.2898273477818	81.09498364889	-37.8840415729536	88.3661378876938	-9.99920343056334	62.7126120198206	
1005100000	-7.20790465605547	56.9607843244044	-38.3628320236819	81.7498860463477	-37.6995953345543	86.458799993959	-10.0057672967154	62.554680447922	
1005150000	-7.1955603492798	56.822118031824	-38.5116559069804	80.2762486394187	-37.8859852616269	88.383941282273	-9.99944549330137	62.4290625324573	
1005200000	-7.19924726278682	56.6859298951696	-38.2888055050947	80.5506243516668	-37.8456601723592	86.7940450198291	-9.99381314260692	62.3316496444153	
1005250000	-7.20641502550402	56.5623170617994	-38.3556539904855	81.2772761138141	-37.878432364507	86.4070796112563	-10.0021141690511	62.21951969274	
1005300000	-7.20157645578876	56.4371497648796	-38.2269311924189	79.591767063031	-37.8400644312354	87.0659514489261	-9.99945061472745	62.0642013109302	
1005350000	-7.19281976969904	56.3043843878264	-38.3637877759504	78.466096322946	-37.9084481972125	85.6212589040766	-9.99564197199639	61.9273160263977	
1005400000	-7.20066078247884	56.1658347301568	-38.1664933332247	79.9518084529563	-38.0004765643938	85.2682439689868	-9.98210256686472	61.8151304963396	
1005450000	-7.19480027977084	56.0423632906064	-38.2402921600481	80.2213927968449	-37.796082866712	85.6143506229208	-9.97784009246754	61.6006581497367	
1005500000	-7.19636022204138	55.9051164193803	-38.3245236594618	79.5312716675586	-37.8788721636575	85.2307833172737	-9.98986139384406	61.4991694704409	
1005550000	-7.19568760190588	55.7170644314795	-38.2069378041351	80.2045148719423	-37.8877829332974	84.7523984054263	-9.97175118563418	61.401682296597	
1005600000	-7.20514911035725	55.6118627112992	-38.2498510721351	77.4435317151017	-37.7623550396124	84.8638001094491	-9.98271966087043	61.2102076153795	
1005650000	-7.20239704552459	55.468135126687	-38.1137642403277	79.1834028777812	-37.8461073776541	84.3772809521194	-9.96823614481213	61.0974919938499	
1005700000	-7.19940092772149	55.2811914096108	-38.2147665339301	77.3201369765839	-37.7865935707356	85.0920957163129	-9.9614948160161	61.0334502552432	
1005750000	-7.20847023912159	55.1724133032069	-38.2554636881878	78.0611530208811	-37.5937665712967	85.0141897513896	-9.96474310061784	60.8982266906777	
1005800000	-7.20510709733964	55.0729994398864	-38.0270489371347	78.162669168313	-37.7377825545104	85.0650564011119	-9.96402244409419	60.7294379301463	
1005850000	-7.21109326310809	54.9347772196774	-38.1022514304875	77.5537788400531	-37.8027252200981	84.1127497993917	-9.96354389680002	60.6816634007129	
1005900000	-7.20055782555702	54.735544529431	-38.0980202936247	76.8330220382979	-37.7849678839439	81.9349445746689	-9.95813545245169	60.4777686817831	
1005950000	-7.20793310130894	54.6656925637807	-38.1486678928107	77.0523365794816	-37.7294090284111	82.5209046527952	-9.94470583252112	60.332036986437	
1006000000	-7.20993792483248	54.5199315575045	-38.065017659274	76.4301398761861	-37.695243633519	82.8070506712174	-9.94797024578856	60.1896589692399	
1006050000	-7.20831429328426	54.368838490456	-38.0490804508904	76.7116171455245	-37.5166237977225	81.5440515148692	-9.94600611893014	60.0762233271992	
1006100000	-7.21153828074662	54.2703644048257	-38.0014783558448	77.1485523602351	-37.7087999978379	82.0174218333484	-9.93847446565202	59.9610778066824	
1006150000	-7.20448272741706	54.1191133768927	-37.9646058218704	74.9949108083411	-37.5319119870924	82.0839068995495	-9.94120829503369	59.8169310758554	
1006200000	-7.20678402009441	53.9420493211239	-38.0699907937383	75.6801809088636	-37.6604819549119	81.7938204794699	-9.92374788507129	59.7445208506529	
1006250000	-7.20614450582131	53.8304755926065	-37.9589508271068	74.3656286718395	-37.5656326265651	80.8813401850853	-9.93417515255646	59.5631226202022	
1006300000	-7.20243179632046	53.7007079027107	-37.9659476630894	74.1708653942117	-37.6388617641349	80.8560486286976	-9.92560394588946	59.4650048311946	
1006350000	-7.20031670742174	53.5593193056926	-37.918994601754	75.9467621807182	-37.6462592126506	80.1305259859335	-9.92585401309994	59.3053346065779	
