!Keysight Technologies N9923A: A.08.15
!Date: Friday, 16 February 2024 21:24:55
!Timezone: (GMT-05:00) Eastern Time (US & Canada)
!Model: N9923A
!Serial: MY52412730
!GPS Latitude: 
!GPS Longitude: 
!GPS TimeStamp: 0001-01-01 00:00:00Z
!GPS Seconds Since Last Read: 0
!CHECKSUM:2046088005
!Correction: S11(ON Q)S21(ON Q)S12(ON Q)S22(ON Q)
!S2P File: Measurements:S11,S21,S12,S22:
# Hz S DB R 50
1000000000	-6.96915143812542	62.9963588299205	-42.3286758084983	88.675208770984	-41.5193997219675	83.3159164703403	-10.1360027022577	76.0981323452441	
1000050000	-6.97748213243849	62.9379412683222	-41.9518789464814	89.05737664358	-41.5842189006146	84.3767398366611	-10.131594072785	75.987603332864	
1000100000	-6.9784046801926	62.7435717831531	-42.3482711283199	87.4427048835136	-41.7405422502578	83.4860789035026	-10.1310470437496	75.9132664815972	
1000150000	-6.97657674933097	62.572229853062	-42.0796548629078	86.5737204286705	-41.531741593931	83.4819543532255	-10.1288140330302	75.6783597775178	
1000200000	-6.97443762125432	62.479600610065	-42.1670369061327	85.3514008902453	-41.4521688702282	83.0820336037882	-10.1341139575569	75.584611886234	
1000250000	-6.97738596815134	62.2891050891844	-42.0772149437905	86.6100626239981	-41.3322371624736	83.4182928004152	-10.1249136368465	75.3770762463537	
1000300000	-6.9773899729112	62.2066031546316	-42.2339286341989	86.703749561091	-41.3773464170879	82.361625211699	-10.1239052380392	75.3177119658254	
1000350000	-6.97490778825761	62.0328559485166	-42.2361963387449	87.7824270153025	-41.6270755134366	82.7459128788656	-10.1241386492529	75.1973516681348	
1000400000	-6.97422716325205	61.9014248276825	-41.9902710860139	84.9325123589605	-41.3045346527204	81.5693304081275	-10.1350614808759	75.0862182505299	
1000450000	-6.98091718713441	61.728463229367	-42.1940386602914	85.410561696111	-41.3232877815494	83.0783407226999	-10.1123435280864	74.907339753766	
1000500000	-6.97707036672504	61.6152072628876	-42.1795736310451	86.2875896795233	-41.2524658108298	81.459224338031	-10.1283929206106	74.7996939767596	
1000550000	-6.98695733411269	61.4464233138523	-42.3095184256986	86.4660860400798	-41.5779719312292	81.6971961349803	-10.1238529698516	74.7014462904635	
1000600000	-6.97833901653693	61.332241696405	-42.1648452972646	86.3054132162846	-41.3503203559407	81.2856435022679	-10.1166092615951	74.508101164321	
1000650000	-6.97624344949783	61.1899985627264	-42.274624315737	86.2508265301502	-41.2491049476639	81.3992329850792	-10.1132751336179	74.417131304145	
1000700000	-6.9765915516069	61.031348157604	-42.0288392314443	85.0517269437684	-41.4360904076422	81.6213962636184	-10.1280894018598	74.2953366280974	
1000750000	-6.97917631800846	60.9092158007364	-42.0279642412336	84.6716473164727	-41.3332791804491	80.6603914992589	-10.1149596774314	74.1371028030493	
1000800000	-6.98902443131584	60.7492016364492	-41.8595843996833	85.1547826592989	-41.2242754336285	80.9136927659055	-10.1201046044027	74.0595767387605	
1000850000	-6.98054785344863	60.6150985136637	-42.045934263269	83.4154190552202	-41.2362821183531	80.432939608131	-10.1148536761586	73.8732172216975	
1000900000	-6.98570852425968	60.4941114540629	-42.1828608598872	85.4597881313387	-41.2673019879837	79.875920800886	-10.1203619408195	73.7811136868837	
1000950000	-6.98775672664833	60.3354221725581	-42.1390041552874	82.9737871430961	-40.9543926857605	79.8236750740073	-10.1148827437016	73.5856070226372	
1001000000	-6.98531802250172	60.2054357798954	-42.0607913582072	82.9317323093287	-41.1102043144653	79.2545179227172	-10.1161575535029	73.5046576363707	
1001050000	-6.99604321086392	60.0544713578866	-41.9485852489764	83.0166805963837	-41.1470081067094	79.9509846286626	-10.1131451977023	73.3407185707629	
1001100000	-6.99654429886157	59.9536001627179	-42.0086100290851	83.3874527924676	-40.8662444863029	80.3341372500542	-10.1005047890511	73.2088841431793	
1001150000	-6.99231424320009	59.7582307189285	-42.1092230495212	82.010086427009	-41.3320622086319	79.2009401093528	-10.1146688144901	73.0297397786331	
1001200000	-6.99035893393606	59.6506688977717	-41.9797634105129	82.2209945525643	-41.2160041456483	79.6892808538541	-10.1040764259474	72.9236273247788	
1001250000	-6.987265857812	59.4806696017915	-42.1274164544655	81.842369319515	-41.1406605731125	78.2221065917462	-10.1136312166124	72.7661723321807	
1001300000	-6.99364693748432	59.3575354738023	-41.9370377748231	79.791604064195	-40.8717257499341	77.9086335922974	-10.1048513640682	72.7043074329133	
1001350000	-6.99799863775025	59.2162642748712	-41.9418718531563	81.566404266102	-40.9163395221395	77.437310019417	-10.1114652190698	72.5924369303351	
1001400000	-6.99300400106713	59.0703743560531	-41.9293127136428	80.4554105471613	-41.0273594177949	79.2495796618673	-10.1148326383046	72.4519246236905	
1001450000	-6.98707166177269	58.9203515409582	-41.7044284159757	79.9251183528394	-40.9303965751942	78.0719032366153	-10.1017141498389	72.2623140142616	
1001500000	-6.99180068813322	58.7915183081832	-41.93308537689	80.2787576234829	-40.8337105437454	77.7147300632585	-10.0986751817188	72.1462614682175	
1001550000	-7.00020518219624	58.6379941940739	-41.8995999734106	82.2324495069705	-40.8466762975075	78.2996730193845	-10.1025867759435	72.0687096793063	
1001600000	-6.99155124326436	58.5250280191288	-41.8571570757816	80.908441722262	-40.8862240136805	78.0109894371981	-10.1044870996384	71.9677731598548	
1001650000	-6.99494202142663	58.3660037195989	-41.8679523403457	80.3923655730223	-40.8395064201413	77.9746171541096	-10.0949188345993	71.8108855611781	
1001700000	-6.99651885807069	58.2416380882784	-41.6787276512554	78.128933834953	-40.8687893988882	78.1229075381136	-10.1045127453301	71.6577344765652	
1001750000	-7.0019704290743	58.1018153207749	-41.830960395318	79.015911045173	-40.7956360334013	76.2118694728646	-10.0944335633291	71.5126783935018	
1001800000	-6.99846997386473	57.9314754492831	-41.9937262991191	79.3291428446022	-40.802004506298	75.8247385072439	-10.0994871843607	71.3789074358815	
1001850000	-6.99454945143045	57.8069380547707	-42.0460483392278	80.7131106133008	-40.7527984187668	76.665458122754	-10.1088642350419	71.1694363133651	
1001900000	-7.00112546303353	57.6741648532982	-41.8773126875413	80.7441172990131	-40.9208831626785	76.0594318640441	-10.1163646411629	71.1254407294306	
1001950000	-7.00198942448295	57.5305759664351	-41.8063591229943	76.4724062354028	-40.7304323263262	75.9623738054115	-10.0952179327639	70.9598707606629	
1002000000	-7.00377518330407	57.3881867180726	-41.6918760028903	78.0936876905384	-40.8264313119589	76.8301445747058	-10.1013394435399	70.8244025127644	
1002050000	-7.00093879520261	57.2852916286644	-41.594906540463	78.0182158711536	-40.7137146759347	76.8806959334343	-10.0852110006304	70.6977629983475	
1002100000	-6.99862382957717	57.1316080465802	-41.862007642819	78.0480710276701	-40.7327732866045	76.6977948227003	-10.0986184306591	70.5640906632098	
1002150000	-6.99945459523097	56.9969904909818	-41.8167449242022	77.3032539005268	-40.7518148092103	75.7477098855831	-10.1025938253951	70.5045610392932	
1002200000	-7.00079956208531	56.8571603776721	-41.6610660019322	77.7946138661176	-40.5182907631557	75.4595509533646	-10.1017320424902	70.3838888586608	
1002250000	-6.99487361728041	56.71589784512	-41.8387001194788	76.218191357498	-40.7434387066174	76.4528978064793	-10.0840351619763	70.2136464082562	
1002300000	-7.0061482340005	56.5515778501478	-41.9790780260591	76.2031373817584	-40.5432877476883	73.108904289488	-10.0925115964868	70.0959489256926	
1002350000	-7.00682321487694	56.3936084422246	-41.5975699342901	75.5464968358333	-40.4816379645549	72.9601367091377	-10.1013514064823	69.8956784958618	
1002400000	-7.00722747826252	56.2844832843278	-41.5872864100255	76.2066020031146	-40.7159748187089	74.1666832466537	-10.0909214385354	69.8519495738118	
1002450000	-7.00613788297194	56.1884372838718	-41.581784640725	76.7798332121422	-40.5993593404434	74.4737429107727	-10.0865630438003	69.6515365082076	
1002500000	-7.00068099950525	56.0917582685073	-41.6281827789015	76.6726733524991	-40.5466101704152	74.0073664011571	-10.0917127547518	69.5558204474345	
1002550000	-7.00597500470567	55.8664065256391	-41.6978285705266	74.6800332253738	-40.5762465761354	74.1295148791677	-10.0849561005161	69.4403463726819	
1002600000	-7.01125669385336	55.7511298140134	-41.6150873625391	75.7068471487006	-40.4759659033207	72.5125276644697	-10.0873474085114	69.223093710782	
1002650000	-7.00624915024929	55.590657484454	-41.550973717967	76.3248259902734	-40.5523732476323	72.7547123107127	-10.092148051478	69.1947221307792	
1002700000	-7.01085650318449	55.4659922563249	-41.5584167791288	74.4894640742642	-40.4913531509672	71.8726789763644	-10.0890234828776	69.0869665798116	
1002750000	-7.01427146533424	55.3140715135834	-41.5782087515333	73.9619349726495	-40.4151153701545	71.8922900080814	-10.086281135926	68.9680280402516	
1002800000	-7.00897862385274	55.1925960071078	-41.4742610760969	74.1925229099787	-40.1879788079425	71.5538303594607	-10.0774310781946	68.8118750357988	
1002850000	-7.00377233692729	55.0386976957793	-41.475050466169	75.8039090117294	-40.380730358829	72.1798578019204	-10.0845687947408	68.7105814965046	
1002900000	-7.01606641987791	54.9054552048177	-41.7198032713183	74.6435683989274	-40.1273035294271	72.3494845750794	-10.0856088252723	68.5367445045138	
1002950000	-6.99931144544264	54.7791651820097	-41.5213616618931	73.0837051087045	-40.3990699824068	71.8246067593053	-10.0675252329144	68.4437009179274	
1003000000	-7.01412455984508	54.6171308209586	-41.7108905613347	74.2447567187132	-40.3615468152696	71.0683207912533	-10.0852996318494	68.3247771651397	
1003050000	-7.0176637110688	54.50565389273	-41.581112593884	74.1242398602221	-40.102425828522	71.6421137074976	-10.0789988539901	68.1943040758226	
1003100000	-7.00990690311256	54.3300861395203	-41.3811335116237	72.4597493555699	-40.205348062647	70.5005954185966	-10.0721085026197	68.0800259240623	
1003150000	-7.01348480514913	54.1916649348825	-41.3635045923922	72.4317020608765	-40.1999980538192	70.9940167115194	-10.0637206899066	67.9093404845211	
1003200000	-7.00618673199253	54.0413519745819	-41.3671739767916	72.1338629414272	-40.2057089304693	70.7801458297228	-10.0725378135008	67.7716502623798	
1003250000	-7.01546797776871	53.9116228347444	-41.4622646720093	72.2221448494552	-40.2042304741299	70.6340589792646	-10.0722674435012	67.7107815297087	
1003300000	-7.01613226697979	53.8217501980457	-41.1700242776945	73.5058391183413	-40.0521186961121	69.5116129614516	-10.0637034305492	67.5642118021086	
1003350000	-7.01084479312124	53.6378193927985	-41.7393265088395	72.9249958650322	-40.2802546454928	68.5642877925085	-10.0681411270418	67.4078990973578	
1003400000	-7.01282970569272	53.4885546652954	-41.4849047749803	71.4098023158132	-40.1850645347235	68.5019534048019	-10.0709888100139	67.21693687939	
1003450000	-7.01910495329074	53.3448960977021	-41.1511772776364	71.5549034499435	-40.0713409755445	68.9379464538509	-10.0572278479369	67.1337266864673	
1003500000	-7.02339327271595	53.1761686027214	-41.6575276349557	71.9346606947613	-40.071572608325	68.6329913417603	-10.0686426784277	67.0217625411219	
1003550000	-7.00788590059677	53.06432714049	-41.3980350970722	71.3796273914326	-40.1624228058292	67.8972543543002	-10.0637634872748	66.948713306859	
1003600000	-7.01069726465168	52.9421367492835	-41.3461917799965	72.0569034628895	-40.0421801813148	67.1369405853648	-10.0598653683976	66.8451800766165	
1003650000	-7.02077316660724	52.7643588266208	-41.4804457410832	71.2086791148542	-39.9165619375937	67.2326637590015	-10.0650579119549	66.6550715710773	
1003700000	-7.01796152887017	52.616840951328	-41.3032765078911	71.6803977142265	-40.0868618729221	67.733008725645	-10.0592354298769	66.6155858275447	
1003750000	-7.02022340004798	52.4702172108206	-41.4463579337262	71.262748230018	-39.9957096081268	67.6525833344105	-10.0503770726295	66.4605856617294	
1003800000	-7.02029750384552	52.3331800189039	-41.3899503451115	69.1905901869282	-40.0809345637737	67.5392377879459	-10.0469541641761	66.332449974442	
1003850000	-7.01703190872909	52.1994029689967	-41.1540886257241	68.7683495204749	-39.9477140038131	66.6689436353871	-10.0520671740768	66.1738865639221	
1003900000	-7.01590079691058	52.0204603415747	-41.4646380374826	70.4850694391667	-39.9660229514715	65.9268806103562	-10.0479009450997	66.0393909744951	
1003950000	-7.01965191641655	51.9032676056807	-41.0676540381219	70.0467688299768	-39.9432201057879	66.9292621791535	-10.0441403164807	65.965833671335	
1004000000	-7.01629153719126	51.7908757333517	-41.2835532875385	69.8401597667725	-39.7962541404307	64.8840539580696	-10.0466255491601	65.8139351293426	
1004050000	-7.01886188239716	51.6512756457327	-41.0759098280708	69.8580559531522	-40.0636402558137	64.9145157852611	-10.0400416978165	65.714077194852	
1004100000	-7.02239424984884	51.4826287049662	-40.9022705997136	71.1821359825593	-39.9311996227204	64.3107831712692	-10.0300500432884	65.5418686158789	
1004150000	-7.03260335646082	51.3505987338837	-41.2299208274869	68.3217496500494	-39.9483790307087	65.5974588875308	-10.0398174761262	65.444343238328	
1004200000	-7.0230056051249	51.131823673078	-41.3519025778488	69.4105494496345	-39.9397880844612	64.791351296146	-10.0199006836769	65.3207361737868	
1004250000	-7.02171144469483	51.0270391852964	-41.0713318967251	68.4319062320995	-39.8416719635904	64.4903671754401	-10.0362469921043	65.2381395955759	
1004300000	-7.02750194837491	50.9186820700282	-41.1586181015784	68.2277418046825	-39.6908181172708	64.570245408986	-10.0217960084923	65.0676319548046	
1004350000	-7.02953576238133	50.7110939359363	-41.065532460776	67.9732122926071	-39.869671302345	63.9038593146842	-10.0166585021192	64.9171000279711	
1004400000	-7.0303907842368	50.6132496163567	-41.3290554011117	66.969582617089	-39.7262955827715	61.8757744487364	-10.0199643278363	64.8170210205553	
1004450000	-7.03150114438961	50.4816802042388	-41.114328818936	68.1877753559816	-39.7245995430407	63.2835992709425	-10.0254948711275	64.753070521201	
1004500000	-7.03123735238103	50.3559320618497	-41.0200829860108	68.3704881747793	-39.8309580259098	62.0507034250677	-10.0211824979981	64.5302751135843	
1004550000	-7.03147795105734	50.1628755939474	-41.1328097481009	68.1959179294216	-39.895412770731	63.144272034454	-10.011145467736	64.4265481338725	
1004600000	-7.04017977683052	50.0354226582079	-41.1256281067264	66.1254934281124	-39.6990946011653	62.5421563970857	-10.0035513378636	64.3388731338263	
1004650000	-7.03167696842726	49.8751628609702	-41.1398664141394	65.295738653121	-39.8179494307098	62.112977786685	-10.0006451051954	64.1502474160853	
1004700000	-7.03886759772434	49.7518577369059	-41.0708075153565	66.3014640445427	-39.632850912399	61.5663099907201	-10.0099305269929	64.0635894278262	
1004750000	-7.0418427138616	49.5939573314012	-40.9579583845645	66.5954935737495	-39.685965452557	62.6236177931337	-10.0060603618285	63.9451777788544	
1004800000	-7.04007206467032	49.4535392954309	-41.1203178286812	66.4106661971638	-39.5735734124007	61.9735399522558	-10.0021536868774	63.7650613678928	
1004850000	-7.04001473531419	49.3741996133223	-40.9175477906895	66.9337954530894	-39.7896979230657	61.3131234435819	-9.99445217014548	63.6826939678678	
1004900000	-7.03892130718414	49.1435776750391	-41.1229276093104	65.6962679563875	-39.5630394123182	60.6929202711241	-9.99371862343559	63.521901564969	
1004950000	-7.0421224116851	49.0502960672307	-40.9500237476487	66.4041272358335	-39.7964498445604	61.3111975078591	-9.9875157188338	63.4276906860275	
1005000000	-7.0446280616104	48.8863579819563	-41.0489889703113	65.1970183208396	-39.8092092151046	60.8410722831286	-9.99008915004717	63.3090245467535	
1005050000	-7.04600360001081	48.7669415901252	-40.8376306496302	62.8214744820638	-39.6856747306753	61.2931973621389	-9.97668191366944	63.2022113679076	
1005100000	-7.05580032342138	48.624657508054	-40.7952258315145	65.7508212505304	-39.6014412777763	60.4110590053808	-9.9849365273507	63.0187174208604	
1005150000	-7.04808251662792	48.4965930090674	-41.1110432764631	64.2307414178561	-39.6490746381444	60.0908888585482	-9.97899616242921	62.8203157250631	
1005200000	-7.05024451270237	48.3212400965268	-40.8086674323749	64.8636736469646	-39.6967934788979	59.5330334257936	-9.97257786878656	62.7685403853259	
1005250000	-7.06217656755895	48.1870581940353	-40.8953002387511	63.3914962778721	-39.6563846406178	59.7647677100198	-9.98916462145149	62.6965330499589	
1005300000	-7.05971030969736	48.0477238745672	-41.0328331212699	65.296360438198	-39.6019545010293	58.841830054282	-9.97765260700382	62.5468648005365	
1005350000	-7.05284641608213	47.9395859019635	-40.7058570018564	63.6021498343563	-39.5863576527701	58.0264908327061	-9.97074705721701	62.3873892661852	
1005400000	-7.05995585834986	47.7939418508481	-40.8326443538026	65.2940752732837	-39.7161455467038	58.2617625236839	-9.96040694063689	62.2764772818587	
1005450000	-7.05817359389749	47.6325808086481	-41.022866026838	64.6756152652715	-39.5459219315684	59.273303680844	-9.95112666763644	62.0910699647515	
1005500000	-7.06012739403547	47.5450772533972	-40.615442719547	63.3771208406724	-39.7439659676722	57.6245805178632	-9.96783199903958	61.9722651432949	
1005550000	-7.0640106518544	47.3867984768841	-40.6931801743829	63.341961873759	-39.4179769859114	58.452760011218	-9.95289696983473	61.8606822499462	
1005600000	-7.07079248151938	47.234549592544	-40.7042789565946	65.1171297273832	-39.601889992093	57.7075523093033	-9.95914121477627	61.7131370879815	
1005650000	-7.06847983996656	47.0604305315933	-40.7298725116364	62.6441821644172	-39.5565575465704	57.594707635559	-9.95525263442623	61.5919847299858	
1005700000	-7.05912065808592	46.9317045624629	-40.4984947564167	62.9808279797346	-39.6062133860299	57.8137825153345	-9.94734745194919	61.4956459405069	
1005750000	-7.07005999837153	46.7703372474995	-40.7615711031316	63.3948035228962	-39.5343072710044	58.0248573297576	-9.94639535174088	61.3840228364715	
1005800000	-7.06970069799112	46.6811104245488	-40.5827803042697	63.8479938192608	-39.2538047144966	57.3924147062573	-9.9453877510461	61.2278514199278	
1005850000	-7.07628513151931	46.5031254698114	-40.5377825156307	60.4066582690357	-39.5875011698923	57.1482062486151	-9.94518203727453	61.1863400503774	
1005900000	-7.07411184440762	46.3492838720932	-40.6489543044481	62.0331952398448	-39.3256190717996	57.7896946962293	-9.9432665581877	60.9874468788068	
1005950000	-7.07561914458688	46.2586471758549	-40.7014127625768	61.6768313404234	-39.161821752118	56.8687188864887	-9.92974211820982	60.7966941377912	
1006000000	-7.07939320862746	46.092339513075	-40.5221066937753	61.5723304285188	-39.2966553822999	55.6868781473774	-9.93699824032669	60.6858480363303	
1006050000	-7.08148409590392	45.9323731012402	-40.4830038218062	61.6389260195697	-39.2904409312711	55.2718509830421	-9.92481549276093	60.5698982965475	
1006100000	-7.08186019002286	45.837276448639	-40.4482230097546	61.4334232425236	-39.3381985437317	55.9378290071259	-9.9275935953168	60.4313212179579	
1006150000	-7.08488129428531	45.7291519535877	-40.3935983894785	61.2600376177896	-39.1722343709987	54.63898512134	-9.92713000618475	60.3162028515538	
1006200000	-7.08761457470064	45.5756625703202	-40.4650554853652	61.610160755201	-39.1692610878124	56.1507316069436	-9.9106633878981	60.2119490648834	
1006250000	-7.08202807068154	45.4271495164261	-40.4020944657358	59.8171690748317	-39.0854207330695	55.6963216878712	-9.9142148998713	60.0910082918238	
1006300000	-7.09042595913902	45.2885384682572	-40.1992818190484	60.7523351225279	-39.2507222712512	55.2106590351712	-9.90976824412783	59.9582860733479	
1006350000	-7.08744162009979	45.1109102785172	-40.2824795199503	60.3181201056075	-39.147242512887	54.6623783091016	-9.90648173769607	59.8019913426942	
