!Keysight Technologies N9923A: A.08.15
!Date: Friday, 16 February 2024 21:04:35
!Timezone: (GMT-05:00) Eastern Time (US & Canada)
!Model: N9923A
!Serial: MY52412730
!GPS Latitude: 
!GPS Longitude: 
!GPS TimeStamp: 0001-01-01 00:00:00Z
!GPS Seconds Since Last Read: 0
!CHECKSUM:1267421862
!Correction: S11(ON Q)S21(ON Q)S12(ON Q)S22(ON Q)
!S2P File: Measurements:S11,S21,S12,S22:
# Hz S DB R 50
1000000000	-6.73762761341416	67.1356906646823	-39.0366885549874	171.331075570765	-38.2003633465307	173.378291703467	-10.6428146408252	73.903730538442	
1000050000	-6.7452239599694	67.0433419080838	-38.9101715675641	171.765300084681	-38.2260376903154	173.290565353213	-10.6317703661588	73.7725537612835	
1000100000	-6.74952607343805	66.8653216940077	-38.944454710232	172.15245816933	-38.2457866911688	172.678745574232	-10.6304694261464	73.619937689714	
1000150000	-6.75127494236015	66.6851496153676	-38.9200620758063	171.966317775905	-38.1164626402502	172.450754031512	-10.6414974899215	73.455598397664	
1000200000	-6.74228523210149	66.5570001701462	-38.9058935612522	171.462327417328	-38.3469288860699	171.625021345044	-10.6419812965314	73.4309229780453	
1000250000	-6.74800687334786	66.3884398770636	-39.062722917414	170.165615736367	-38.1909944242681	172.149683771537	-10.6291312049762	73.1869678012146	
1000300000	-6.7444430920947	66.2483959110498	-38.8145984423285	171.440148926448	-38.2127701157892	171.831025100966	-10.6360335549757	73.1071528781032	
1000350000	-6.74429451359295	66.1144704428122	-38.9701496839126	170.783629962026	-38.3695580580115	171.844609793677	-10.6337492797598	72.9959624144893	
1000400000	-6.74337025028994	65.9410323252237	-38.9064364002614	171.610040642812	-38.3268694592027	171.18737051061	-10.6425468767521	72.836134066101	
1000450000	-6.75355900693872	65.7580924732115	-39.0175803926534	169.651311015094	-38.2822118412401	171.660257064559	-10.6315817604471	72.7487488002303	
1000500000	-6.74714656046256	65.6633460199724	-38.8635016987692	169.874222854139	-38.4776083071077	170.293793349078	-10.6339768079683	72.5220438224882	
1000550000	-6.75837853892811	65.4973856897382	-39.0774537242765	170.111876412343	-38.3415273274309	171.427216650288	-10.6311447469417	72.4536292348234	
1000600000	-6.74834456727601	65.350937148739	-38.9680620220477	171.049361151348	-38.3657683375746	170.62821931181	-10.6257075489998	72.2813623943289	
1000650000	-6.74915639318183	65.2305135864664	-39.1426307246664	170.392178398996	-38.0324280634849	171.003419077316	-10.6175904104408	72.1332835517279	
1000700000	-6.74991589145464	65.0773011045901	-38.8675512568141	170.240224584603	-38.372009130045	170.595961829669	-10.6315964218395	72.0153813506419	
1000750000	-6.7535868049812	64.8991290565667	-38.9810203235182	170.272873396853	-38.3615439163996	169.69700960826	-10.6298715240497	71.8831488766526	
1000800000	-6.75543379663267	64.7927092143901	-38.8040629411615	169.165683189017	-38.3689698290721	170.696206680758	-10.6310706099176	71.7694773410093	
1000850000	-6.75320916828592	64.6396283860647	-38.8135663064513	170.693237444639	-38.066195519753	169.802870856903	-10.6204236780803	71.6002167370067	
1000900000	-6.75943826481692	64.4876879692681	-38.9213703891088	169.593798163951	-38.1756575993623	170.005453801103	-10.6346982102969	71.4935144563455	
1000950000	-6.76058394731195	64.3603001842367	-38.8697156354157	169.977689603562	-38.1366006186768	169.71521618465	-10.6342042851956	71.3287197450037	
1001000000	-6.75888528665738	64.1774773978583	-38.8546719909814	168.907104949245	-38.1633505973148	169.558993765768	-10.6323879524417	71.2432357343273	
1001050000	-6.76693210430695	63.9965141547648	-38.852874035745	168.990994301557	-38.1344188146112	168.204651184642	-10.6244466172723	71.1164773678995	
1001100000	-6.77127685673194	63.9080654787323	-38.7173646619722	169.804897190537	-38.2423697993894	167.837588851083	-10.6164132956772	70.966122663093	
1001150000	-6.76067144827433	63.7461444345083	-38.7461562219482	168.996284885765	-37.9968634568047	168.775369177929	-10.6191191700186	70.7978594786393	
1001200000	-6.7663362404591	63.5758911260919	-38.9184015836053	169.128555603111	-38.1521360846881	169.040217378705	-10.6141363782376	70.7115269105409	
1001250000	-6.75505430915492	63.394144643153	-38.7028251445827	168.603228359398	-38.1241404232735	167.579718522321	-10.6247098002391	70.5437236049852	
1001300000	-6.76134929817506	63.2875768897659	-38.9296102935576	168.921196126425	-38.0250686921516	168.145854874174	-10.6224342238393	70.4471769048292	
1001350000	-6.77436249712091	63.1445094278889	-38.7232889616478	167.413103892529	-38.1348628907739	168.031462839735	-10.626334924002	70.3242333809985	
1001400000	-6.76617781425405	63.0100978636727	-38.6157503586302	168.917619621724	-38.0019309903068	167.577649920296	-10.627694414308	70.2154668057944	
1001450000	-6.76272320389808	62.9013172502846	-38.9496540478687	167.875694029528	-37.9267542797247	167.43105344342	-10.6252891179093	70.0423574691038	
1001500000	-6.76879518657855	62.7347719560098	-38.7105561267712	167.947493098486	-38.0645042875383	166.819572469682	-10.6156970100342	69.8949573441808	
1001550000	-6.77507210140514	62.5964154568738	-38.6524759302211	168.30295242709	-37.9990747550565	166.235698388527	-10.6167347139825	69.8707364521308	
1001600000	-6.7640372218151	62.4756621635816	-38.6168368544964	167.646259846903	-37.988442928173	166.02452737971	-10.6224175300938	69.6989828502498	
1001650000	-6.77024598733128	62.2523448211821	-38.4740490298181	166.809903631311	-37.975171121904	165.394884731457	-10.6170467957474	69.5869927953137	
1001700000	-6.77872084503047	62.1477912006927	-38.6350400399678	166.956354648669	-38.0230712129348	166.190339341066	-10.618461098884	69.4249642451969	
1001750000	-6.77912370885889	62.0127836895585	-38.5886570281613	165.756387380905	-38.0590085220638	166.485561368824	-10.607476022638	69.3184811389415	
1001800000	-6.77580197949444	61.8420394086951	-38.6678820934362	166.634396786573	-37.9014855106943	165.611719986244	-10.613879825684	69.1520997191267	
1001850000	-6.77043022715649	61.713317322775	-38.5852959524369	166.464511241464	-37.9373911741183	164.149420123585	-10.6178301467037	68.9337954971233	
1001900000	-6.77962431611423	61.5910484966132	-38.6458946803727	165.621648054031	-37.9845720838465	164.524020445955	-10.623108097871	68.8869663414023	
1001950000	-6.78292877877144	61.4115208844916	-38.5310895338305	166.631120942663	-37.9575830567156	164.678588515649	-10.6167097774178	68.8200879037552	
1002000000	-6.78025161110177	61.2989790382862	-38.5233460064483	164.981977261816	-37.877066369652	164.197091148508	-10.6172165873627	68.6152532725287	
1002050000	-6.77981229512569	61.1410350899983	-38.4249840904642	165.497016220838	-37.7903776138258	164.569370044602	-10.6032828797697	68.4804427336646	
1002100000	-6.78327058933963	61.0088545512452	-38.6167632898664	163.937940216371	-37.8700837631433	162.998801016799	-10.6134583167045	68.3579109021237	
1002150000	-6.78622576854791	60.8268307865349	-38.4177911679646	163.010810603957	-37.8762144629794	162.799242792935	-10.6161537059672	68.2586701901765	
1002200000	-6.78921844906096	60.7081934325503	-38.4826020896381	163.769053704473	-37.8913529003811	162.961440050276	-10.6068718598959	68.0961841715975	
1002250000	-6.78072304513598	60.5580852199668	-38.4391202473008	162.508661906524	-37.8299011312282	162.797575893494	-10.6039644432253	68.0206961312475	
1002300000	-6.78577324343768	60.3926447035207	-38.4081563317619	162.610554041606	-37.8570846834916	163.208652862523	-10.6017758900746	67.8499080274189	
1002350000	-6.78856969223763	60.2632575940315	-38.4990293417629	163.788795673915	-37.786720414213	162.446620028331	-10.609644901403	67.6905601849981	
1002400000	-6.78720110608316	60.1171473173121	-38.486363331488	161.722504040308	-37.8650422179406	161.724326234718	-10.6031300627188	67.6264387238199	
1002450000	-6.79580984671674	60.0144731883837	-38.346285065395	162.851038855289	-37.9005259364352	161.659358746825	-10.606683002026	67.4504039316325	
1002500000	-6.78728092977933	59.8988503546531	-38.393220447334	162.269848829295	-37.7481759374313	161.737419392428	-10.6055912566519	67.3388518735034	
1002550000	-6.79410289870172	59.6581883067789	-38.5239621491706	161.460676456098	-37.8433457598464	161.272889510053	-10.599282245836	67.2016661749519	
1002600000	-6.79714054345586	59.5515753977328	-38.5033996441494	161.650943343866	-37.9344635850406	159.511007123184	-10.5922310769849	67.0101332022875	
1002650000	-6.78811754595618	59.4054223737911	-38.3630156970794	161.583013336778	-37.8597784941782	160.454680676955	-10.5993612654435	66.9405990816847	
1002700000	-6.79418362736065	59.2728634418137	-38.3586336035411	160.330815031222	-37.869176242021	159.068884961751	-10.6025916474478	66.825406290601	
1002750000	-6.80055003009671	59.1098264494926	-38.4373844255112	159.692101869879	-37.7891096179173	159.103304864648	-10.6039590017721	66.7813719909351	
1002800000	-6.80061535245316	58.9806805844805	-38.3240401927104	159.665299683285	-37.7500082613564	158.247490602467	-10.5973035325328	66.5891962251783	
1002850000	-6.79266868657274	58.8459475183754	-38.4544635338275	159.634834171985	-37.8501909580181	158.675788348873	-10.6024631183122	66.4613061226966	
1002900000	-6.80111398255135	58.6978158370988	-38.295371218333	159.356761102195	-37.8992036211331	157.62460033288	-10.6014647665777	66.2759951089039	
1002950000	-6.78684233808322	58.5987940462769	-38.3834031912887	158.918311277625	-37.8661372791141	157.945119528783	-10.5896226869676	66.1585169405884	
1003000000	-6.80582653918267	58.4409363661885	-38.4637102740437	159.215444706626	-37.8015295656072	158.253169337679	-10.6031361196417	66.0074422602794	
1003050000	-6.80966668546824	58.2811082308116	-38.4634873847519	158.948618708146	-37.8528977741507	157.843250459066	-10.5968555911002	65.9296645931581	
1003100000	-6.79675045029655	58.1360443208647	-38.38960560403	158.609438493413	-37.8665118506026	156.89778553234	-10.5903734244069	65.782729541171	
1003150000	-6.79649267992742	57.9779941775498	-38.3354809309815	157.765278766711	-37.8893759361656	156.835977534918	-10.5890924277947	65.6196135052203	
1003200000	-6.79458960334157	57.854598751548	-38.3764646913539	155.866922809647	-37.8038067950319	156.20682496912	-10.5926875192413	65.5534285251345	
1003250000	-6.81085939296667	57.6850767315689	-38.4833189148701	157.324699075818	-37.9319425715642	156.152499678595	-10.5938046293691	65.4135966045011	
1003300000	-6.80984223431454	57.5905592154231	-38.4762594025093	157.179451381179	-37.9262726168819	155.027063263843	-10.5876872462562	65.2721978392634	
1003350000	-6.80241974443112	57.3792623377703	-38.5634599065909	157.002245245774	-37.9662174344885	155.66304169732	-10.5885926552752	65.1434275534149	
1003400000	-6.80671277804405	57.2527784494176	-38.4341534187499	155.616415218782	-37.8208580689686	154.894314154598	-10.5958804606704	64.9488194201472	
1003450000	-6.81075625414395	57.1348864540695	-38.393864576464	156.127755235957	-38.0486985162626	155.603303185538	-10.5852389306868	64.9170514754224	
1003500000	-6.81740136188494	56.9780695037524	-38.6808047138618	155.783949038564	-38.0039826148579	155.507912402017	-10.59243976645	64.8057051797656	
1003550000	-6.8053582270428	56.8286702419383	-38.4987583143265	155.310364552214	-37.967177247211	154.961082620804	-10.5887607519636	64.6787191589518	
1003600000	-6.81043313079047	56.6829989775903	-38.6595127377789	156.403635632983	-38.1221943184965	154.259728966764	-10.5866349525285	64.4956372662331	
1003650000	-6.81453534038278	56.5319070718301	-38.5290906985002	155.593847075907	-37.8761590276957	153.956453058664	-10.5893674827744	64.4101906284194	
1003700000	-6.81527565705765	56.3959985073164	-38.6369814550769	155.496067861277	-38.1589993301054	154.171578312702	-10.5932469787717	64.2514968158811	
1003750000	-6.81116361839089	56.2518225119463	-38.4224222084372	153.542672439923	-37.9222423618777	152.864030318519	-10.5839698658734	64.2214138168439	
1003800000	-6.81600284745905	56.136975627091	-38.5549577618256	154.692913504949	-38.0646668645533	153.267066895222	-10.5802264079154	64.0258163175404	
1003850000	-6.81544784994262	55.9845739882272	-38.724598411389	154.319466483417	-38.1135776979877	153.27296475867	-10.5883851737775	63.8988095034931	
1003900000	-6.81660697564911	55.8182031226386	-38.4335002965293	153.515202209249	-38.0565570613254	152.416199807657	-10.5866066811522	63.7529889713471	
1003950000	-6.82245201495831	55.6997137655753	-38.6861051903612	154.220170808622	-38.2938240220256	151.43721084261	-10.5737670615801	63.6657952902032	
1004000000	-6.82008405995753	55.5572704640711	-38.5632307816242	154.46347907587	-38.0565272287293	151.585168641415	-10.5830641562423	63.5017891200021	
1004050000	-6.81725278887619	55.3754613166255	-38.6832219655664	152.61694065437	-38.2064998506311	151.691165957788	-10.5780573808346	63.4122845690901	
1004100000	-6.82014375677435	55.2470254950825	-38.5360942912099	153.7701495228	-38.1316478604135	152.366927797141	-10.5684367044389	63.316744814883	
1004150000	-6.82419872819063	55.1449617914602	-38.5812300591839	154.148486125816	-38.1103947295962	151.353481858449	-10.5779700672328	63.1630951113097	
1004200000	-6.83211377688978	54.937985583032	-38.641518635492	152.98497461962	-38.1555918773879	150.767036676135	-10.5691846199847	63.010988323909	
1004250000	-6.82787170908164	54.8298708458421	-38.7494967619003	153.255033140296	-37.9674112576555	149.794618702412	-10.5842978442762	62.8964427056008	
1004300000	-6.82876286439705	54.6823377339066	-38.7861117695602	152.161955241837	-38.3462127716089	150.607941957546	-10.5646829166718	62.7744819193771	
1004350000	-6.83082433520665	54.5470264487175	-38.6049649751491	152.024298079726	-38.2242242262507	150.160854993489	-10.5622604431335	62.6933907266216	
1004400000	-6.83060857805917	54.4146607257611	-38.5458768494662	152.817287082575	-38.2448909708868	149.000085750443	-10.5665918369359	62.5900248855013	
1004450000	-6.83057278618952	54.2850533548884	-38.5434226906876	152.316924350269	-38.2096553599704	149.836201095678	-10.5756927602872	62.5018563189939	
1004500000	-6.83100946333466	54.1390897906046	-38.7369450554814	152.805795362466	-38.2767366150988	149.218888119016	-10.5681425997299	62.2966338116879	
1004550000	-6.83471285295024	53.9945447884935	-38.6013324073822	151.83941738749	-38.2794810977058	150.561911175586	-10.5713813366323	62.2028377858833	
1004600000	-6.84091557420627	53.8533025487537	-38.7074357412816	151.780342509018	-38.2508828807629	149.452668684705	-10.558146151287	62.0788240015146	
1004650000	-6.83763700883779	53.6723949941507	-38.5520349908893	152.183147321283	-38.4118983927751	148.728615526584	-10.5535374014008	61.8665779822883	
1004700000	-6.84352100104149	53.5803023932797	-38.647155766727	151.214805967133	-38.1905505875586	149.337419052003	-10.5610232148823	61.8582585599028	
1004750000	-6.84822406670955	53.3817658371696	-38.6510587714093	151.007058370782	-38.3120637902673	148.646607295367	-10.5542360355667	61.724655400649	
1004800000	-6.83864720172906	53.2650145112779	-38.7493976885499	150.863417708788	-38.3580309497995	148.35682144943	-10.5566896302203	61.5680712840138	
1004850000	-6.84265092289331	53.1297877096095	-38.6895010359351	151.598387016397	-38.2607163989067	148.558677585206	-10.5583679747876	61.4599650533947	
1004900000	-6.84124873095794	52.9583406307971	-38.7585310493316	149.926548189661	-38.1767641955571	148.267118971661	-10.5561478167025	61.3409297194273	
1004950000	-6.84280283244112	52.8524600629953	-38.8233028743941	149.767944192475	-38.157527634957	147.47488449616	-10.551409242991	61.2257557769396	
1005000000	-6.84280173221664	52.7116106230062	-38.7302089058237	150.561679840426	-38.3232305686423	148.040483415655	-10.5510211088511	61.1081365424839	
1005050000	-6.84842307685825	52.5496923027223	-38.8149608775252	149.876778866121	-38.4824419345215	147.383548457506	-10.5348269861248	60.9722850999407	
1005100000	-6.85548684779638	52.4286464615612	-38.6833935101263	148.5094299682	-38.3402203952141	147.836237208648	-10.5515116428518	60.8465421692257	
1005150000	-6.84904284873292	52.3207646611955	-38.7971003926431	149.2785013	-38.2622013253839	146.971852621355	-10.5443128783357	60.6892382042571	
1005200000	-6.85714307524439	52.1184580724855	-38.8504105184727	150.568938406776	-38.4821942870638	146.902846706969	-10.5440533299233	60.6033741995282	
1005250000	-6.86140278099101	52.0314497824813	-38.5984091299702	149.370082242646	-38.2654819990113	145.393220424931	-10.5510042092847	60.4938930194866	
1005300000	-6.85704403602124	51.9244163520852	-38.5128907596136	148.233525363488	-38.4234163613868	146.443686743306	-10.5509374762876	60.4008006397984	
1005350000	-6.85417299122767	51.7696870565878	-38.927406867182	148.406546284106	-38.3617215799021	146.628563067317	-10.536361879961	60.2537890466824	
1005400000	-6.85932365125917	51.6365496808571	-38.8643088776604	149.290562348913	-38.2960214359131	146.441158784832	-10.5343602710766	60.1544732406218	
1005450000	-6.86338228354845	51.5098835510032	-38.6485703696348	148.361871879312	-38.3033416790003	145.900919226551	-10.5325309107718	60.0105175014415	
1005500000	-6.85887772758218	51.3591786966686	-38.7176188833225	148.673901468527	-38.5150871481335	145.813085224959	-10.5389845901233	59.8938477541288	
1005550000	-6.86516816351204	51.2063935458584	-38.8202452919046	149.121281315335	-38.2852903615066	145.436154165505	-10.5280892399987	59.7383273233229	
1005600000	-6.86647517761255	51.0637668121646	-38.6266666186096	146.762159340964	-38.4026212139512	144.875834855524	-10.5392431432584	59.5582152757936	
1005650000	-6.86901963426149	50.897095063541	-38.7140259046421	148.728157993517	-38.4801923898977	144.935480195697	-10.5248010040015	59.4429223032361	
1005700000	-6.86272756166498	50.7700109933619	-38.7521652128185	149.440491355168	-38.2828972865019	144.793286822685	-10.5223112160084	59.432312719269	
1005750000	-6.86762819116322	50.6005789169194	-38.6177949124105	146.790348489052	-38.400613576639	146.102190099725	-10.5291538889333	59.2646064128228	
1005800000	-6.86927415682621	50.5138752881773	-38.7533161834267	147.530869548275	-38.4856250185999	145.037125853686	-10.5238311990906	59.1177441399202	
1005850000	-6.87288677694537	50.3585761105376	-38.7390541806597	145.795376350831	-38.3788397840263	144.40051685246	-10.5208088282646	59.0450823077831	
1005900000	-6.87204493351076	50.1934243184678	-38.5969530543985	145.650148891791	-38.2920720130872	144.39349747138	-10.5133135863153	58.870132246436	
1005950000	-6.87407208829468	50.0905746155365	-38.7361403385238	145.362464088888	-38.4631326836997	144.330504036626	-10.5069965094905	58.6824718912414	
1006000000	-6.87434881884383	49.9818018543859	-38.6516037915601	146.261252879751	-38.4922400007229	144.828644563545	-10.5122136309873	58.623271539952	
1006050000	-6.87990942319597	49.8213500189559	-38.8167515597063	145.960257049445	-38.3881287662102	143.678870213679	-10.5043613323096	58.5065848360744	
1006100000	-6.88136076336483	49.7389334679191	-38.7656209330256	145.539268802935	-38.4183646319881	142.863118713659	-10.5064230063957	58.3554489831662	
1006150000	-6.88109523826491	49.5693917098044	-38.5096513244886	146.283227825797	-38.3721427811309	143.514865336141	-10.5039075541305	58.2562912338379	
1006200000	-6.8814465087068	49.3823339669791	-38.6374800638518	144.373186483693	-38.4739063435574	143.590440114333	-10.4914721380639	58.1588123965652	
1006250000	-6.8845021088342	49.2591951883207	-38.7243147708164	145.048440772378	-38.4422202677248	142.057217756251	-10.5016753205528	57.996573130374	
1006300000	-6.88358451246996	49.131764744363	-38.5289439697198	144.276130823913	-38.3989054803474	142.336180961381	-10.4868523813705	57.9236721514042	
1006350000	-6.88283568089867	48.9591664420524	-38.6276254682267	145.31047160937	-38.2188231610376	142.05043733682	-10.4891712552303	57.8113871085037	
