!Keysight Technologies N9923A: A.08.15
!Date: Wednesday, 14 February 2024 17:42:54
!Timezone: (GMT-05:00) Eastern Time (US & Canada)
!Model: N9923A
!Serial: MY52412730
!GPS Latitude: 
!GPS Longitude: 
!GPS TimeStamp: 0001-01-01 00:00:00Z
!GPS Seconds Since Last Read: 0
!CHECKSUM:0897519314
!Correction: S11(ON Q)S21(ON Q)S12(ON Q)S22(ON Q)
!S2P File: Measurements:S11,S21,S12,S22:
# Hz S DB R 50
1000000000	-9.34812869159801	-150.666513433517	-57.4692088925126	-137.720954553376	-57.2281292090067	-134.21462147364	-0.773029586483978	-14.3187409567093	
1000500000	-9.33449650566128	-151.952780148278	-57.6538540746175	-139.879122143398	-57.4928329912308	-136.790145454689	-0.779660434265858	-15.6903530861725	
1001000000	-9.31762306497946	-153.237947350644	-57.5464496885542	-141.925334546107	-57.610992138385	-139.382025271428	-0.784060576712253	-17.0500843961242	
1001500000	-9.30540593073893	-154.511825562847	-57.5178554036784	-141.819778163663	-57.5664718902539	-139.807024902188	-0.788314490980576	-18.415892361981	
1002000000	-9.28935642104869	-155.787134294113	-57.6848934442065	-144.621113721423	-57.4053072839404	-142.429717026059	-0.793305977707593	-19.7810307399666	
1002500000	-9.27527938332416	-157.064602228599	-57.6699808376286	-145.017557608763	-57.6314981334331	-143.999490219665	-0.798657728280879	-21.1483545808247	
1003000000	-9.26024454311151	-158.337932656412	-57.6673252341633	-148.261012090751	-57.4651604351128	-145.838241201247	-0.801755608060176	-22.5109759959409	
1003500000	-9.24707308793346	-159.621881488314	-57.4795598144631	-149.809703231537	-57.5508037923159	-146.590577612833	-0.806243508430231	-23.874985956605	
1004000000	-9.2325121843515	-160.899192949408	-57.746757637232	-152.786693059331	-57.5113574342282	-148.499295627127	-0.811966774050004	-25.2344038543379	
1004500000	-9.2192258572348	-162.186399908788	-57.493332070505	-153.504548914595	-57.4865871203801	-151.075611108533	-0.814909754575907	-26.5988052503647	
1005000000	-9.20438411820101	-163.457759726478	-57.383882516214	-154.890725353345	-57.8520901271015	-153.196614031715	-0.819625960002389	-27.9609360207734	
1005500000	-9.18691082513023	-164.751630297456	-57.5459614171823	-157.508579578267	-57.6477157431748	-154.003363999153	-0.823042829036902	-29.3335348242951	
1006000000	-9.17527360732454	-166.016677689994	-57.5542713256491	-160.279707219683	-57.9963396978626	-156.358068018836	-0.827393902652408	-30.6932581825386	
1006500000	-9.15795905095699	-167.295461244709	-57.7525091332169	-161.15136482705	-57.6743288325066	-158.447788843335	-0.831817441598164	-32.062202878032	
1007000000	-9.14536056871232	-168.575514258958	-57.6220221599383	-161.799716349467	-57.9726734859202	-159.589685002707	-0.835076949424041	-33.4271474811617	
1007500000	-9.13033299635871	-169.84867315602	-57.837565619702	-165.559704575514	-57.8815629492381	-161.975294228402	-0.838746344996376	-34.7968736151252	
1008000000	-9.11746219509254	-171.129502687272	-57.6430797040764	-165.131779380959	-57.770769644275	-163.206907722734	-0.842728458926751	-36.1601460490703	
1008500000	-9.1033328548076	-172.399704074007	-57.7178508364616	-169.89819794797	-57.768814013574	-164.699921461913	-0.847115628387493	-37.5265594595801	
1009000000	-9.09021248922043	-173.675656988673	-57.7529107261142	-169.095029784387	-57.9612020900785	-166.537120234688	-0.85099469311126	-38.8925058983238	
1009500000	-9.0762946425528	-174.955456182538	-57.5648698853567	-171.736488698149	-57.786277447298	-169.769689748022	-0.855067955764301	-40.2537978169873	
1010000000	-9.0611213719313	-176.226998460899	-57.735269506392	-171.733829154057	-57.772746911311	-169.292209359587	-0.859461628575369	-41.6266955993063	
1010500000	-9.04598314695771	-177.49925010755	-57.6800222624016	-177.248628687061	-57.7382644627719	-173.482725612466	-0.861434313460295	-42.9950421316915	
1011000000	-9.03372707798442	-178.79049609888	-57.9226951021796	-175.786834194441	-58.1091460423014	-172.595601783346	-0.865007858210737	-44.3650214526833	
1011500000	-9.01944567057339	179.945188788613	-57.8274271904191	-177.77504053439	-57.997646664684	-175.956284520577	-0.868607725659398	-45.7319190978937	
1012000000	-9.00592924672586	178.672153580275	-57.8749841239882	-179.941817933277	-58.0790957645121	-178.023318987371	-0.873212062550405	-47.1045608470448	
1012500000	-8.99329562142411	177.387886831052	-57.6851142382041	179.199986380844	-57.9041522277076	-177.365345137825	-0.875276175515494	-48.4777655299193	
1013000000	-8.97650275376301	176.114929377821	-57.9762099455968	177.046207289121	-57.9220032464375	179.38569500367	-0.878653387071638	-49.8359770849839	
1013500000	-8.96312692890595	174.85076908443	-57.7856449645211	175.629740494303	-57.9668523499895	178.333046096324	-0.882947648288163	-51.2027516849877	
1014000000	-8.94871332793751	173.575141430419	-58.1360147351096	174.253485080093	-58.1810428647157	177.162557394607	-0.885338953477853	-52.5742743036291	
1014500000	-8.93486569881537	172.305552574867	-57.7579021814901	171.614200771864	-58.1137114919974	174.960894977144	-0.888412619830651	-53.9401829623913	
1015000000	-8.92311582031695	171.022192364463	-57.6357037768209	169.213092017823	-58.2170951091698	172.944439793729	-0.891576266587729	-55.310466960654	
1015500000	-8.90637445564045	169.75163292216	-57.843568053479	168.125707593847	-58.1577631142167	170.412389199693	-0.89476900234941	-56.6773628512809	
1016000000	-8.89677657728056	168.484695966514	-58.053651868604	166.992625582435	-58.0637293308782	170.335390125554	-0.898287173905305	-58.0521895276148	
1016500000	-8.88094851903816	167.217116126905	-58.1640815996194	163.482994899539	-58.2161797896285	166.537357391749	-0.899797146209024	-59.4126919748833	
1017000000	-8.86735710094249	165.939411752695	-58.2171084862598	163.224417597278	-58.0394400536981	166.029588593299	-0.902360620640869	-60.7875001426273	
1017500000	-8.85269681752182	164.661890890267	-58.0025110510417	159.940743059084	-58.2052777358378	163.628195219969	-0.905629383409135	-62.160942308797	
1018000000	-8.839193942224	163.397251597979	-58.1535138061565	159.232897055149	-58.0387610032198	164.230954011927	-0.908741530301775	-63.5295264246793	
1018500000	-8.82757145800597	162.127164068655	-57.9273214400733	157.292553299986	-58.2297741529499	160.190727412621	-0.911685531482478	-64.9021685860504	
1019000000	-8.81281165302222	160.855476422533	-57.9027760126218	158.1976693185	-58.1023741721474	158.554337427912	-0.91359424029259	-66.2797275858699	
1019500000	-8.80030879735031	159.58277940584	-58.0593629833809	154.761210908979	-58.0228921468681	157.856222988756	-0.915653186865266	-67.6393838601625	
1020000000	-8.78902536789595	158.29102121589	-58.222264660144	153.60002474624	-58.0562484425784	156.496106649409	-0.915296003257124	-69.0213681648865	
1020500000	-8.77155646753524	157.040001903518	-57.9031356811986	152.620855875455	-57.9432137854957	154.891888246643	-0.919477454669339	-70.3886148557803	
1021000000	-8.75970340736789	155.779837534736	-58.1283452761473	149.948708157643	-58.1754686327226	153.438131647598	-0.921850146386317	-71.7684343523225	
1021500000	-8.74838080513608	154.496857303913	-58.040576724749	147.803619860654	-57.918988911231	150.229656745514	-0.923039809160387	-73.1359257095136	
1022000000	-8.73491884911745	153.236185935618	-57.9640458841692	146.759423382686	-58.0770651365302	148.419580089872	-0.925344855075299	-74.5122288865403	
1022500000	-8.72129475449115	151.967394184502	-58.1138126982091	144.791492224829	-58.1917069776045	147.408416588503	-0.927403606896234	-75.8878510503562	
1023000000	-8.70685715738505	150.69530507123	-58.0443802907247	143.3589641373	-58.3043268497859	145.976787376982	-0.92938669715682	-77.2616757368881	
1023500000	-8.69661729891128	149.4146980233	-58.2550090817401	141.240979164779	-58.4404710872757	144.514447191666	-0.930079305093399	-78.6350513510843	
1024000000	-8.68367983287535	148.153596902953	-58.0467082083762	141.314091747214	-58.1014091839403	144.60915450581	-0.931427595608613	-80.0071518165782	
1024500000	-8.66954399980959	146.879003421973	-57.9540478368783	139.046878254804	-58.2911624593227	141.621055807603	-0.934013595798701	-81.3822762126542	
1025000000	-8.65780750112495	145.604984908645	-57.965589901906	138.578407641146	-58.1647972316412	138.492972036018	-0.934634318734189	-82.7540116400424	
1025500000	-8.64385922069852	144.343238154516	-58.1716059443081	137.75675512051	-58.3816508933338	137.900373094594	-0.936609186756478	-84.1362376611839	
1026000000	-8.63233179275564	143.07593502381	-58.1800130532156	134.378591916004	-58.0691303060654	135.597351483354	-0.936708312669672	-85.5154737299565	
1026500000	-8.61963034184054	141.823334903926	-58.3106811162993	129.526804808349	-58.5106465527835	133.977604819721	-0.938940431930159	-86.8959204049132	
1027000000	-8.60790586570142	140.547053588453	-58.2572345733766	130.80746993807	-58.4311722738034	133.510275257067	-0.939617325943666	-88.2597646951952	
1027500000	-8.59500206261394	139.282929503308	-58.3912630386473	128.178493518777	-58.1474713974441	129.899480508296	-0.940024609369338	-89.6388694633568	
1028000000	-8.58469817021806	138.024217301853	-58.1825955530662	128.202697939564	-58.2246686419447	131.538249100337	-0.939995960174616	-91.023327608058	
1028500000	-8.56902678367698	136.75524016138	-58.3502324435887	127.96911786611	-58.3944451936181	127.375371326189	-0.940736872418395	-92.3969734081259	
1029000000	-8.55788951167893	135.490123561367	-58.5607173443292	123.489519767655	-58.2217805881708	125.223755000702	-0.942280785175625	-93.7708898916286	
1029500000	-8.54587511620204	134.218954800819	-58.2267427060262	124.71379369174	-58.1915013962966	124.548053752332	-0.94211783175834	-95.1484561326285	
1030000000	-8.53199887261393	132.961282330396	-58.2489937548351	120.219824807706	-58.4210842864441	121.407945951489	-0.945286038363913	-96.5253812476626	
1030500000	-8.52117158355691	131.684330723523	-58.1803516162636	119.921326267624	-58.7228642949035	120.877756873205	-0.944794630536501	-97.900867365157	
1031000000	-8.51133823338524	130.420973359882	-58.3338706844717	120.320176161562	-58.1744658320899	117.953837889107	-0.944207483124408	-99.2859485185808	
1031500000	-8.49805468545431	129.164704778468	-58.1890457194894	117.647838683944	-58.5536387355145	118.141548134935	-0.943433106378304	-100.661527474428	
1032000000	-8.48739528305078	127.898823413656	-57.910901701455	114.71668694852	-58.2670848544797	115.269015883988	-0.943408292614629	-102.043982951847	
1032500000	-8.47636298886207	126.62664135449	-58.1363173297607	111.614149305404	-58.4479186015259	114.722039480459	-0.944895349248289	-103.426030856777	
1033000000	-8.46438724262664	125.365966887019	-58.2995656848675	111.121803340688	-58.4246118377168	114.158535513499	-0.944534431588431	-104.800579526485	
1033500000	-8.45283756455505	124.099651162415	-58.2189414468313	111.307081563663	-58.2143555439217	111.311616350414	-0.944482068521164	-106.183562668752	
1034000000	-8.44239062564285	122.841565767817	-58.074805663205	107.777517790036	-58.4971440279367	109.047816560738	-0.944355543970929	-107.568247915608	
1034500000	-8.43149029552618	121.574399544032	-58.5533616378355	105.6049145147	-58.3171503434674	108.870388687664	-0.944352717314284	-108.943258913735	
1035000000	-8.42134910628347	120.318179016075	-58.1820671878288	105.239352744877	-58.5234047258679	108.555076719239	-0.941228636902693	-110.329832358011	
1035500000	-8.40842321477731	119.051666750005	-58.3883742411656	102.870129589605	-58.5645644540355	104.342678191267	-0.942807089601651	-111.693816088195	
1036000000	-8.3978162200441	117.787458167667	-58.3159363881731	102.595657734548	-58.7554208277696	103.409655070704	-0.941877222960182	-113.086902609772	
1036500000	-8.38609478869263	116.534214496867	-58.1942434649863	99.1629941203724	-58.6430196496544	99.8716592866759	-0.94152869154381	-114.468684775903	
1037000000	-8.37496090632265	115.273384354659	-58.4393726054832	98.2451727220241	-58.5364116164708	97.5758401556414	-0.940884505030086	-115.850652432966	
1037500000	-8.36498371814743	114.013425948106	-58.4427674169743	97.2245193534207	-58.5454774623035	98.6187173640638	-0.940098271302787	-117.228123957856	
1038000000	-8.35428645435903	112.751515430187	-58.449461340452	98.9470089686812	-58.5943041809466	96.9906767474462	-0.93826390175099	-118.613165562414	
1038500000	-8.34548685608771	111.487218791511	-58.7236438687798	96.0760050199047	-58.6023639686201	94.5610464238558	-0.938247437422357	-119.994095170119	
1039000000	-8.33510410461545	110.222448967005	-58.5726911704861	93.1770770310431	-58.4582961758706	94.5023022499895	-0.93686465413584	-121.373751815293	
1039500000	-8.32407551803494	108.956959389093	-58.4687258208583	92.8375232625834	-58.6568984768095	91.7978209086215	-0.935057688037713	-122.761635127417	
1040000000	-8.31503590650563	107.70145373297	-58.679083376295	87.9647868375757	-58.7324009424902	90.1288549943787	-0.931952930261648	-124.143955405721	
1040500000	-8.30079237349603	106.440472350932	-58.3671452094324	89.0433527307123	-58.8724325699398	86.8380952198178	-0.931577289325432	-125.523783066107	
1041000000	-8.29282684574121	105.182403512347	-58.2472611038009	85.6287482977507	-58.4100990368962	85.9409318318821	-0.930778329631652	-126.902812415735	
1041500000	-8.28235234620085	103.924658969687	-58.4159055247507	86.9689215031354	-58.6468003168637	85.9704113491349	-0.92948679057942	-128.278786797623	
1042000000	-8.27273330018566	102.65811465212	-58.4948094838566	82.7165595205367	-58.8581304656353	82.9689725834389	-0.927550564497431	-129.667076338353	
1042500000	-8.26422923886001	101.395997459307	-58.8512803185263	81.890055558766	-58.8042088169556	81.7103760613545	-0.928005617320834	-131.050627592676	
1043000000	-8.25297173751435	100.143395816784	-58.5854473367811	79.2288055164671	-58.6450150399191	79.8946646349082	-0.923149910921281	-132.427449516245	
1043500000	-8.24443230375257	98.8890814983447	-58.3876301584956	79.6710601432248	-58.548833977578	77.3152320241047	-0.922598238126883	-133.820147174395	
1044000000	-8.23449888746764	97.619927356077	-58.8511572625882	77.0830669654257	-58.8051806342889	77.2325288182827	-0.921102736629575	-135.201354406229	
1044500000	-8.2243407270853	96.3644883087104	-58.7201036182497	77.4552447018878	-58.8266212609346	75.459402507757	-0.917798966231558	-136.586493345635	
1045000000	-8.21584600711219	95.1204755150018	-58.6201628554471	75.383717264195	-58.7231131435583	74.6312570309816	-0.917534993636183	-137.95768972745	
1045500000	-8.20711079161975	93.8525717690763	-58.494763996335	72.9059811828392	-58.4527743195056	72.5755078823691	-0.914450721722979	-139.349493127973	
1046000000	-8.19674044905944	92.5923495060778	-58.6094057888679	69.25100661491	-58.5062318399556	69.9536888568445	-0.913083558526432	-140.740962447125	
1046500000	-8.19010028808163	91.346368293167	-58.3284760327057	70.2347565240381	-58.4065451396706	68.7616863723739	-0.909246246464145	-142.124373987262	
1047000000	-8.18071124993985	90.0893087728283	-58.6233221343685	68.6610191303135	-58.4914716019711	67.2199277742896	-0.907591048559967	-143.50864620445	
1047500000	-8.17159273390197	88.8246397911583	-58.5792177325525	66.8735284636825	-58.5527055071338	64.7763035970643	-0.905146106442069	-144.896118524668	
1048000000	-8.16457791343178	87.5855813585132	-58.6392187118381	64.9966215818685	-58.5754015332266	63.8806151701323	-0.90410005081332	-146.277366670166	
1048500000	-8.15456162106512	86.3216209908881	-58.6662991372507	64.0444497509068	-58.7443453349909	62.4712825661692	-0.901226452476133	-147.66299522707	
1049000000	-8.14462516734638	85.0636400635866	-58.8846968167692	61.6494913717258	-58.6776090029817	61.9635523210692	-0.898762476579386	-149.04671612463	
1049500000	-8.13928177157097	83.8195188334719	-59.1298317063839	61.6122335925157	-58.7302355523664	59.944660277294	-0.895131936518713	-150.432815247845	
1050000000	-8.12945566025618	82.5528315959371	-58.9190580869033	59.1169157313506	-58.6357360484921	58.2222729726753	-0.892656041683549	-151.816843738712	
1050500000	-8.12185104040823	81.2978157154352	-59.0208288851467	56.1260915616588	-58.5839351604577	58.3638826699856	-0.890698600282943	-153.203123634682	
1051000000	-8.11272857133813	80.0542213456432	-58.8639443789393	53.9347266710785	-58.8534037900141	53.6301821520187	-0.887340834412237	-154.583143746679	
1051500000	-8.10387521082951	78.7949789872622	-58.6089059875012	53.6637884078252	-58.7543836806907	52.4304787370183	-0.885163723638138	-155.970482343116	
1052000000	-8.09706275753808	77.5424484480745	-58.9824869912319	56.1629274884188	-58.9776497250721	50.3392547433924	-0.882882864501482	-157.358023161916	
1052500000	-8.089291994333	76.2846066290888	-58.7652522235209	51.6531677736128	-58.8152155647705	51.1879464529668	-0.878795380681742	-158.749290110779	
1053000000	-8.08260733467056	75.0326283359939	-58.6382096482317	51.724812339323	-59.1663996589059	50.0992401793087	-0.878310129820886	-160.125435171034	
1053500000	-8.07386742701493	73.7894919281863	-59.0428235196636	49.6812234826476	-58.6143167228655	45.7161777823686	-0.874781791809772	-161.5083331435	
1054000000	-8.06626897104038	72.5390426813606	-59.1743976420154	47.4817389194673	-58.8731577822295	45.4524442323204	-0.871188205169347	-162.898885632749	
1054500000	-8.0603566094858	71.2892250346329	-58.8707403968544	46.5058254772187	-58.4268555738266	44.0727303650467	-0.868777322412558	-164.284634705966	
1055000000	-8.05180579965182	70.0310677669508	-58.798437675898	43.615771735493	-58.981463816771	40.9729887196347	-0.865578201246672	-165.679652328184	
1055500000	-8.04424370711617	68.7864140773591	-59.2966002869053	42.6760512969053	-59.0271667988681	40.3258459697578	-0.862567303524042	-167.054359093286	
1056000000	-8.03727966897917	67.5326213551659	-59.0113955705992	42.4051484210666	-59.1010855853634	39.7272719973796	-0.859954007514445	-168.443541636811	
1056500000	-8.02948889198437	66.2801843870868	-59.1272162261736	40.3498773256306	-58.8082833956518	37.4893325273527	-0.856697484738906	-169.82989273188	
1057000000	-8.02404425989532	65.0276954734772	-59.1906485087686	40.8615561754285	-58.8984865828798	35.7414600610086	-0.853892892610387	-171.213667475211	
1057500000	-8.01719501899628	63.7793024448281	-59.2289187288129	35.0278770067557	-58.9157553887551	33.1800993572937	-0.850830319387168	-172.605382403888	
1058000000	-8.01038517503668	62.5256463481668	-59.0830792520103	36.4255085771887	-58.8111283862511	33.3504399588953	-0.848001414566744	-173.991287529347	
1058500000	-8.00248890316262	61.2823641234151	-59.0526808457117	32.7535883012616	-58.8044791558138	31.5955999512069	-0.844476557016609	-175.383111418587	
1059000000	-7.99683814233902	60.0306546158817	-59.0719199811082	35.9615774367148	-58.9959648983862	30.329832975191	-0.841542985990341	-176.765216453758	
1059500000	-7.98967523234506	58.7913542262207	-59.4040755779882	31.7973468827131	-58.8632388290808	26.9093245622106	-0.838631799158429	-178.145889731881	
1060000000	-7.98400618436549	57.540342012063	-59.0644233308574	29.4248970015373	-58.9413344226094	26.6972109028631	-0.833976567332822	-179.531123235963	
1060500000	-7.97841942289888	56.2883612165588	-59.1693790577167	27.4070041280977	-59.1760717573752	24.3329367483908	-0.831992945059248	179.071293260585	
1061000000	-7.97050027187799	55.0350725822036	-58.9069614865563	25.4264173511113	-58.4876855216718	23.9257999953538	-0.827873087618494	177.68549434803	
1061500000	-7.9663593502796	53.7911039346031	-58.9883583840771	26.6609694055516	-59.1286395696427	22.130299756835	-0.82556003731171	176.294873080898	
1062000000	-7.95895071889502	52.5469334981258	-59.1644087913273	25.3404324243706	-58.9124317466811	20.2434222743884	-0.823214858525848	174.916624592533	
1062500000	-7.95341152500656	51.2979230774549	-59.2022362472998	22.4468517978381	-58.8209614448535	18.9850911484334	-0.819280309216805	173.52925420791	
