!Keysight Technologies N9923A: A.08.15
!Date: Friday, 16 February 2024 15:17:06
!Timezone: (GMT-05:00) Eastern Time (US & Canada)
!Model: N9923A
!Serial: MY52412730
!GPS Latitude: 
!GPS Longitude: 
!GPS TimeStamp: 0001-01-01 00:00:00Z
!GPS Seconds Since Last Read: 0
!CHECKSUM:1567488562
!Correction: S11(ON Q)S21(ON Q)S12(ON Q)S22(ON Q)
!S2P File: Measurements:S11,S21,S12,S22:
# Hz S DB R 50
1000000000	-9.610140249515	-144.363563805833	-59.3150560216016	-157.545980360488	-59.2229575824365	-160.827887304318	-0.738013068909087	-13.3575041796486	
1000250000	-9.6070494795435	-144.99726693941	-60.2493997414767	-162.461452280237	-59.4392745640548	-161.124648851008	-0.741925025405105	-14.02563246999	
1000500000	-9.62037067024248	-145.673417563838	-59.4222626596	-156.683140218934	-58.2959144351595	-161.157959416294	-0.740310911925224	-14.7037429206542	
1000750000	-9.60554254762753	-146.282892481167	-59.845222443891	-166.327446285217	-58.743755834349	-156.884172088537	-0.738240498988754	-15.3540035046555	
1001000000	-9.60313680178587	-146.924259835331	-58.2548142206005	-148.02168593959	-58.4711363147573	-144.881199579402	-0.735555725790629	-16.0650013723357	
1001250000	-9.61158581946618	-147.543810832875	-59.117777915263	-145.392077715074	-58.4609214972351	-155.604518041406	-0.739042436296544	-16.7619493336591	
1001500000	-9.61344015105587	-148.250746669227	-59.7318644945913	-159.170827447638	-61.1568471954364	-160.086738323535	-0.735600636837024	-17.418497323621	
1001750000	-9.59953726741096	-148.850523852643	-57.7862123781011	-152.530646006279	-58.4167025180997	-162.495075799337	-0.740970308280415	-18.0870012321156	
1002000000	-9.6087480732715	-149.570771823657	-59.499994171951	-159.962539681298	-59.772584133128	-168.761853580437	-0.740219537354032	-18.7930355293784	
1002250000	-9.60106548727711	-150.158950698639	-58.9320307981919	-155.149538792744	-58.8050099746569	-150.852227690014	-0.736845719041663	-19.4341910716037	
1002500000	-9.60573657943235	-150.763990143601	-59.2152881587017	-163.06514785679	-57.7645278808847	-155.510731417727	-0.736769610079458	-20.1363355298793	
1002750000	-9.59900725658686	-151.406722057795	-58.8731543552789	-157.392436456922	-60.0096209936158	-162.411949222418	-0.737234542040188	-20.8035982310011	
1003000000	-9.59873913374932	-152.076984731802	-58.3039140506114	-165.535733124847	-58.2946921916421	-155.274908772438	-0.737324298837104	-21.4531522829492	
1003250000	-9.59567230934665	-152.689813390311	-58.1782503802575	-157.177588883632	-58.4058700011067	-166.509137728842	-0.736840417037591	-22.1478265162272	
1003500000	-9.59714906312499	-153.365797845429	-59.8829001642364	-167.377120479165	-60.78903222474	-166.229799354727	-0.733025362662922	-22.8287855530273	
1003750000	-9.59904672963888	-154.051671827862	-59.5259110618938	-162.611778509383	-59.4343792509504	-164.183194845006	-0.736519959852421	-23.4929165441261	
1004000000	-9.5917197185156	-154.679940848586	-58.7460987305767	-163.805565555849	-58.7304110397654	-166.92117792034	-0.738536092027676	-24.195266941419	
1004250000	-9.59259289210882	-155.363908976046	-58.9991851816784	-156.101503509565	-58.2013490815354	-167.858873138956	-0.734545610042192	-24.8614155916838	
1004500000	-9.60191087000832	-156.000639108679	-58.9212951837167	-172.342794461988	-58.6617595424941	-172.449064781334	-0.738967408634385	-25.5178475119568	
1004750000	-9.59728408080036	-156.630289160716	-57.274910717793	-166.191975159947	-59.1440010144636	-175.386107780903	-0.73494033537653	-26.2082479242098	
1005000000	-9.59765737136905	-157.234065477465	-59.876672902403	-169.761639086151	-60.8900993689145	-171.366273452539	-0.734181795289697	-26.8771514095851	
1005250000	-9.59520946598002	-157.904019405057	-59.4117891883768	-167.551621516486	-58.8670730624695	-173.009150161152	-0.734436297529741	-27.5496728381508	
1005500000	-9.58961842279597	-158.552201853109	-57.634084020706	-170.567079525271	-59.9089626140434	175.267999639996	-0.735129364535987	-28.2376303887147	
1005750000	-9.59397300244623	-159.201035826075	-59.8860218039334	176.681740753573	-57.8017637805031	-177.450052692398	-0.736106910702889	-28.9209478906595	
1006000000	-9.59249870800251	-159.852948362886	-59.639147627244	-179.745762884065	-59.4539664528418	-171.943388382666	-0.734926396026091	-29.5801943382893	
1006250000	-9.59197441759165	-160.460186237086	-60.2912021040874	-173.437794379282	-59.1265302598848	-167.055731182706	-0.734403431600476	-30.2339325141066	
1006500000	-9.58766623976855	-161.075692076529	-60.7180344287741	-172.648161927334	-60.5141061971621	174.86984920231	-0.73553155297155	-30.9259404564632	
1006750000	-9.58262438708602	-161.793885253546	-57.1606727451084	173.876371418698	-58.4957452481989	175.691526228819	-0.735957767981702	-31.6082974407036	
1007000000	-9.58534983401758	-162.385165358918	-57.8003767697607	177.089776979617	-59.2327969829417	-177.808407353175	-0.732760977345132	-32.2846520828456	
1007250000	-9.57720745607561	-163.033424568025	-60.0221331289176	177.347356132424	-59.6639728652925	173.851483636454	-0.732170458099927	-32.9740890247468	
1007500000	-9.58703257138123	-163.713436020367	-59.2966672716783	-177.13662589729	-59.3459695444145	176.429450683767	-0.732172510583549	-33.6203705290481	
1007750000	-9.58370151638476	-164.315554941844	-59.6972796734907	172.407801563136	-59.7248658558137	172.910234235011	-0.735437612555236	-34.3081770617545	
1008000000	-9.58685733981114	-165.040495727051	-58.6604979604254	175.602106045602	-59.4723077964919	178.324998051975	-0.733596333595284	-34.97482610504	
1008250000	-9.57492948696692	-165.625286975325	-59.0876649545371	-174.346264074181	-58.4883809752493	172.431270396987	-0.735238411922723	-35.6772352721952	
1008500000	-9.58990886365222	-166.363395104853	-58.8385173224496	175.489014610915	-59.0427091246843	174.532249973378	-0.736181854407174	-36.3373323210454	
1008750000	-9.57943008589198	-166.994053269679	-59.4837148315315	174.14422571087	-58.6715085565811	175.913916677608	-0.733281035458726	-37.0070623702936	
1009000000	-9.58328909914692	-167.655161762613	-60.312491718674	179.156800817726	-59.1180437528453	176.121876712289	-0.736214689846934	-37.6867734793167	
1009250000	-9.58145696594921	-168.289603717121	-59.414647293168	166.602798759554	-59.1556695584874	177.605358539563	-0.735234492452158	-38.3307074181138	
1009500000	-9.56793079791877	-168.945781670865	-59.2394496525101	163.07495430059	-59.7647030621619	169.041487441459	-0.730312974127341	-39.0564364827949	
1009750000	-9.57671075250506	-169.585762664706	-58.3582160991967	173.945298466188	-58.5864314256724	168.148646720546	-0.732962384829712	-39.7003111462894	
1010000000	-9.57906778234386	-170.220568020612	-58.9320707945651	168.017473584101	-58.9261336218425	174.837427219093	-0.737057755822396	-40.3834973793963	
1010250000	-9.56593772291389	-170.944749068611	-58.1661231670416	163.39807294492	-59.5968012495076	168.804513863188	-0.729100969408263	-41.0638528975999	
1010500000	-9.57994513632123	-171.543582422271	-57.6241820166198	174.140729352183	-59.8183990805445	165.989139725807	-0.737242741895121	-41.7654996333189	
1010750000	-9.57378773465831	-172.207710691989	-58.3794526503769	159.432882110667	-60.6919678962205	178.132904954023	-0.737020311567513	-42.4399232766209	
1011000000	-9.57163110746134	-172.837128305906	-59.3285993813167	159.910164993168	-58.4079893353955	162.784163023656	-0.735588736134895	-43.095867974311	
1011250000	-9.56833385983235	-173.51350092107	-59.2248780130985	170.42963390802	-60.0223635862039	167.834134325182	-0.734936256705217	-43.7633214080127	
1011500000	-9.56410140075205	-174.164255044004	-60.6210004787432	172.103351294156	-59.2024085791547	179.973291917705	-0.736111322902944	-44.4382746177286	
1011750000	-9.56889392219647	-174.818139952046	-60.5746182899561	173.592577637544	-59.624660753793	-178.304368720447	-0.734489968520677	-45.1000691860119	
1012000000	-9.57493518209242	-175.458680715995	-59.2422732329672	164.174946307144	-58.6070978185937	165.679965207072	-0.737268264212133	-45.7498213220487	
1012250000	-9.56712524931312	-176.154379908551	-59.4546721483148	169.430070406964	-59.9307202752662	173.44538669836	-0.737236845668087	-46.4449927049699	
1012500000	-9.56502422991974	-176.769587706424	-60.4915037491371	169.751571659319	-60.6780663279094	165.425376839414	-0.734584718075244	-47.1420887371721	
1012750000	-9.55903584020366	-177.412484596486	-60.1001310755642	167.108778205171	-59.8706361282068	169.41068935764	-0.735629016138381	-47.833365964614	
1013000000	-9.56273346971299	-178.132018040409	-59.6252601383315	166.12422215384	-59.3414867382819	168.657930402635	-0.738969390290477	-48.4764336289988	
1013250000	-9.56768221314222	-178.791059230961	-58.103791976373	153.655658744214	-58.5416523373533	162.915116743613	-0.733946683546844	-49.1477427564021	
1013500000	-9.56660905887311	-179.320119958812	-57.2006021540627	162.029404115156	-58.5221055861171	158.270650163774	-0.737230731927423	-49.8541511214825	
1013750000	-9.56632893076887	179.967619404795	-59.3756457194111	170.331626886908	-60.1765882912129	158.703689204198	-0.736472883448425	-50.5297148005731	
1014000000	-9.56022786384055	179.268188765129	-59.003740608799	150.840088711445	-58.5498390116128	157.347386819399	-0.736910998703356	-51.1784226854528	
1014250000	-9.55870569783403	178.69217929452	-57.8989518556623	161.290757953095	-59.8033829151916	156.054722321645	-0.734138990280925	-51.8509428469822	
1014500000	-9.55532616193234	178.027705660622	-58.302146070805	156.834903276508	-58.6070671898816	159.066015410495	-0.739960499997629	-52.5174566016102	
1014750000	-9.53584024041126	177.415849580046	-59.366013562204	160.860699529236	-58.8232080382739	154.733148158083	-0.738762007153971	-53.2098064956763	
1015000000	-9.55465537752799	176.709020225262	-57.8686760627859	149.58798508349	-60.8300515979909	154.726173139094	-0.737682799500712	-53.8858426397383	
1015250000	-9.56037619878684	176.047342352076	-59.1043168330195	143.975042668761	-58.5733633241723	158.815599340089	-0.736230366388967	-54.5488529220791	
1015500000	-9.55232396122074	175.382801667332	-59.0140814371367	151.740252715668	-60.6607183776046	160.566005800402	-0.739396255859365	-55.2338612500358	
1015750000	-9.54828494799996	174.754478539157	-60.9010978241287	150.968036871851	-60.4331098383025	145.583069200726	-0.737509777469526	-55.9078054071034	
1016000000	-9.53782003587844	174.077872831746	-60.0232931955067	154.20460021604	-57.8887645770172	154.331440203831	-0.744335025011599	-56.5811370326074	
1016250000	-9.54813510295013	173.414044063785	-59.9875399365223	150.687244299278	-59.0776037905898	149.872879761527	-0.74118675941049	-57.2521375097612	
1016500000	-9.53362053091107	172.750822746436	-58.6821257884013	151.44014046718	-59.6461638514317	151.089595173471	-0.744160195917794	-57.9217668042723	
1016750000	-9.53603810357923	172.144116316276	-57.8756701691376	151.377180603113	-60.8094550028779	145.913731474663	-0.741383765720403	-58.6112421079562	
1017000000	-9.53553817488379	171.405329430772	-58.2222456478765	153.619234809615	-60.9338652057406	148.770638009063	-0.744312244619465	-59.2741887828146	
1017250000	-9.53783156292075	170.794694345251	-59.5756905623345	145.365507745359	-58.2058477080614	145.015930154712	-0.743478840687943	-59.9619237173656	
1017500000	-9.53410547294084	170.16573294147	-59.9552317409513	152.193409847532	-59.0562003274117	128.02560513257	-0.739556755153131	-60.6209085332093	
1017750000	-9.53770371513447	169.510192118337	-59.1105132164244	155.677740872772	-58.6665729511796	142.574461426057	-0.741140239448161	-61.2966743954232	
1018000000	-9.53102233597476	168.810928951491	-59.132902974782	145.88072259463	-58.8647844253755	137.595664924388	-0.743818126289176	-61.9600909373275	
1018250000	-9.54452621849189	168.178746005375	-58.0784622440937	140.438943611957	-61.1400885657912	135.763336535528	-0.742123009031301	-62.6633457958501	
1018500000	-9.53683874160058	167.542567618374	-60.5145131939533	131.155456673173	-58.4391463923574	145.201372261007	-0.740096015788912	-63.3550593810558	
1018750000	-9.52602808347476	166.889023290825	-58.4190575608674	143.008569976949	-59.6423858572148	131.20294911484	-0.744490822426657	-64.0002902313312	
1019000000	-9.52420310221022	166.229179916284	-57.5062362860998	141.410467424969	-60.5992000383161	140.133858790166	-0.745570471820829	-64.6870143374765	
1019250000	-9.52210812154348	165.509789815242	-58.2411927110082	155.701452006902	-59.5899562902151	142.904840459122	-0.743344216774187	-65.3421705201777	
1019500000	-9.51949687911956	164.940881039031	-58.3114977993386	138.006689272935	-59.9068708560427	134.165331532199	-0.745485974426983	-66.0250480745062	
1019750000	-9.51674268634181	164.24090052978	-58.0388193171656	138.4441943213	-58.9780455202006	134.613830532655	-0.747260327519422	-66.6886889277866	
1020000000	-9.517767743908	163.569509796251	-60.1150097836741	131.212918759816	-59.1536927865671	137.09835396371	-0.744668691604782	-67.384333968485	
1020250000	-9.51620995360937	162.91091394034	-60.5599630197599	138.097434825831	-59.7953714051297	144.669229275494	-0.748841198503565	-68.0499328154329	
1020500000	-9.51851652772925	162.226289450701	-58.2043329596393	127.320225279426	-59.6063817657936	141.520739914818	-0.74957299426525	-68.7392749755967	
1020750000	-9.52005491440949	161.578148772588	-59.1762015258377	127.591418237599	-59.901660802307	139.881688508178	-0.748715954045468	-69.3995277168521	
1021000000	-9.51517900944602	160.950376240782	-59.9738756787738	137.520295458259	-60.5042968544992	126.823803189236	-0.74520885537923	-70.104120792908	
1021250000	-9.50558013326442	160.292755081802	-58.5788109340656	129.862884096398	-60.1619287044858	120.355847012146	-0.749787837599532	-70.7426408491914	
1021500000	-9.51196216221924	159.540210894157	-57.7796179655044	132.55546512641	-60.5377842730461	139.251663965027	-0.750584342256269	-71.4250393442052	
1021750000	-9.50729984553338	159.008665149685	-57.0206603020835	127.759927295794	-59.2289469594076	134.509370363036	-0.756456409551586	-72.1164914509965	
1022000000	-9.50561965746634	158.284412734244	-59.8711022718694	133.093960253864	-60.2426686748519	131.378199743079	-0.75078131596656	-72.7839389803911	
1022250000	-9.50012890127726	157.636080922316	-58.4849828375567	132.696581135148	-60.8125316892578	136.486665240275	-0.752274573724733	-73.4794019423347	
1022500000	-9.50078635496263	156.955651496282	-60.3958521459463	129.055926435342	-59.231988937321	124.168641921673	-0.753926334710832	-74.1205767750247	
1022750000	-9.49182928667181	156.311055989688	-58.7693439921314	127.871511459304	-58.6792425290052	126.508312446756	-0.750943707035133	-74.7901237187604	
1023000000	-9.49989557903215	155.604724649061	-60.4003718399545	127.686807972825	-61.0085682542581	123.337262188542	-0.752523495144228	-75.489543498205	
1023250000	-9.49289787930674	154.959283033835	-59.3278230403889	121.998621037026	-58.924909553119	131.62261830102	-0.751937061966946	-76.1754646902157	
1023500000	-9.48783720153999	154.360396662468	-58.5090680671983	137.399758037409	-61.9564220398844	116.29432335926	-0.757881163234567	-76.8341375275804	
1023750000	-9.47598639342507	153.643101149125	-58.0019526537829	123.771167492313	-59.0584231485477	133.499099768265	-0.75950870817862	-77.5317690574745	
1024000000	-9.47549500718589	153.046984668934	-58.9286399758015	129.916941265822	-59.3543704492789	114.555899266336	-0.757905440816738	-78.1963531680519	
1024250000	-9.48832554271517	152.328873542621	-59.3518784338841	124.566331423339	-59.0900679608548	133.094153404426	-0.761459145726515	-78.860746432021	
1024500000	-9.47082968034851	151.760368410686	-59.2103409015672	122.944089219655	-61.3772456149348	131.858987353226	-0.762749517039073	-79.521912719327	
1024750000	-9.48385233781586	151.036970131384	-57.7495738805847	118.234493305783	-59.9556058998943	120.614449049534	-0.756695454591979	-80.2149594828509	
1025000000	-9.47000343102817	150.360249279908	-58.6734845689204	121.010340588727	-59.6125499792383	126.223325208771	-0.758306135390017	-80.9007615291882	
1025250000	-9.47388890907306	149.736187832211	-60.4249558910529	131.415000370502	-60.2227386732077	121.65015592129	-0.757245603843902	-81.544024431711	
1025500000	-9.47067450677286	149.154448153729	-58.5411214320781	127.614343287049	-60.7054682569004	126.877854494407	-0.760552319694116	-82.2511977847539	
1025750000	-9.46357941686377	148.384514330558	-58.7636786770709	111.645763228971	-60.2356867850451	118.567307948787	-0.760881201762029	-82.9145928206388	
1026000000	-9.46276151902967	147.689488391852	-60.3799752918813	120.163795723985	-60.0685321091485	112.529719920969	-0.76719004568659	-83.6114898089921	
1026250000	-9.46424052669768	147.09890552976	-57.9706863042998	125.57009420259	-60.2091993480271	114.184505292966	-0.762925438668323	-84.2658434084988	
1026500000	-9.47103193509912	146.488421835523	-58.8091771870598	110.20768644967	-59.9630741999096	107.976148427009	-0.760201300759435	-84.964030312861	
1026750000	-9.45559740932037	145.837159082665	-62.1398661125777	119.904114891198	-59.3595380414437	115.486832411	-0.762151884406986	-85.6320801435185	
1027000000	-9.45072968954415	145.114836751783	-60.8299638298591	114.793427466849	-59.2471437521585	117.777277400878	-0.764251366143662	-86.3132403019306	
1027250000	-9.45075576862658	144.397976852053	-59.1389379511215	115.553911431741	-59.1773730588642	121.409782959922	-0.766747251342828	-87.0134151028273	
1027500000	-9.45319129693575	143.76610075124	-60.3793681049851	115.18776438624	-61.8050034121498	103.764391729685	-0.765416275145072	-87.6509332188729	
1027750000	-9.43645966121735	143.087344910964	-58.0589994188398	118.639488146606	-61.4231481651991	113.108450524947	-0.769549687187709	-88.3300930357724	
1028000000	-9.44977792893561	142.4340680809	-58.4509243245508	114.164158183925	-58.9174916096207	117.605661514695	-0.770706733992317	-89.0202247568138	
1028250000	-9.43791954946465	141.823615618788	-58.9352913118663	114.486765754611	-59.4786345548448	109.621063914997	-0.768750382440677	-89.7150671192531	
1028500000	-9.43272981591066	141.116363524034	-58.3990457728891	110.96733986836	-60.6769473064276	109.643093001091	-0.771518615059189	-90.3805508772358	
1028750000	-9.43996924363416	140.476779260142	-61.2538736361306	112.828828698677	-58.6225789878768	115.68343581512	-0.769752035378631	-91.0485905380598	
1029000000	-9.43280797442887	139.828367653899	-57.9911767016194	110.130417569919	-60.1047246955444	103.435224098811	-0.772419534293664	-91.7102983811113	
1029250000	-9.42978731845931	139.212751814289	-59.3985090344712	96.0591248353246	-61.1521583885383	121.816111262311	-0.773030048309504	-92.3864304403203	
1029500000	-9.42307608084255	138.495601691966	-59.4293632534107	104.226862643962	-60.2657487692371	115.323568530046	-0.771175875530147	-93.0966953016096	
1029750000	-9.42535231055064	137.832411948009	-58.3726824662808	116.041104276522	-59.4655500635956	105.005521247542	-0.774763564318763	-93.7778036598455	
1030000000	-9.41571216810465	137.215599807418	-59.4313305551099	108.634632250921	-60.621023518569	106.128871913306	-0.780222506810922	-94.4372978995211	
1030250000	-9.42104012066672	136.5702172249	-58.2080447239184	104.136355052712	-59.6121807831055	96.9476259285098	-0.778248746420882	-95.1075076377735	
1030500000	-9.41064397174056	135.92799738941	-57.4497054560574	112.939745287498	-60.5487330249858	101.776115162841	-0.776636088842562	-95.7903224774639	
1030750000	-9.41302760952576	135.198731849399	-58.9561177103753	115.59563888164	-61.4802686667575	103.886117932729	-0.785213745974422	-96.4756144514258	
1031000000	-9.40075719369202	134.514340338855	-58.9344130712246	101.421521813971	-60.5328825921728	90.3793008805301	-0.781851760958406	-97.1537375076572	
1031250000	-9.40018410403317	133.913497577415	-61.431098597152	108.105710953629	-59.3053362767004	98.0385907951487	-0.778769289930026	-97.8258540567117	
