!Keysight Technologies N9923A: A.08.15
!Date: Friday, 16 February 2024 15:25:30
!Timezone: (GMT-05:00) Eastern Time (US & Canada)
!Model: N9923A
!Serial: MY52412730
!GPS Latitude: 
!GPS Longitude: 
!GPS TimeStamp: 0001-01-01 00:00:00Z
!GPS Seconds Since Last Read: 0
!CHECKSUM:0506076467
!Correction: S11(ON Q)S21(ON Q)S12(ON Q)S22(ON Q)
!S2P File: Measurements:S11,S21,S12,S22:
# Hz S DB R 50
1000000000	-9.61658466597172	-144.247868915722	-58.4878706515985	-157.504334017712	-59.4469422974021	-152.67789504663	-0.76428353219145	-13.2791991492746	
1000250000	-9.61317337397304	-144.91638026849	-59.0248907470883	-150.364373786025	-60.8724976381309	-149.712531887851	-0.768178934825741	-13.9572913509976	
1000500000	-9.61652049325252	-145.546786771348	-58.3338847292607	-155.002175075026	-57.8681031095104	-161.455576212617	-0.76293452246087	-14.6639359434836	
1000750000	-9.60786691506154	-146.203516889937	-58.617722591687	-160.564551716163	-59.9898447027923	-159.258692845701	-0.763519012326112	-15.3123915050287	
1001000000	-9.60597495424525	-146.786149555381	-59.2353612644041	-161.36442923377	-59.1931257920031	-156.157764833829	-0.763356088690268	-16.0118200637034	
1001250000	-9.60710769054793	-147.438998251162	-59.2528199017198	-158.299733535787	-59.8303522236871	-153.2404492771	-0.762846713460448	-16.7015780200335	
1001500000	-9.60591951947853	-148.183517144374	-60.1092231098282	-161.992376546157	-58.6501688887472	-166.363442802692	-0.759985011573026	-17.3596224351144	
1001750000	-9.61316504175121	-148.71337900551	-59.5125886765654	-163.944248287625	-59.3742239274531	-154.221876440559	-0.762948883127638	-18.0424984076265	
1002000000	-9.60581497237193	-149.451420386047	-58.9049294181755	-164.208869490807	-59.9551107180621	-154.750969674244	-0.760941912030951	-18.7410623476217	
1002250000	-9.59805698494299	-149.998485252418	-60.1866353007164	-163.471750618234	-57.5743487061505	-161.840815448666	-0.759708023490954	-19.3770158935218	
1002500000	-9.60344939156127	-150.659450541641	-58.2971206786198	-171.686318771774	-60.0753473447063	-161.32593027982	-0.761193655574489	-20.0714904683295	
1002750000	-9.60664433958888	-151.300030864223	-59.4352627988013	-177.084107305471	-58.9154528949939	-172.541572043797	-0.759831561689646	-20.7488960277866	
1003000000	-9.59935109179334	-151.996536364197	-59.520700722217	-171.656605305349	-58.7373204525561	-165.209045237424	-0.760941574956171	-21.4053415391617	
1003250000	-9.59265934155843	-152.619009616694	-58.7113230661881	-162.779634655008	-59.2894164292405	-177.967331245324	-0.759731284350554	-22.1032338517	
1003500000	-9.60690596572666	-153.224289693409	-59.7593821304213	-163.769053608596	-58.7326484151724	-164.277921262331	-0.759468928645482	-22.7793868407824	
1003750000	-9.60238309434888	-153.884012850735	-58.6529193155646	-171.137314002677	-59.9162009620384	-172.059767694043	-0.759682539848205	-23.4289727904275	
1004000000	-9.59749480450067	-154.53695463697	-59.0639262581508	-170.074513255806	-59.4177817335963	-177.27324457819	-0.759858576582016	-24.1247003266607	
1004250000	-9.59403198350358	-155.168239830829	-57.7970743867279	-173.496781753793	-58.1981391382981	-162.418963732258	-0.757575329901918	-24.7834013180012	
1004500000	-9.60487387669971	-155.813077854052	-59.3081443531769	-160.592185349776	-59.1666627718782	-178.547099020217	-0.762051155610852	-25.4747194640462	
1004750000	-9.60204610955931	-156.480490987598	-60.0345033659727	-170.121530747756	-58.8166820365185	-171.760012052174	-0.759600190737058	-26.1703418406713	
1005000000	-9.5973550546198	-157.150229682031	-59.1911200525835	-177.575665598475	-58.6375999028357	-167.123910282516	-0.75909230380125	-26.8465686451968	
1005250000	-9.5916407865411	-157.787239068638	-59.8715961544176	-179.992512881763	-58.6685237103919	-176.187985207874	-0.7575838964133	-27.4802623280526	
1005500000	-9.59658418147691	-158.420524980392	-60.3297494342007	168.673587993253	-59.5023347547331	-169.677561035072	-0.756333375334532	-28.1703062048099	
1005750000	-9.58746119316513	-159.068287640193	-57.0731126765925	176.852286043747	-59.1956430943627	177.387560785478	-0.754641030333515	-28.8499097312112	
1006000000	-9.5886707924561	-159.67513378745	-59.4085051922535	179.41164999133	-58.6963205100539	-167.526254949912	-0.75770401111638	-29.5259969955144	
1006250000	-9.58643119839671	-160.296891072737	-59.3900201836746	175.311961830385	-59.9648828093711	-166.585317554371	-0.755209177294145	-30.2059579139533	
1006500000	-9.581627218396	-160.975993856884	-59.0171039715583	177.190715013048	-60.0131079064712	-178.919894913255	-0.757077900262069	-30.862761326319	
1006750000	-9.58153808099511	-161.632630796609	-58.8972186489718	174.860647736112	-58.8157065395968	-176.080820525573	-0.757235625897937	-31.5570966026138	
1007000000	-9.57871873441673	-162.297580336316	-59.3082078731916	174.078995810691	-60.3065980146606	-177.330068889233	-0.756411559121704	-32.2129789086129	
1007250000	-9.58132692311978	-162.901348965201	-58.5935798936647	-179.007076889657	-59.5392399464146	-168.337967725842	-0.758475508369268	-32.9090247769134	
1007500000	-9.58552522295071	-163.557515694163	-57.9526691761033	172.610993629609	-59.1096681288974	173.420148472565	-0.755576144851737	-33.5769414376772	
1007750000	-9.57546665462753	-164.192139443637	-60.7991478941804	178.228400152354	-57.9937167139783	177.543038253086	-0.760893115167619	-34.2729035128078	
1008000000	-9.58376318293208	-164.853516632762	-57.9080450979646	172.40024507669	-59.4385081120946	-177.89820065006	-0.756067841257543	-34.920468845502	
1008250000	-9.57575336534586	-165.521524437142	-59.5470453267269	174.027480159627	-59.4142933947439	-179.771573827038	-0.758159863591516	-35.6164929285384	
1008500000	-9.58096893155069	-166.182870395097	-58.2434652281884	169.200552244661	-60.2345383367122	166.869169379789	-0.756204256439523	-36.2936097973984	
1008750000	-9.5792106498985	-166.853059728956	-58.6338564534201	164.495108791995	-60.3635007097475	173.822165234341	-0.753591857441885	-36.9488285940814	
1009000000	-9.57837692487067	-167.482944645911	-58.4356153781939	172.922664479289	-60.3464951674418	177.061824011398	-0.758514173210072	-37.6469537383244	
1009250000	-9.57992951226984	-168.200507182161	-59.8943792912134	167.713448366498	-59.0387622832184	176.988119557366	-0.755113627305745	-38.294406625629	
1009500000	-9.57161962973909	-168.818846803301	-58.7842463210017	176.165910038406	-59.6773667207674	169.275868818927	-0.751397177491133	-38.9978113903405	
1009750000	-9.56377825108305	-169.435179352712	-59.7190392713642	170.739474751769	-58.8182915432945	164.130651921025	-0.752335844698937	-39.6650371705582	
1010000000	-9.57124849824141	-170.084693381169	-62.6341934388463	172.293744546855	-59.2674980452485	168.970016420236	-0.75553203755262	-40.3477597756759	
1010250000	-9.57065052714523	-170.783310042971	-58.8076329209609	169.002404019972	-59.1905902563845	168.354980281924	-0.75468317214706	-41.0200706908985	
1010500000	-9.57297780607642	-171.413810895156	-58.0848121254666	169.365608072078	-60.586032782917	166.28846259474	-0.756249007817434	-41.7131274778583	
1010750000	-9.57064571750474	-172.07577446557	-59.0370760235444	164.928603045504	-58.6257599322128	163.941901944842	-0.75601618464097	-42.388170305771	
1011000000	-9.56525737334479	-172.707126904117	-59.763807923545	169.231969134517	-61.3534992798173	176.08711206649	-0.756186229662608	-43.0480527549112	
1011250000	-9.5689349053593	-173.383874023336	-59.1081297077327	174.22708735731	-59.9275726565499	166.097785626652	-0.754380379416386	-43.7200416102704	
1011500000	-9.56351363395263	-174.088266623276	-60.1480815048349	172.5573178248	-59.0762297279066	161.853108446511	-0.754738820853285	-44.3910306814777	
1011750000	-9.55860196636143	-174.701736600735	-59.9624481589404	167.372735089768	-61.4778912285885	153.430188238986	-0.752927774552169	-45.0519942569425	
1012000000	-9.55998732842098	-175.308703673739	-59.2674111309119	166.571727211965	-62.4730327785605	166.346125006553	-0.758067914590505	-45.7367277516088	
1012250000	-9.56000418490233	-175.988029673396	-60.5971334236866	156.672046190704	-59.9977350975477	164.619829643201	-0.758371925282317	-46.4100948993559	
1012500000	-9.55980194504056	-176.633025058469	-58.9067611837329	168.503462537184	-60.6205134434284	157.347959489391	-0.756444822401522	-47.1141432884283	
1012750000	-9.55190489585665	-177.346018905748	-59.7817865724954	163.488526148749	-58.8138396279601	160.899840626813	-0.752570679910891	-47.7650839138368	
1013000000	-9.55549807675966	-177.927982515981	-61.2143588811824	144.353701382046	-59.0906573490313	161.749572075501	-0.755146427209969	-48.4456046429163	
1013250000	-9.55330725039964	-178.588961762706	-59.0803385359788	156.512156339563	-59.570442683054	161.326574958641	-0.753010683755899	-49.1282596983653	
1013500000	-9.55018869160434	-179.230135857465	-58.9777035815897	160.109356684026	-60.3749361649271	158.270178219246	-0.754994162877356	-49.8232105008627	
1013750000	-9.54835977399783	-179.834260265897	-58.7351928019165	156.943504931946	-59.2491288716764	156.443944427944	-0.75564642803828	-50.4768407519691	
1014000000	-9.54341362401118	179.455858056845	-61.4233354970629	156.770555896433	-59.8981832624971	155.141870860018	-0.752967198058005	-51.1234099741195	
1014250000	-9.55886010801353	178.813010153721	-58.3470040276445	157.080615384854	-60.8198489703653	152.976260349386	-0.753838929601075	-51.8288699659667	
1014500000	-9.55011250515926	178.18180539911	-59.1970533478677	149.147729394429	-58.944479889082	157.803731377597	-0.756221752156398	-52.4835082483957	
1014750000	-9.53111550071206	177.557418709163	-60.1566392536378	156.70702053642	-57.94231229921	154.534330531827	-0.756768712617025	-53.1769281563522	
1015000000	-9.54826327650249	176.854136650788	-59.5549057973108	151.202379679433	-59.4318264139419	147.657558983627	-0.757636303992841	-53.8488003605233	
1015250000	-9.55143089864907	176.262405805492	-58.302540439072	151.347069809537	-59.3988586845457	141.761226270059	-0.756830795293583	-54.5062635003783	
1015500000	-9.53786338997776	175.60129689537	-59.1719091837809	146.970574515924	-59.9928443683845	142.282625944098	-0.756341022858396	-55.1884011258926	
1015750000	-9.53865782992549	174.902295097271	-58.8980816544041	148.760164887533	-60.8368344700787	155.672346724564	-0.758750416528828	-55.8705011953812	
1016000000	-9.5349912023054	174.28596372924	-59.758772287851	144.869372708718	-58.9283694682334	146.915297015101	-0.760412960786326	-56.5479809996137	
1016250000	-9.53902844012692	173.632753460322	-59.3548271717432	159.806288106114	-63.7104471176874	142.839697910693	-0.756291155899113	-57.2073633382698	
1016500000	-9.53721608293788	172.924304690365	-60.915292114059	153.174394673674	-59.2184203617821	155.055734040426	-0.760850060450443	-57.8691219764164	
1016750000	-9.5380586577248	172.284992750806	-59.8923627220376	147.217042732053	-59.6458697433933	142.551546100821	-0.75550939506937	-58.5676774341043	
1017000000	-9.52888561424938	171.614696680876	-58.5859782035175	146.781318492724	-59.4194187131562	152.003042986039	-0.755733947997516	-59.2311981094886	
1017250000	-9.53568456028733	170.992290138464	-61.1323370599862	150.609092515798	-60.4349996674848	151.110203078741	-0.75872524402294	-59.9068234676558	
1017500000	-9.5320871444011	170.33711670597	-60.1960803225028	146.711604966156	-59.5179913404519	137.037328344213	-0.755257795662817	-60.5698028181829	
1017750000	-9.52271147966613	169.644422595097	-57.1133336991549	135.341291042419	-59.5018303749912	147.43113848953	-0.758117934993949	-61.2391710516804	
1018000000	-9.52803076921052	169.017234548296	-59.1859670710597	144.626320568598	-61.6058640627842	141.872104311162	-0.756708557411968	-61.9400769163686	
1018250000	-9.52893325648221	168.359896023447	-59.5059167655907	146.592948065646	-60.6362772729038	137.977714149595	-0.755287835720686	-62.6327918090532	
1018500000	-9.52420071182062	167.702779173595	-59.9539874163488	138.400998826019	-59.2480242095985	146.352668789238	-0.756833640716648	-63.2824414594051	
1018750000	-9.5148045208131	167.109720973685	-57.9847305966563	130.230875220905	-60.1891595512247	138.633604636561	-0.761659786901415	-63.9672771857155	
1019000000	-9.51794209959145	166.375792309814	-58.3660570792919	146.159821377637	-59.3558271553927	141.086419735964	-0.759600126305255	-64.6317243470368	
1019250000	-9.51109518748422	165.765608587042	-59.0292080355417	138.849863702806	-59.9663289180314	149.410743680192	-0.761492915490516	-65.310346027267	
1019500000	-9.51449695604195	165.067553888943	-59.092451403487	149.191806354353	-59.4722224146897	144.275529919025	-0.762299546262606	-65.9984080623517	
1019750000	-9.51027447891608	164.489694548906	-59.3787870277469	132.425900416008	-58.3335908601723	134.09333293276	-0.761023274873223	-66.6545974736986	
1020000000	-9.51377803481321	163.749876330143	-57.6531955141182	139.812801024279	-59.0193240967372	138.982806329118	-0.756834258989468	-67.3327287910557	
1020250000	-9.51183543510854	163.167827481601	-59.6340956231992	136.748436063824	-60.4710092793716	140.640041257271	-0.760881496687459	-68.0185119285442	
1020500000	-9.51179940047903	162.427858545689	-60.6360983381341	134.175379070968	-59.122869770437	136.351172968684	-0.758969118228076	-68.6758596514124	
1020750000	-9.50761484390739	161.815110946405	-61.2265716500779	139.064515559608	-58.7773770651853	128.832416506866	-0.76014110652588	-69.3668848853953	
1021000000	-9.50823910843896	161.138975745403	-58.9671438380665	140.463462219621	-61.3799303124858	134.609101828927	-0.761419385023504	-70.0625199510569	
1021250000	-9.50662445569568	160.555434381855	-59.6500982318819	140.114605497278	-61.0230654560084	138.390196771074	-0.763380314355517	-70.6994781520706	
1021500000	-9.49960676980473	159.868700455512	-61.1291569624814	137.353946048112	-59.6183608501372	135.893058736381	-0.760134602264378	-71.3758308418337	
1021750000	-9.50170958551419	159.238129895283	-59.5637498787542	125.614898244643	-60.0644791526657	132.633678916827	-0.765767768927521	-72.0774805819277	
1022000000	-9.49120673716797	158.530963230895	-59.746239334421	135.48017096354	-61.2331573514511	133.999075868512	-0.75956846859186	-72.7403012309304	
1022250000	-9.49211915669142	157.818758992782	-59.8254261179568	141.692310307149	-59.2528468764138	134.036095348028	-0.764553391005626	-73.4239040994951	
1022500000	-9.49148605613525	157.199840696997	-60.0165890988912	142.393208074521	-60.2806258410218	134.551089024395	-0.766057642480436	-74.0835072661817	
1022750000	-9.48949501642107	156.547422460307	-59.7120328369627	132.056994007196	-59.2060493164438	127.948434736681	-0.761164089379305	-74.7630024884134	
1023000000	-9.49405710008029	155.886749844728	-62.3415674532603	123.028275476444	-59.784309041065	130.469360042467	-0.767306230555835	-75.4595712073281	
1023250000	-9.49146460272871	155.260881416269	-59.4184939521775	130.198038137455	-61.0143344748955	133.324201393027	-0.764313113981442	-76.1165077549752	
1023500000	-9.48717022472721	154.56682903413	-60.0604145533107	129.040981145311	-59.6581221629129	127.909858882017	-0.769706793081731	-76.786839934144	
1023750000	-9.46895805416695	153.885863586692	-59.8940150934897	128.115172549174	-59.739850448954	124.387370646861	-0.770080450966109	-77.4852229360515	
1024000000	-9.46844738231268	153.303969898491	-58.1769945021116	125.151800627823	-59.4268234087771	131.111006061356	-0.765758442779976	-78.1539960753069	
1024250000	-9.47690049821368	152.57605890984	-60.8065405225917	120.587533042943	-59.4407225780499	133.508594645075	-0.768473368752686	-78.8106856244143	
1024500000	-9.47213162028946	151.944229648318	-58.8226658716573	121.744826318233	-59.0257395759154	125.660377130614	-0.769883277714716	-79.4957900216202	
1024750000	-9.48457440225364	151.338924135417	-59.2505998009223	117.44435076955	-59.2769203942433	124.658654796948	-0.772527936256744	-80.1552739875003	
1025000000	-9.46859104740339	150.61934449755	-59.1932743741817	134.094016377609	-59.8148979326287	132.211966751314	-0.767945079364511	-80.8382363349588	
1025250000	-9.46828022596059	149.954094720829	-59.2386640444132	122.948355140605	-59.9078658766142	116.912031654056	-0.766171764057779	-81.5044468939015	
1025500000	-9.46912620413647	149.396480973625	-59.3128576136648	123.811486740266	-61.2064288573738	124.597732311271	-0.770771249157386	-82.2022348226877	
1025750000	-9.4608907863794	148.652160295994	-59.6495244978603	123.940678585295	-60.1996355150487	113.096585751322	-0.76704343296666	-82.8779068342631	
1026000000	-9.45910718170318	147.956821424505	-57.1729859952718	123.638332784466	-59.0817630843622	133.172925356747	-0.773935209512912	-83.5673307784085	
1026250000	-9.45702667321114	147.352725204897	-59.6556581185109	114.699889766109	-59.6175922727396	109.670950032387	-0.770868091908526	-84.2374354995219	
1026500000	-9.45383835547142	146.708876817783	-58.8562003141211	117.359943240243	-59.7017226039395	114.656983656481	-0.771450182107441	-84.9086322761669	
1026750000	-9.46737114778392	146.10756536897	-58.5886731346377	119.069162372834	-59.7134921786109	115.751977586995	-0.772019916315589	-85.607273636519	
1027000000	-9.4467499479836	145.366123490082	-60.0931530672657	134.557878941616	-58.827065568573	123.57053493095	-0.775939438111589	-86.2811330813411	
1027250000	-9.43221947881254	144.705072163885	-58.0815313757507	127.991613782756	-59.2693614254543	111.024266505719	-0.772793135034205	-86.9362071893534	
1027500000	-9.44084547053504	144.079036461025	-58.5781365897837	107.038948787584	-59.4529703389548	111.571619728736	-0.774893835205496	-87.5948970324774	
1027750000	-9.42750651967835	143.398472639303	-59.3213060997159	118.123957559667	-61.5493226386694	111.447069894278	-0.772699878271992	-88.3050069025528	
1028000000	-9.44692928250468	142.755631115433	-61.3245192073493	105.742276278583	-58.9484694636732	115.067110796206	-0.777561878962454	-88.9750669387818	
1028250000	-9.43723147017204	142.01627013695	-58.6175189400137	107.235826376546	-60.6206279513048	117.906757782436	-0.776180631259711	-89.6272717531332	
1028500000	-9.43645408570914	141.486120659244	-58.416714231308	111.465643061593	-59.1488508036451	107.631771363183	-0.779628753361587	-90.2979833718142	
1028750000	-9.4297842262658	140.741645130892	-58.3863919477599	118.049885275149	-58.5880733738013	109.228768405037	-0.782811862658331	-90.9793875148613	
1029000000	-9.43415687281399	140.094889942515	-60.3006170634341	115.671419290329	-59.7526961270969	106.162534663863	-0.778227271269082	-91.6643921663467	
1029250000	-9.42933190104114	139.462858757944	-59.9053945417523	99.7284970235567	-59.7499144896603	97.7130924556328	-0.785836512414674	-92.3216196093076	
1029500000	-9.42312966764259	138.789458728683	-60.9880581778972	125.624623512251	-59.0908292601446	122.070615427331	-0.777907459427113	-93.0240358696981	
1029750000	-9.42344861487461	138.147557139369	-59.3192938175746	109.457476464805	-60.5998348871985	113.774069125454	-0.782145510033392	-93.7044664010539	
1030000000	-9.41709583178308	137.499378551994	-58.6571222280369	112.567397380616	-58.7412395003261	106.590847149684	-0.783630410334856	-94.3836093623925	
1030250000	-9.41989304307706	136.903294537505	-61.5569100476848	109.233828410729	-59.4819477305716	109.751992696546	-0.781818037441061	-95.0468969242452	
1030500000	-9.40532542849728	136.131981865769	-60.367287463256	115.356082940322	-59.6413686665402	105.133979969281	-0.78384447188411	-95.7504280080483	
1030750000	-9.40844453565674	135.464018428947	-57.9442723079693	112.092165424821	-60.5010596751893	117.633336745318	-0.792244212678272	-96.3974587988177	
1031000000	-9.3991302647739	134.850502369569	-59.6994447318176	97.9258721666861	-58.9932762616007	96.7277971302042	-0.788368290672814	-97.0978682291218	
1031250000	-9.39964627783827	134.177685374916	-59.5616161153043	98.6470498009143	-60.293767021097	97.291710907687	-0.783242363403271	-97.7784212619075	
