!Keysight Technologies N9923A: A.08.15
!Date: Friday, 16 February 2024 15:26:17
!Timezone: (GMT-05:00) Eastern Time (US & Canada)
!Model: N9923A
!Serial: MY52412730
!GPS Latitude: 
!GPS Longitude: 
!GPS TimeStamp: 0001-01-01 00:00:00Z
!GPS Seconds Since Last Read: 0
!CHECKSUM:1581206841
!Correction: S11(ON Q)S21(ON Q)S12(ON Q)S22(ON Q)
!S2P File: Measurements:S11,S21,S12,S22:
# Hz S DB R 50
1000000000	-9.61461962128022	-144.192824578086	-58.8078001277542	-167.295109178118	-56.726387023643	-145.086301540248	-0.774649208382082	-13.3911382727084	
1000250000	-9.60735351768161	-144.863827728211	-57.887820518196	-152.001990018834	-60.1189045519183	-157.964103713671	-0.780192769180666	-14.0702086092542	
1000500000	-9.61217015256096	-145.489520815767	-57.7545876289627	-147.455728757246	-57.3675938815165	-153.568920557546	-0.772048906237349	-14.7599744028981	
1000750000	-9.60394304053366	-146.146651058627	-59.0424702095451	-164.294344393672	-58.4258308948356	-158.586152149252	-0.777236165948151	-15.4193730860083	
1001000000	-9.60530709062893	-146.784460627553	-58.403622247327	-159.826615268057	-58.9232310090495	-159.179429916433	-0.778300867749554	-16.1117106922623	
1001250000	-9.60680411887694	-147.383405349936	-58.16959266731	-154.456621514308	-58.0325731306475	-161.153097409798	-0.77470903840118	-16.8236428969172	
1001500000	-9.6076082526852	-148.079181552737	-60.3565363842702	-157.828728240558	-58.857352958919	-155.906689935312	-0.770720746659197	-17.455585037483	
1001750000	-9.61028990804575	-148.644002106449	-57.4937950768277	-166.740062934097	-57.782007834701	-155.20693768022	-0.774185630874481	-18.1339531714115	
1002000000	-9.60482229248896	-149.37114677119	-58.6080981634021	-159.793321704207	-58.9086633993631	-152.576771477056	-0.772603538278098	-18.8230696864616	
1002250000	-9.60379106470541	-149.918544816016	-57.2586969929764	-162.356902576668	-57.1275466886597	-167.667731580563	-0.772680548999007	-19.5007811790085	
1002500000	-9.60400272373384	-150.600281711602	-57.4495275264988	-165.96052659065	-58.7244747886614	-163.984510396834	-0.770059138337786	-20.1872345294251	
1002750000	-9.60548898524851	-151.214365790086	-58.0452487418539	-159.898520987239	-58.7226389760296	-163.990995647019	-0.771266951845978	-20.8488059589667	
1003000000	-9.59592142570106	-151.893390192023	-58.5534594045992	-167.83948022501	-58.0081138753013	178.233954060085	-0.770446192442264	-21.5227752622812	
1003250000	-9.5905365234309	-152.59499041069	-58.1061035178497	-171.719017754772	-57.9751406491627	-166.555392876147	-0.771834699090239	-22.2114579939218	
1003500000	-9.6000290052009	-153.142184068083	-58.3565144490509	-173.77209344976	-58.1289611380545	-173.926417608495	-0.771519260934192	-22.8992111874179	
1003750000	-9.59568447534299	-153.855666760185	-59.7918199396522	-170.243521543421	-59.0199793843966	-173.428982285992	-0.768347780895006	-23.5493327908415	
1004000000	-9.60139051916432	-154.479829461783	-58.2794491805881	-166.325350143551	-59.6792240644358	-162.664066011054	-0.770433705312364	-24.2411791478604	
1004250000	-9.58816267740735	-155.146834424167	-58.1843361243232	-176.654887372637	-58.437485263417	-169.140583430076	-0.769354153389499	-24.9241466308166	
1004500000	-9.59715191059909	-155.782818621391	-56.9868111955374	-174.214906544939	-57.8069177075386	-165.924995323375	-0.772333344909978	-25.5753923196454	
1004750000	-9.59069831653357	-156.452309473793	-59.442576525784	168.704930153776	-59.0834447103238	-175.443409528046	-0.770968554446356	-26.2768380782647	
1005000000	-9.58920465550851	-157.094802425357	-59.73986061626	175.13904764883	-59.1339827839275	178.593541301429	-0.768910309907247	-26.947030825017	
1005250000	-9.58937141412387	-157.72038443939	-58.8657672546617	-179.681429268526	-58.9232104940201	-162.291988761875	-0.770264373859525	-27.5924872570818	
1005500000	-9.58952887860481	-158.331022832124	-59.3281134936693	164.930106744189	-59.5686364598077	-169.120843969729	-0.766666759338808	-28.2645584843023	
1005750000	-9.57961734756282	-158.996962873404	-59.7548460925831	172.355727026856	-58.3885058562012	-165.291503954313	-0.768453523590622	-28.9813419503374	
1006000000	-9.59191384715068	-159.66820572751	-58.4911213577032	174.557622429362	-58.5473250698749	-176.430557286349	-0.767838280870544	-29.6386538993603	
1006250000	-9.58966876168219	-160.225910638804	-59.7128457533343	171.586680493442	-58.7801716725862	-177.256162752156	-0.767847383783736	-30.313290364712	
1006500000	-9.58848112182841	-160.908994428818	-59.7131260962661	178.883904733473	-57.0197457821826	178.546581428309	-0.766150307654598	-30.998006015247	
1006750000	-9.57769111198766	-161.547963291778	-57.821747653558	173.350100092662	-58.4516806812691	-169.762026562713	-0.767750849106478	-31.6727990759558	
1007000000	-9.57246505974458	-162.24120157852	-58.0376298344091	177.35876816157	-59.2764833519498	176.958343825269	-0.765350101948899	-32.346924678972	
1007250000	-9.58432630869564	-162.815205978091	-57.2810159462089	173.003003391859	-59.3146361486516	172.92017172833	-0.76367081344089	-33.0396262380091	
1007500000	-9.58553010062995	-163.505129129902	-58.7259912553119	175.421639344594	-58.2399899331059	172.902023409012	-0.764375628420772	-33.6825454121938	
1007750000	-9.57106522370985	-164.14819155792	-58.2182478580025	-178.902614865365	-58.2979476158125	168.737994226813	-0.768833981371884	-34.3768803133805	
1008000000	-9.58242574611665	-164.824730264015	-57.2174342430067	174.729682382652	-57.4365121576695	171.470709765522	-0.765043300380421	-35.0437062746126	
1008250000	-9.57581265512026	-165.432088708015	-58.3536791069917	171.476454491925	-59.0256020238958	170.384042884345	-0.76355064178997	-35.7314867326703	
1008500000	-9.58471324062605	-166.084887562181	-58.6742203395146	170.202975457027	-58.5010646180574	179.348752510022	-0.764635580619196	-36.4182156926422	
1008750000	-9.57554755533817	-166.694541576057	-59.038119526058	-178.941933949493	-58.7233199069474	177.614389148936	-0.763792203329847	-37.0584239491356	
1009000000	-9.57010768536226	-167.410103818124	-59.6480112195032	165.873527576535	-58.7728739376073	167.512710015428	-0.768342766394427	-37.7667089084827	
1009250000	-9.58315829724939	-168.059762692943	-57.7462940725728	171.46470511768	-57.4121784037471	177.921492267844	-0.766315061211567	-38.4104404595594	
1009500000	-9.56640672223551	-168.683537954159	-58.2847866599047	167.856951296297	-58.1097023323351	166.073141707092	-0.76195730332731	-39.1090509387628	
1009750000	-9.56196544949578	-169.316503376531	-57.9537177114065	169.756583798957	-58.6672486212196	171.378786904018	-0.761109768862358	-39.7680374375203	
1010000000	-9.57259649868389	-169.943582923981	-59.252933511953	158.314260038168	-57.9057388844342	171.58950320352	-0.762719403584542	-40.4606783628713	
1010250000	-9.56888714959571	-170.671757937596	-58.7272576822666	162.26312133198	-58.3025224753778	163.482176321271	-0.762871717941985	-41.1177418902839	
1010500000	-9.57036080571249	-171.320091656887	-59.5208365392004	151.90983914162	-58.7609188278111	165.750398146086	-0.765982406403114	-41.8223459137202	
1010750000	-9.5630711913396	-171.938822253379	-58.6842923050689	168.817765801484	-59.7042921063357	167.561056382524	-0.768162836044265	-42.4811206235988	
1011000000	-9.56830505312585	-172.570910571825	-59.201537738056	161.915055799801	-59.3594053272106	173.509108668321	-0.766903322313075	-43.1630295094298	
1011250000	-9.56371507817645	-173.241698978184	-58.1164322862081	161.629000751045	-58.8974114798451	175.098924290115	-0.764705143237606	-43.8336541350683	
1011500000	-9.55979249858649	-173.916560556232	-58.8814061345286	159.743081768472	-58.5094528213526	173.742276648153	-0.762694263415935	-44.5103106960497	
1011750000	-9.55733050894722	-174.539030532212	-58.3418270350196	168.825387326261	-59.292916619031	162.450883291612	-0.764701699964442	-45.1653119165088	
1012000000	-9.56335246234337	-175.183518570057	-58.3764802403757	162.97119933985	-59.3085108210264	166.539303299748	-0.766098950786622	-45.8406300618487	
1012250000	-9.56549039901952	-175.846120475478	-58.6516120463584	158.860160006572	-58.7534855818647	166.002945404683	-0.767398359029496	-46.5110901694552	
1012500000	-9.55916852434666	-176.521933529855	-57.9420801677063	151.579081896654	-59.2395695138237	156.253459823004	-0.764924877971976	-47.2090390773487	
1012750000	-9.55968461729526	-177.152198452338	-58.421284976131	157.337378761498	-59.4049571157812	160.819171787351	-0.76467306172999	-47.8930239841418	
1013000000	-9.55355093679764	-177.790208347337	-58.0827092570794	158.841329821645	-59.1156521032458	169.566539664952	-0.765768876158881	-48.5326467230135	
1013250000	-9.55973629727405	-178.462356406993	-59.6895380846365	160.930728952779	-58.9126979021227	152.566085928551	-0.763870634669428	-49.2287849876122	
1013500000	-9.55872754360991	-179.038776524364	-60.4939525930166	150.445345493397	-58.8502339112396	153.748189863179	-0.764744887450245	-49.9348904655102	
1013750000	-9.55125006145835	-179.709554899124	-58.8897802212651	157.264286120126	-59.1916331671411	158.219035694061	-0.764701661863804	-50.576581262786	
1014000000	-9.55968927941691	179.58138685896	-59.0074089799221	155.298077455328	-59.6692591526824	151.429165732228	-0.765569301545689	-51.243566264834	
1014250000	-9.56321606734985	178.950313885815	-58.1163510726127	156.415397464709	-59.991379312024	152.183850719799	-0.763456007048482	-51.9307767717868	
1014500000	-9.55012218793205	178.279511282255	-57.8544206527712	151.856663082752	-57.7832359883149	155.945981278626	-0.768271916986937	-52.6040834662719	
1014750000	-9.54573994659433	177.652553183653	-58.324361566974	154.375952697026	-58.4975201823892	157.201103973594	-0.766109071760884	-53.3011180360829	
1015000000	-9.54849764150911	177.011483669525	-58.5601143779276	137.88596724019	-59.8832390728998	146.870360250409	-0.765577032894827	-53.9592774895304	
1015250000	-9.55325924376071	176.350393517394	-58.1275559638744	142.709482622614	-59.8567418816096	152.291798249225	-0.765070487202889	-54.61490583533	
1015500000	-9.53414910774861	175.687674744553	-59.1443108190064	142.031324615184	-59.0660957019574	158.220672854605	-0.764205489607033	-55.3072356786777	
1015750000	-9.53882445102301	175.0167834036	-58.3532750729207	136.378903342172	-59.7077992488315	146.575142404676	-0.766915540077474	-55.9854994872302	
1016000000	-9.53882763593833	174.39007190986	-59.2808204698997	140.767368760656	-58.2048189441155	143.864221807478	-0.769082290767984	-56.6497807306894	
1016250000	-9.54493515745608	173.720437610126	-57.1713059105492	144.611102891094	-58.3983178735804	148.646716847748	-0.766807577745449	-57.3316349685948	
1016500000	-9.54115480522335	173.088233967671	-58.5964048202295	147.770161917881	-59.5039450431274	151.912881658066	-0.770959912183418	-57.986430339026	
1016750000	-9.53645737314336	172.418162373434	-59.9131077269857	146.010108209171	-58.745381401358	156.525195321219	-0.76503748521999	-58.677068436676	
1017000000	-9.53023490875757	171.730617712881	-58.4910313230572	132.195473033393	-60.4331690237973	152.610672985403	-0.767215889507638	-59.3370151654674	
1017250000	-9.53210840117064	171.128159770935	-57.6089767535703	143.080149393603	-58.3030468965917	142.568378497177	-0.767657121665078	-60.0276749961388	
1017500000	-9.53026872264896	170.465191364905	-58.4854315084868	142.289155395893	-60.1408913836794	148.427799127767	-0.76290773235529	-60.6844705044647	
1017750000	-9.53180273259462	169.818014440797	-60.1215013315239	138.505106429215	-59.7252939074666	138.774749377574	-0.768992097008731	-61.3704870776536	
1018000000	-9.53146127809847	169.143137578879	-59.2498011714305	131.154254875609	-58.0269391002573	138.160659154989	-0.765198678748544	-62.0682568650426	
1018250000	-9.54545998616175	168.473918221853	-59.0902528978404	139.578961751012	-58.1545113924569	142.147372778732	-0.765895308092244	-62.753215239109	
1018500000	-9.52439465068839	167.788028743912	-59.0441322761748	147.743966795011	-59.0863248786694	137.57487928065	-0.763056367429828	-63.4158569764683	
1018750000	-9.52211427898849	167.199340708863	-58.6449601776752	132.649391619354	-57.6068147006568	140.136663439436	-0.769794883882014	-64.0879495085992	
1019000000	-9.51588433770425	166.586653182831	-58.1481008058376	141.19117638792	-57.3615114844524	136.691475816788	-0.76826348211913	-64.7403374347563	
1019250000	-9.51964713170741	165.908077957197	-58.0614725667535	132.847937541893	-59.8618622834099	140.519915552289	-0.769238446169915	-65.4298198130327	
1019500000	-9.5247555280665	165.267709793284	-59.3790343826276	135.014565123023	-57.6852062802401	139.381712518713	-0.768730203998648	-66.1164494144125	
1019750000	-9.51826974583139	164.59098062863	-57.9092331377184	134.666954239109	-58.2730984346252	132.581426703623	-0.770291488625844	-66.7728384449273	
1020000000	-9.5152173927509	163.875054616738	-59.7098957635839	131.793335718271	-59.6575248147692	127.522795246575	-0.769504841625982	-67.4522452742071	
1020250000	-9.51151534947241	163.240001425283	-58.5176834531675	121.422988953723	-59.3667142647286	132.654182079541	-0.77419535530061	-68.1450273237383	
1020500000	-9.51107243928521	162.565423666405	-57.673177718591	121.076842825444	-57.9227349144017	125.609589611564	-0.770170890194358	-68.8019563725245	
1020750000	-9.50704999134526	161.968546918414	-59.7563377735169	136.083986689767	-59.2546138283848	130.568474297352	-0.769714912412357	-69.4896172916567	
1021000000	-9.51179438080058	161.234001642541	-58.9054264075548	132.631978644129	-58.7025895873941	138.768573068828	-0.773741756200752	-70.1795128513239	
1021250000	-9.50758188931906	160.632545761695	-57.1472284224005	129.600722054648	-59.284000933579	132.364637772632	-0.773411310274797	-70.7956438028021	
1021500000	-9.50008093909123	159.919674440548	-59.8506495378001	137.760989279538	-58.5170189388954	135.659762237676	-0.771222136385717	-71.494586610373	
1021750000	-9.50942690077774	159.32468520314	-58.5705189184759	132.428702767785	-59.3651745627084	124.594363340733	-0.773502562401766	-72.1945402418198	
1022000000	-9.51259448215221	158.60360512757	-59.8055672190935	124.092992664565	-58.2931089482715	127.4039388771	-0.769276057415677	-72.8664184188439	
1022250000	-9.49505371425484	158.00048975007	-57.03681751395	135.805052628127	-58.5425291471865	120.239026513763	-0.776248203800048	-73.5475020335168	
1022500000	-9.49974331285985	157.350394181145	-59.7329752580918	131.243292104764	-59.4952762029285	123.307381968594	-0.776835133187223	-74.2049686661158	
1022750000	-9.49732811918419	156.686323799295	-59.4690651586901	125.273878286334	-59.4004807208827	123.146078482648	-0.769988930600077	-74.8636398083815	
1023000000	-9.49874729502618	155.988581896272	-59.9129710638025	123.825049800224	-59.7278524073409	130.927675633513	-0.77458046626369	-75.5562124498765	
1023250000	-9.48710599752308	155.346309233594	-58.2052851116731	125.889211136554	-59.5715564972109	121.566622353858	-0.772768949868317	-76.2482953901751	
1023500000	-9.49273392142612	154.717336326476	-58.7197420543923	117.191433327838	-57.659253936904	119.484229214609	-0.780224837833008	-76.9285887051078	
1023750000	-9.48516092993859	154.037167093695	-59.9465034169777	128.912866253802	-57.8799449589468	120.139261157132	-0.776716415551592	-77.5904653834636	
1024000000	-9.47915556554877	153.407096555152	-58.9558962661569	116.725271048393	-60.7463597398001	123.057078126059	-0.780669676905548	-78.2769699378455	
1024250000	-9.4863181669386	152.73434072339	-58.4614639803765	110.918981918144	-59.7963612472587	115.990620310858	-0.780765814161917	-78.9054840296006	
1024500000	-9.47842394793404	152.058473401955	-57.9990551552672	120.500939220234	-60.0460335152573	126.547213426546	-0.781277934697682	-79.6116930702379	
1024750000	-9.48307463840719	151.357188713868	-57.3915939899496	129.460301186096	-58.9827162530074	116.574869313155	-0.782885043499923	-80.2780019276136	
1025000000	-9.46807170840686	150.722816201143	-59.1558330347266	118.050806120946	-59.4681016860223	127.252990515554	-0.779695142710067	-80.957704382864	
1025250000	-9.47401418211651	150.125309345068	-58.1225681557097	115.077739412875	-59.6201938194019	123.660955534061	-0.775404887603385	-81.6309539504798	
1025500000	-9.46910952737221	149.48024852508	-58.1775348518931	109.244897002133	-58.4382728063294	127.26591624136	-0.779075840207093	-82.3252199648135	
1025750000	-9.4585159816071	148.783801499494	-58.6093221700815	116.003233932304	-59.1619236879189	110.689523276327	-0.778045974250087	-82.9750394647882	
1026000000	-9.4650592064892	148.073832006676	-59.2313586594849	116.780946356206	-59.6581085878167	114.119774609976	-0.78216390898564	-83.6960683969772	
1026250000	-9.46588273581136	147.519737459647	-59.2237876675919	109.777509394562	-58.4614094079819	113.50440521793	-0.779532813996097	-84.3569470485771	
1026500000	-9.47589296218888	146.820147519407	-58.5630578341421	117.364696430663	-60.6907448645649	105.656832552776	-0.780453720264987	-85.0067719990253	
1026750000	-9.45710721770183	146.187804611324	-59.2328316666597	119.018362417537	-58.7070357800907	118.589763961925	-0.782785363009845	-85.6884978898656	
1027000000	-9.45344466522699	145.481526679283	-58.3572339768831	113.322954605376	-57.9957233528759	105.093394104063	-0.784612331221801	-86.3917467301098	
1027250000	-9.44453282719644	144.847753417706	-58.0720516811546	109.573557170119	-58.799144846846	110.457354579865	-0.782009244829179	-87.0782715589377	
1027500000	-9.45386124294059	144.173427251228	-59.7070124902764	108.899990403725	-60.1125932860941	97.9699083848717	-0.785677347506309	-87.7333586540057	
1027750000	-9.43661574045646	143.477835249104	-59.1790543851791	108.284974051897	-58.5332801010216	116.222718159347	-0.782513342225137	-88.3922267621851	
1028000000	-9.4558281268239	142.810652695083	-56.7892052932831	101.350328320516	-59.4092318553377	118.112318300666	-0.785154521660137	-89.0812324354206	
1028250000	-9.4430828035071	142.137333935628	-58.394743772787	100.956492269206	-58.9413522575207	93.2368153949372	-0.784435737487211	-89.7684194474341	
1028500000	-9.43969173259443	141.573785788025	-57.6864625857238	107.992136838992	-58.2309130738568	112.173561560846	-0.787455976108791	-90.4349603186013	
1028750000	-9.44154681627528	140.8700672664	-59.8491256600688	116.300551061987	-58.8779836319039	99.5283458687427	-0.788659545771078	-91.1162247365675	
1029000000	-9.42790296695545	140.20493297328	-58.0033345889645	101.147284297881	-60.1636640800566	108.116187319792	-0.78679119232065	-91.7866663807737	
1029250000	-9.43191599058514	139.596801829997	-60.7054256647206	107.898263871539	-59.756912424184	105.369688917347	-0.791251941522821	-92.4585250333647	
1029500000	-9.43467698496406	138.844782569071	-60.181025035923	100.635352291403	-58.1677174552512	108.175171371918	-0.788278240253063	-93.1439388948725	
1029750000	-9.43701120550867	138.233745956464	-57.2907383432863	105.240753506086	-58.7501212700492	103.101384209924	-0.792009080285912	-93.8181508812773	
1030000000	-9.42293328557777	137.606558935352	-60.4714134836933	95.4134146930834	-58.4876893721434	100.47147869507	-0.793975099578136	-94.4939478358681	
1030250000	-9.42557177468695	136.968704729901	-57.8139169823048	101.052484221711	-59.2817210879371	101.794084771164	-0.79648778460417	-95.1727195231381	
1030500000	-9.41715272150491	136.286605446421	-59.6453795711279	93.2331006729874	-59.0531081467001	109.368548684736	-0.787483731210706	-95.8652642370222	
1030750000	-9.42010568288132	135.58818388305	-57.6664538006346	99.3105856895579	-57.0129702219056	108.285011030016	-0.799229839448467	-96.5240897970881	
1031000000	-9.40808241523403	134.95433986921	-59.6621094024105	92.9332676105876	-58.4504428474655	97.7480682481326	-0.795271227658891	-97.180393075282	
1031250000	-9.40022766554415	134.263096674121	-57.8179017032304	93.8292860303087	-59.7607312574666	106.993011793118	-0.795136236587947	-97.8666181940305	
