!Keysight Technologies N9923A: A.08.15
!Date: Friday, 16 February 2024 15:21:21
!Timezone: (GMT-05:00) Eastern Time (US & Canada)
!Model: N9923A
!Serial: MY52412730
!GPS Latitude: 
!GPS Longitude: 
!GPS TimeStamp: 0001-01-01 00:00:00Z
!GPS Seconds Since Last Read: 0
!CHECKSUM:1122250747
!Correction: S11(ON Q)S21(ON Q)S12(ON Q)S22(ON Q)
!S2P File: Measurements:S11,S21,S12,S22:
# Hz S DB R 50
1000000000	-9.60391959467838	-144.36342440072	-59.8790293722127	-155.512687955937	-58.1808065817234	-161.099234087911	-0.749526994452746	-13.2948080062764	
1000250000	-9.59866128617405	-145.043213791756	-60.1577806126882	-153.750766952182	-58.7172215344048	-157.546611156953	-0.752194544680025	-13.9813374655659	
1000500000	-9.61212155459101	-145.656682789803	-57.6845533417208	-152.353406799759	-59.1577070613681	-154.350777307571	-0.746637007148356	-14.6868919759932	
1000750000	-9.60587112246614	-146.241380162034	-58.4648823630483	-163.932664541407	-59.3752045825195	-157.988950696054	-0.751220313900512	-15.3471384785338	
1001000000	-9.59873607900557	-146.966648543049	-58.8483512024711	-154.888747240534	-59.3260784437322	-166.092601727322	-0.74748903722114	-16.0389141146743	
1001250000	-9.60897799150606	-147.559651758097	-59.5580261690289	-168.66482121869	-57.4446915568606	-152.208192791083	-0.746367863595818	-16.6976172926815	
1001500000	-9.60190837704247	-148.284830529466	-60.0248966322145	-154.59216616819	-58.4547025523947	-170.047152277871	-0.745998250255804	-17.3738502655147	
1001750000	-9.59903414631842	-148.839755264916	-56.5219431169206	-164.446390480948	-58.9756761086715	-163.32884856582	-0.744394886409877	-18.0567103892059	
1002000000	-9.60406643638061	-149.516300459181	-57.7234318748553	-160.622330508263	-57.4421603683936	-149.631502745182	-0.747353411104923	-18.7479089693833	
1002250000	-9.59881360819843	-150.151220036093	-58.9416996086147	-175.009507700593	-57.6184930862519	-157.730974009739	-0.745321027580224	-19.3969713817371	
1002500000	-9.59955080108168	-150.801755221488	-58.9832586005364	-168.09151073725	-58.9987728371339	176.40449915379	-0.745860474471424	-20.093725735217	
1002750000	-9.59823986686746	-151.390525644297	-59.7846393298402	-168.62363450359	-59.5795065105625	-173.890543426475	-0.745116090641639	-20.7473071262762	
1003000000	-9.59246873289733	-152.094534743743	-58.1290891103427	-163.488526786688	-59.4321677884563	-159.11723277856	-0.745721266051038	-21.4415478872919	
1003250000	-9.59405366336221	-152.73665304586	-60.1804556862397	-166.12457170888	-58.7964754963682	179.782094733146	-0.747000073915271	-22.1272665506071	
1003500000	-9.5977300776251	-153.35156851428	-59.3970303264549	-173.69922292647	-57.8794628208561	-164.071248122464	-0.739900773206278	-22.790104553359	
1003750000	-9.59715034384854	-154.00986404671	-58.6219405479437	-162.801182420236	-59.3143786513867	-168.997569087295	-0.744074477466206	-23.4653854553628	
1004000000	-9.59042151685425	-154.634238446049	-58.0916558473434	-179.134977546022	-59.6545872832928	-165.411564108318	-0.745105945777973	-24.1294651881126	
1004250000	-9.59618505689382	-155.313644875321	-59.6305356341085	-166.360547200994	-57.9130401788729	-175.165101504908	-0.746430124715403	-24.8244544283791	
1004500000	-9.6049365102235	-155.954700556748	-58.5497606255991	-175.765584917175	-58.9324666822223	-179.332972041018	-0.747898109750251	-25.4887362367972	
1004750000	-9.59514193556099	-156.593641375639	-58.4381101611008	-167.951968478085	-59.3446281022598	-171.040628442105	-0.74474540304247	-26.1794588339512	
1005000000	-9.59758636542453	-157.250846608775	-58.81947233772	-176.526426560037	-58.0338913920541	-173.464818480436	-0.743351410150683	-26.8571164957968	
1005250000	-9.59080888797567	-157.881073569414	-57.8098830518788	-174.238609144174	-57.9398232088472	-171.132336153457	-0.742351311790798	-27.4984212218397	
1005500000	-9.59124118929322	-158.538070194067	-58.4525144067341	-176.648018547488	-57.897885105228	-167.97181497208	-0.744238468776627	-28.1935060290314	
1005750000	-9.58955945678676	-159.192755529362	-58.4544398360114	-179.300947790784	-58.3070838819906	-170.57185928669	-0.741668322318039	-28.869668294818	
1006000000	-9.59803286427897	-159.818268402534	-60.2245590016112	-169.854305268155	-57.8548231965809	175.576826693188	-0.744706756513979	-29.5446766374322	
1006250000	-9.58993565915959	-160.470998694287	-59.828813221059	-171.713555489542	-60.5860762531412	-167.690314981312	-0.742889073054557	-30.2234010019121	
1006500000	-9.58751253330907	-161.135598796545	-58.9864710665016	177.422814008906	-58.4677629843068	-175.345846003338	-0.741080073128106	-30.9016142725581	
1006750000	-9.59111114776908	-161.757180593976	-58.7853439139578	-170.806521947941	-58.7686272234525	176.828273659217	-0.745852951966455	-31.5926493529787	
1007000000	-9.57986244105401	-162.481439257729	-59.0667925795433	175.948078694136	-58.9493636997408	174.164996777206	-0.743907625520554	-32.2263210515271	
1007250000	-9.5854768141262	-163.0473477437	-59.025537650484	173.380932381916	-58.153900382088	-175.75752183949	-0.740515192417339	-32.9326311273347	
1007500000	-9.58999262383615	-163.700611168281	-57.9665120517411	178.078297510595	-58.0906899401392	175.112698892902	-0.738979719757175	-33.576199075041	
1007750000	-9.57762436124215	-164.301657349138	-59.3416748286902	170.701154885709	-59.2228586402547	-178.061110535727	-0.746139890085554	-34.2797652830033	
1008000000	-9.58571693917186	-164.990595761097	-58.7603274045383	169.253165642047	-58.336483923645	178.821970924465	-0.741240518863504	-34.9273500646744	
1008250000	-9.5731848068095	-165.640356727845	-57.642349053354	-179.48343531746	-59.793647417034	174.208263452842	-0.742067796425954	-35.6211029095418	
1008500000	-9.58637532499862	-166.290375544958	-59.596577618294	167.773809978073	-58.5086528169325	165.761786855946	-0.742736891030487	-36.2973785846289	
1008750000	-9.58045950110225	-166.932898747721	-57.3840591635569	173.44308271517	-61.1555864692831	157.327393481832	-0.73878143435586	-36.968269055831	
1009000000	-9.57777198562125	-167.619594070521	-59.8575068402934	173.849392033617	-58.8607752061162	171.231442723825	-0.745151529224012	-37.6672989632968	
1009250000	-9.58228393283287	-168.290012809192	-59.1322394922867	170.264786671644	-59.8027744959198	-175.597510852193	-0.741319327002449	-38.3002972028335	
1009500000	-9.56593928372519	-168.920926780724	-59.3539688126682	169.858478388984	-60.2438668878759	170.963489412531	-0.741357176759368	-39.010725394422	
1009750000	-9.57303323037532	-169.549950805639	-58.6546763534601	159.889376568197	-58.2680889500441	173.324104918874	-0.740520652145981	-39.660280852381	
1010000000	-9.57557159090103	-170.165548808561	-58.3340503690419	168.471286152036	-58.8112423664894	172.302514075853	-0.74275867467333	-40.3717945559214	
1010250000	-9.56856776489985	-170.892537015074	-60.0121500010181	173.033910698759	-59.9690984743419	174.224087690103	-0.74207099793852	-41.0276940099417	
1010500000	-9.5725400242719	-171.499884374069	-56.8383070410108	170.135228756368	-59.11679251556	167.636209014068	-0.74247269669698	-41.7128903084303	
1010750000	-9.56604258872731	-172.147740731203	-59.6712450243586	162.701399470227	-59.0873456468767	169.585433309625	-0.74579561186292	-42.385731630836	
1011000000	-9.56625824663669	-172.774105560954	-58.5462546219255	172.942480950843	-58.3373097383842	159.662098021145	-0.745790347995775	-43.0658246540229	
1011250000	-9.56017845383068	-173.525368366139	-58.1662951316638	164.006489234137	-59.570344449955	172.259411865536	-0.74151507288728	-43.7310932220588	
1011500000	-9.56507282933749	-174.118010676386	-62.3095843367389	151.81908476323	-57.8154617249251	161.740939639044	-0.74257091282359	-44.3976170865622	
1011750000	-9.55970761207491	-174.789477538003	-57.9059407765717	162.671421093956	-58.5179688522153	164.064316255815	-0.741758975731669	-45.0631789754407	
1012000000	-9.56002875220312	-175.421763456801	-58.4658053862653	157.148283387529	-59.0821449766889	156.402464067858	-0.743131350158151	-45.7372305386904	
1012250000	-9.55687057950733	-176.108372738524	-57.4313569764875	164.48895427375	-60.2704001702276	159.891673805686	-0.743952687005267	-46.4115704743451	
1012500000	-9.55931081097333	-176.744048020694	-59.6389027149244	152.843434516354	-57.8564931766732	166.292226975522	-0.743902845468085	-47.1117325190659	
1012750000	-9.56458989443223	-177.338468740422	-58.0763008067358	151.907877671775	-59.3287262760519	156.928854721834	-0.744035726471489	-47.7881635373804	
1013000000	-9.55959695880937	-177.988309976126	-59.213399239035	161.792207246167	-58.6514228887677	158.351193165214	-0.745353187698369	-48.4323661742678	
1013250000	-9.56036966937821	-178.665248056674	-60.350862175187	150.866104618209	-57.9786570457276	144.929534453297	-0.737844614894069	-49.1424664014105	
1013500000	-9.56480016753072	-179.331065027506	-57.8737978511627	162.821943681871	-58.0946600843018	150.285617132538	-0.744236132924651	-49.8104756544638	
1013750000	-9.5567800680837	-179.982175235554	-57.8874047435059	158.7464085972	-59.6917404504191	156.458363074925	-0.743228826543071	-50.4789941911319	
1014000000	-9.55518292951709	179.400465909565	-57.6896876946705	153.128262921791	-59.2365737637576	162.51167071834	-0.743334651306121	-51.1475321475775	
1014250000	-9.55656784486991	178.704199659026	-60.2153410562372	150.082891586027	-59.9282181542544	157.263133338279	-0.742303489384839	-51.8395429371385	
1014500000	-9.54485165421729	178.009343037786	-59.5049951198106	154.901337714871	-59.5509433445725	155.782205663019	-0.749948316121636	-52.493278321347	
1014750000	-9.53998645141276	177.411777673034	-58.8120236738461	152.195720685035	-60.0324527090619	159.608083895529	-0.743930035453577	-53.1927862881491	
1015000000	-9.55536631495764	176.764307326323	-57.6503750821264	153.235479416702	-58.9150022409396	159.562164110769	-0.744996080280948	-53.8249299827632	
1015250000	-9.5544130612674	176.162046255299	-58.6886100489211	151.343749889218	-59.7351403523471	160.158911933463	-0.744660587284249	-54.5245925421629	
1015500000	-9.54093415812332	175.437814999826	-59.7876845808118	151.826667163019	-59.8468579394448	158.783552150345	-0.744049449637606	-55.2059455013801	
1015750000	-9.54816280570256	174.782282949026	-60.3704862076906	157.748148501533	-58.7786054783048	151.293351506219	-0.747288335716087	-55.8739844695687	
1016000000	-9.53467839489774	174.117495016896	-58.6725172827775	154.793238302085	-59.2125118384781	141.738878301338	-0.749458134628221	-56.5490687347866	
1016250000	-9.54031698377291	173.493705795794	-58.1658194311003	160.808058547274	-58.0627540644806	150.876403721465	-0.746519233234554	-57.2267770627447	
1016500000	-9.53990374156437	172.782673532422	-59.6732070960641	146.693700863085	-57.6112187439314	145.962598596658	-0.747220673037808	-57.9054750688047	
1016750000	-9.54125344971162	172.099287490031	-58.520395378897	138.502035169999	-57.7566536051697	139.944130512886	-0.74581411110308	-58.5675217421197	
1017000000	-9.54279303378154	171.5102831331	-59.3891785983153	137.656197995505	-60.4654712323442	147.786425820947	-0.747495213379426	-59.2416305000201	
1017250000	-9.53836732446347	170.808572454259	-59.3060767896854	141.294818539384	-58.350240648596	145.136199240878	-0.749014680510503	-59.9162711232824	
1017500000	-9.53260336455281	170.120391112656	-58.3001566264686	147.148517697252	-61.1948301310037	146.111993344633	-0.745096097425585	-60.5871428145018	
1017750000	-9.53615118995135	169.537722410636	-59.797235903228	140.606200223648	-58.7718788524849	147.03621909806	-0.74840989851474	-61.2571614482276	
1018000000	-9.53541976520751	168.901193221737	-59.3073374334367	144.209256549361	-60.6867605539927	147.188481510877	-0.74825537727888	-61.9447592897701	
1018250000	-9.5374457441925	168.261384434303	-58.1785095755205	142.385940101351	-60.9797118710105	148.847741441822	-0.747268748488652	-62.6298621778856	
1018500000	-9.53217462747232	167.552939213241	-59.298603047127	138.489120638229	-60.4683921902572	143.218156691103	-0.747315847154714	-63.3109676013812	
1018750000	-9.52543317348911	166.936434829632	-59.5597646042549	141.289722188052	-59.7177306017485	134.653992500482	-0.749949160914985	-63.9776562292151	
1019000000	-9.52896380198107	166.275799229366	-58.813243572782	140.209469476573	-57.6322131022036	144.416840602207	-0.750012740780954	-64.632151570018	
1019250000	-9.52003315544858	165.559246587108	-59.3271867149023	129.771334793005	-57.4546238025249	144.580262381286	-0.750098919663281	-65.325466834663	
1019500000	-9.52792857098312	164.974641447832	-59.1250390055837	138.093689045472	-59.2331533634245	133.004481773512	-0.753350237980211	-66.0066209309504	
1019750000	-9.52253916765643	164.309277272779	-59.6307946181311	135.482816445616	-59.443146559134	136.412631640404	-0.751545858518775	-66.6499957050319	
1020000000	-9.52698225036552	163.64096480622	-57.9874897778859	144.56208843092	-58.039348546551	130.184661271355	-0.7519242740592	-67.3568472559589	
1020250000	-9.51619017303824	162.973159288029	-59.2337965210026	129.587250962774	-62.8927726459459	139.918593312705	-0.757102632170649	-68.0238002641227	
1020500000	-9.51643614848966	162.254827417406	-59.1657081901997	131.804706232661	-60.6013907593202	135.875997825857	-0.752596077938609	-68.6892546195207	
1020750000	-9.50899803757165	161.700059096242	-57.8347697530137	126.921543631093	-59.4318710974939	137.104686156942	-0.751439405658976	-69.3679865242129	
1021000000	-9.513497949947	161.005343541993	-58.7068957357556	128.690092124136	-60.1158034930738	141.621464966268	-0.75335825574891	-70.0708114542714	
1021250000	-9.50739586359542	160.372333415368	-57.7760941549364	128.528171015881	-59.6570239836479	135.822515432048	-0.754376676298555	-70.7093771419437	
1021500000	-9.50547260719096	159.622463203665	-58.4514250251888	123.939911594024	-59.025216100624	129.204912412061	-0.755146710886987	-71.3597537664177	
1021750000	-9.50358008838108	159.053605846119	-58.2900912136862	129.210086364794	-58.5007212531742	136.142082641572	-0.75929471359929	-72.0849701550532	
1022000000	-9.50459671383654	158.352034230043	-58.9524273599759	136.611017243527	-58.4567787648635	136.011307171779	-0.7549168606259	-72.7512388860635	
1022250000	-9.49462938245603	157.654875697097	-58.0185258802635	135.372841691239	-59.9810837214907	132.43249057818	-0.758526488895056	-73.4412405770965	
1022500000	-9.50222570762266	157.043357184572	-58.3127314081194	115.584307302357	-60.9735759484057	125.680532666882	-0.756977353882668	-74.1027413925249	
1022750000	-9.49071387426868	156.414993650733	-60.1931559405748	135.51843328855	-59.455938196103	124.343412875508	-0.755065547091232	-74.7622310421548	
1023000000	-9.50336523105636	155.685571887539	-59.5976712092218	136.363814745164	-59.0567489717014	130.814050509553	-0.762345782550873	-75.4544552363448	
1023250000	-9.49439322333028	155.03630658313	-58.7983763336915	120.493101586898	-59.5248847686931	124.022795407392	-0.757613850099718	-76.1267628254915	
1023500000	-9.49364983325247	154.396674086304	-58.9206623014139	125.556744419802	-59.3782010636774	126.404549236615	-0.766970995186053	-76.7954114212608	
1023750000	-9.48324049385962	153.750364345302	-57.7034373861916	126.637566562944	-58.7948380583631	122.815789711634	-0.763268399133397	-77.4718223140774	
1024000000	-9.48046644156673	153.094087502482	-57.9021724010615	122.569168320828	-59.4083060851037	120.413223673857	-0.763459513096245	-78.1599378503911	
1024250000	-9.48919013752649	152.41385212603	-59.025722346478	118.209615388354	-58.7954341195799	113.834968405436	-0.758598347380295	-78.8040322985168	
1024500000	-9.47075428562519	151.774061235807	-57.8367850928614	112.376060559059	-60.2650030852649	119.551753290986	-0.765126387899374	-79.5152650660182	
1024750000	-9.48078118811822	151.139560975048	-60.6732001128725	115.961422395059	-59.1237371950195	117.944421267249	-0.767307896926268	-80.1586746959718	
1025000000	-9.4701880444898	150.483941168865	-59.2513065850413	113.684301968929	-58.3816138298587	126.835198362694	-0.762559793505583	-80.8485338188	
1025250000	-9.46845581906841	149.814042737771	-58.4291961505436	113.304518088882	-61.1724079310075	126.38458210074	-0.759583230482242	-81.5303016755768	
1025500000	-9.46959144702145	149.209886691148	-59.1666537217146	109.21061294588	-59.5159018216445	122.611254281798	-0.76461478774532	-82.2069741064634	
1025750000	-9.46347245140331	148.504948676543	-58.0808972741421	110.447970387966	-57.4149655448778	114.45131818235	-0.762644226020424	-82.8956013788543	
1026000000	-9.45517866775443	147.785152081632	-59.1577936878717	123.443141269123	-59.9981600018806	112.573936713862	-0.771253165306871	-83.5726642006809	
1026250000	-9.45395749908215	147.223613352767	-58.7583831242535	120.030342564437	-59.0973708104642	122.028691507905	-0.765459081619753	-84.2323135777393	
1026500000	-9.46571917321412	146.485212129435	-59.0874612407106	115.506282496777	-61.3575578303766	110.213557175378	-0.766614359297091	-84.9265352805312	
1026750000	-9.46118673731671	145.837497605409	-59.5111249489148	115.2344398934	-60.8555746207315	108.994556461364	-0.76599175161837	-85.5591501476585	
1027000000	-9.45477370007613	145.156282695814	-58.4269455555027	110.803573316979	-59.0666093096093	118.414670660117	-0.768571594768541	-86.2745768769371	
1027250000	-9.44399161633494	144.540409820679	-62.9151527979273	109.660449703048	-58.8014581883581	114.112467339978	-0.768926882416846	-86.9330118105076	
1027500000	-9.44920553406386	143.861657883654	-60.4080616048416	116.710087700212	-60.3538136954944	119.807241132538	-0.768537420031636	-87.6239252722534	
1027750000	-9.42822493590209	143.218657155863	-59.3620626149083	114.260496828137	-59.4219780050095	113.565660363569	-0.767664255673736	-88.2936100264993	
1028000000	-9.45406357952854	142.560509196576	-58.8031897031831	113.10997796647	-59.3056872183344	117.004126043106	-0.774026088827064	-88.9790424588163	
1028250000	-9.445072669186	141.897787443221	-58.5512785417146	114.513593675302	-60.81560934356	111.667731086484	-0.772052599671777	-89.6446604896769	
1028500000	-9.44080452467947	141.267264169781	-57.2276456293689	98.1042722318871	-58.154399895183	102.734918591912	-0.774578998368287	-90.3280926612864	
1028750000	-9.43192527049478	140.620004207046	-59.9117103928915	115.882789027687	-60.3213209766079	109.557814322052	-0.775601473531809	-90.9866900530146	
1029000000	-9.43024865862201	139.903314280782	-59.8254555049136	100.52437532023	-59.8056423233909	110.916185712836	-0.775898803053832	-91.6709328359797	
1029250000	-9.42809743253882	139.25206310646	-58.4106201047003	105.862269926293	-61.5333887746566	116.73471511936	-0.779639708187288	-92.3159287275229	
1029500000	-9.42381405673555	138.607617820403	-58.6974234993905	108.879020172204	-59.0668658803874	102.695674333356	-0.77441079300941	-93.0537330302473	
1029750000	-9.42493675706243	137.923716059997	-60.3871085191677	97.0877640078568	-59.6458097853416	101.500420590892	-0.778173460427	-93.6861709525821	
1030000000	-9.41585368475956	137.290773814819	-60.5205791933502	111.962267583961	-58.5297542310059	101.566426046532	-0.782700144285283	-94.4036838252749	
1030250000	-9.41703846119994	136.64953286411	-60.5024661472242	103.497979764535	-59.960130782812	104.474921251277	-0.781249652456915	-95.0798776338965	
1030500000	-9.41061409973618	135.997166993215	-59.2661411887005	98.6029123552259	-60.4478526449649	113.026732930068	-0.780993134012153	-95.7237333878366	
1030750000	-9.41485502410107	135.295823476546	-59.6895822893534	109.425765776323	-58.7572567972361	98.0614683920214	-0.784367144906777	-96.4174992063971	
1031000000	-9.403052648852	134.608239283577	-58.3075072020361	101.703471147755	-59.3159141008708	98.0926524620744	-0.786391765481591	-97.0979120374637	
1031250000	-9.40356636082163	133.965759043871	-58.8378305209054	99.9947096866452	-60.841527285749	99.3624334379793	-0.783002275508383	-97.7680251472016	
