!Keysight Technologies N9923A: A.08.15
!Date: Friday, 16 February 2024 15:23:23
!Timezone: (GMT-05:00) Eastern Time (US & Canada)
!Model: N9923A
!Serial: MY52412730
!GPS Latitude: 
!GPS Longitude: 
!GPS TimeStamp: 0001-01-01 00:00:00Z
!GPS Seconds Since Last Read: 0
!CHECKSUM:0750090515
!Correction: S11(ON Q)S21(ON Q)S12(ON Q)S22(ON Q)
!S2P File: Measurements:S11,S21,S12,S22:
# Hz S DB R 50
1000000000	-9.59891643124431	-144.362997909775	-57.6324595650143	-150.754362050304	-57.9992829701759	-147.690832812096	-0.761255726262612	-13.295655050636	
1000250000	-9.60132632650091	-144.983790871989	-58.410822879688	-155.748191152792	-59.0036819369994	-145.074924909942	-0.762018881343309	-13.9651193508223	
1000500000	-9.61100119398463	-145.658033393583	-58.0063321250541	-146.717160648376	-58.6667847839197	-145.445142945211	-0.757932381844707	-14.6434671226068	
1000750000	-9.60207598500412	-146.253681624671	-59.6310681494469	-146.956015071731	-60.0391073445397	-148.674206050595	-0.762396995094924	-15.3145854202739	
1001000000	-9.601272246513	-146.880799140584	-58.2216659677226	-162.352682413291	-59.0065807565096	-152.843263754573	-0.758293878023596	-16.0072237125196	
1001250000	-9.60549791394145	-147.507096600083	-58.3563306474696	-146.290324573909	-59.7783988813537	-143.289815929376	-0.757986829729556	-16.6950306745169	
1001500000	-9.60895515777663	-148.178959553838	-57.7919476505121	-155.298395953417	-58.8636121241698	-142.636028787775	-0.751939947832725	-17.3463398758312	
1001750000	-9.59910576896108	-148.77486302403	-57.2765453657169	-159.965469013156	-58.4790898643146	-154.786700590031	-0.758879489202126	-18.0459448372536	
1002000000	-9.61009274245238	-149.495115517104	-57.9087168812233	-165.844355974996	-58.4570757921511	-154.428681845375	-0.756840827194852	-18.7417920080593	
1002250000	-9.59000898762944	-150.10791821531	-58.8905255239663	-156.208050656581	-57.679762427106	-159.490916624574	-0.755988158390925	-19.3861841305406	
1002500000	-9.59974395879344	-150.732041628801	-58.6990139906481	-147.593613565217	-58.2577533788035	-152.175491844985	-0.757786649351588	-20.0737280359189	
1002750000	-9.59932768445914	-151.373247950513	-56.7000609460889	-155.62425572753	-58.1186568304397	-157.289652285448	-0.754269080243903	-20.7293864083664	
1003000000	-9.59940005188405	-152.06495311141	-59.8548727337537	-159.692959495895	-58.506449278609	-151.104522263906	-0.757183206000367	-21.4171283066702	
1003250000	-9.58811597724219	-152.640353258094	-58.2427377672656	-159.353817833302	-58.3835355425032	-153.002077322718	-0.752756618880615	-22.0950642797268	
1003500000	-9.58529139989413	-153.287288946575	-59.347778241533	-165.015807968528	-59.4664035288031	-161.851052393145	-0.753744018641165	-22.7790233055247	
1003750000	-9.59728273854054	-154.008989183615	-59.090712851232	-157.870277033903	-57.2619596204453	-166.87141052046	-0.75618929178068	-23.4535031562047	
1004000000	-9.58706039437715	-154.632432950368	-59.1772657813485	-170.455232909781	-58.8604118388128	-153.533789692385	-0.755106309835771	-24.1108165303593	
1004250000	-9.58397873652478	-155.274988881661	-60.2786463006844	-162.315318639643	-59.2248880024778	-155.52133753298	-0.756131163880299	-24.7964984862674	
1004500000	-9.5996511435718	-155.957794692367	-57.1747091692837	-164.397392213596	-58.0815065362683	-162.096667528244	-0.757911697429261	-25.4837953964559	
1004750000	-9.58714549662755	-156.587621208529	-57.6264843061278	-168.637047721342	-58.3592079776989	-167.582712840987	-0.752720502187347	-26.1606516911693	
1005000000	-9.59296578518635	-157.22579341788	-59.2364700094469	-173.984087843067	-59.2920683610794	-174.053115941307	-0.754469268461253	-26.8344673563159	
1005250000	-9.58001155205205	-157.863930527898	-58.7434909911078	-172.169732827777	-57.5375535979601	-157.713926259907	-0.752427554182474	-27.4826778702916	
1005500000	-9.58960447959913	-158.455977983251	-59.8251050087789	-163.643642603286	-58.578712431832	-159.267712320574	-0.754202000436935	-28.1660736810075	
1005750000	-9.58434179273218	-159.113798995	-57.6043929531669	-175.387493457144	-59.3895234998354	-165.227196260566	-0.753276980757636	-28.8456572130761	
1006000000	-9.58786287660001	-159.797288680724	-57.5010575012559	-175.344220742426	-57.6079084558961	-167.117292884375	-0.754545705776472	-29.5349735742656	
1006250000	-9.58227990463799	-160.403698450297	-59.7153560130068	178.1405138002	-56.5885944737925	-171.369802439484	-0.75193679523022	-30.1916198993037	
1006500000	-9.57997378963445	-160.988634762895	-59.295427079343	-179.479697833517	-59.29037945878	-161.692300461666	-0.752398057817685	-30.8767818454778	
1006750000	-9.57886959455894	-161.777440741936	-57.2206519470798	175.838633245582	-57.3770479847272	-176.051872182313	-0.754267811078992	-31.5689335085065	
1007000000	-9.57053085210551	-162.377285285488	-57.7441867587549	176.028547808744	-62.4050955790452	-164.94272593619	-0.752296155660004	-32.2266352097031	
1007250000	-9.57951560730438	-162.996847118208	-58.2403317889014	-174.311204626655	-59.9135200262565	-174.11908666895	-0.754841585789821	-32.9160398396512	
1007500000	-9.58923090010107	-163.629755853607	-59.3071131199089	-168.227508270803	-58.6387642194264	-166.293104914072	-0.751955986696549	-33.5753036716259	
1007750000	-9.57725391641316	-164.227674306042	-57.8650845164289	170.404463086114	-59.4922799898069	-168.048133995063	-0.753464564588266	-34.253660060632	
1008000000	-9.58869961409953	-164.949271627574	-60.5620499478317	-161.296094745686	-57.9650113205459	-169.790920721524	-0.750604463154693	-34.928645545869	
1008250000	-9.58029204358531	-165.599598317176	-58.8856696948251	-174.293785319986	-58.2002508390431	-162.205930198063	-0.752392040853931	-35.6306016957479	
1008500000	-9.58317663411986	-166.287920929698	-58.3373518645175	-178.254685509627	-59.4735020716924	-175.85100279131	-0.75236487215977	-36.2921192351835	
1008750000	-9.58033524757612	-166.905126277401	-58.6502039531197	170.241845217972	-57.7722117841342	176.085158025084	-0.749392458972273	-36.952870467363	
1009000000	-9.58207560415162	-167.491986320497	-57.8587911284434	169.999843694409	-59.2755370020687	178.979562872006	-0.752571320746427	-37.6472773512365	
1009250000	-9.57070322360747	-168.223569722916	-58.0394363017507	178.475425953304	-59.8319101781779	170.48925561778	-0.752760995077118	-38.2882460238078	
1009500000	-9.57683099641299	-168.839194750215	-58.6760667513862	176.455472582639	-58.1665235838717	168.891962707961	-0.74886411599312	-38.9924147020019	
1009750000	-9.56757989445295	-169.517713316277	-58.6605815141151	163.02351158364	-59.4328356852437	178.395694001386	-0.748710594327572	-39.6612970203718	
1010000000	-9.5627209791602	-170.0714925237	-58.6185542873561	168.007081205	-59.1978699434261	179.762636236023	-0.751477666751771	-40.346665671329	
1010250000	-9.5662727293356	-170.778083806889	-58.9715976751991	-179.922094765412	-58.7450732286985	-171.083645452134	-0.749100525599347	-41.0081654905737	
1010500000	-9.57045511400493	-171.49718811283	-59.9335400350694	165.822284770151	-58.9205295842119	-177.474229847562	-0.751861563100398	-41.7080939721378	
1010750000	-9.57595203313872	-172.167465317747	-59.0596137238283	161.137657727868	-57.7359698266924	178.467178545737	-0.753438336079556	-42.3798897560839	
1011000000	-9.56663182256473	-172.703910848904	-59.207741235117	171.310781452499	-56.6488631742005	177.232018418322	-0.750134846430855	-43.039307251725	
1011250000	-9.55638123325869	-173.36004961003	-58.4258401108635	161.767546906357	-58.9222201233099	170.767447699118	-0.753408090879125	-43.718659886965	
1011500000	-9.56014865099143	-174.006757764346	-59.033618576247	171.951975532483	-58.4972860136447	172.730124595614	-0.750664170513697	-44.3796427415823	
1011750000	-9.55998083138826	-174.732722392702	-58.9470559527752	172.535341438662	-59.1413685533223	170.401093717942	-0.748947462288334	-45.0559885908051	
1012000000	-9.56789249290618	-175.325484855492	-58.8111916192138	166.84238016076	-58.4544573058539	168.626518339385	-0.75268839200775	-45.7310355869215	
1012250000	-9.55110048775302	-175.987252575936	-60.0305282518327	177.101049624634	-58.9321661193001	163.691003925775	-0.753850485983724	-46.3946071100587	
1012500000	-9.55622669480647	-176.651422969636	-58.4580481321891	166.215018104095	-58.0753985819494	167.802053762726	-0.748942515014168	-47.1037404615316	
1012750000	-9.55918276924058	-177.287019040469	-58.55656896019	163.917546975492	-60.3275566147562	169.111016634997	-0.751116247533578	-47.7646357915492	
1013000000	-9.55254904615435	-177.933832469437	-58.8180613789612	162.283597929245	-57.2398342564364	165.784109291655	-0.752989263817277	-48.4290438482978	
1013250000	-9.55672978805056	-178.615022721931	-57.3302150014318	169.219785223805	-58.8208959551103	165.229547212276	-0.750000732513483	-49.099010673025	
1013500000	-9.55796966943333	-179.249342039333	-59.8502900489142	156.498727404881	-60.0050311540921	167.034288707144	-0.752891339806915	-49.797851755672	
1013750000	-9.54801206876409	-179.860310905091	-58.9541245166681	160.744924958156	-57.645190005631	153.196974503765	-0.749513849808733	-50.4788172200159	
1014000000	-9.55986972699793	179.455159815692	-58.7002441413418	157.465310342978	-58.5547621422839	167.289300554953	-0.752144038578928	-51.1373873721577	
1014250000	-9.54707356495738	178.797778187976	-58.7248494562416	162.967850617964	-58.4721894530165	156.853192417515	-0.751137568750006	-51.8081826092526	
1014500000	-9.55028872114092	178.092111131144	-59.6157165914259	153.370471425756	-58.7905739090197	168.940339599342	-0.756468363008669	-52.4803103245334	
1014750000	-9.53926228422594	177.495576931311	-58.7101171317034	164.323826734616	-60.0823152429296	168.006173122421	-0.752129123625743	-53.1773157666454	
1015000000	-9.55075464943688	176.856405561096	-60.8862632856558	161.176350485593	-57.8480817656217	164.493565264708	-0.757082866377208	-53.8419393938551	
1015250000	-9.54985355390744	176.217625401699	-59.051862794208	165.231119655537	-59.9896243937456	163.546100901805	-0.752702751963837	-54.516439114797	
1015500000	-9.5453262764669	175.551515599032	-58.1651863222604	165.685734025656	-60.033514171636	165.797923274	-0.752439487723283	-55.1958411935968	
1015750000	-9.54126148368184	174.862394038889	-58.4598280865879	167.492974585988	-58.1353135194561	152.813587681514	-0.756489729135532	-55.8648502852593	
1016000000	-9.53546400890841	174.286171982929	-58.2796503321763	162.438524777783	-59.0159733506524	159.080906840669	-0.756275619127214	-56.526931653492	
1016250000	-9.54547722728093	173.539544498501	-57.3423826522985	149.552655686534	-58.5554389235193	158.516332137825	-0.75440229067942	-57.2146719842286	
1016500000	-9.52065276220679	172.906421310458	-58.9713533079878	158.327385105202	-58.0866544409312	155.676559579923	-0.755288342898265	-57.8792549135099	
1016750000	-9.53738790145919	172.193324335015	-56.4871480208382	155.680405861223	-60.5659430499263	151.949886523581	-0.754870437495064	-58.5502107243935	
1017000000	-9.53620508145595	171.572699787259	-57.5909076728507	148.133713910547	-58.1560193662405	156.009475518302	-0.757755148589579	-59.2382056512532	
1017250000	-9.54214135490529	170.93916937629	-58.3300719690684	160.130899026977	-58.2200948383673	145.624555667623	-0.752166536089361	-59.9229850302028	
1017500000	-9.52731176440653	170.293393635141	-59.257651973638	147.894853060316	-58.3256716808223	149.629427955198	-0.752046643809365	-60.5728312586703	
1017750000	-9.5338604404867	169.690647583274	-59.1896522471806	149.633391755777	-59.6902492956026	161.755249008916	-0.755203693694225	-61.2349692210238	
1018000000	-9.52438132224717	169.041269596789	-57.3075626712431	152.857633779554	-59.4021832327528	152.637694197131	-0.754441071496839	-61.9336238574805	
1018250000	-9.53467574854909	168.34435118966	-57.052367784582	152.733711742082	-57.7195693226826	145.641405189964	-0.753654820300701	-62.6334285356711	
1018500000	-9.53279560769184	167.684125966752	-59.3394494616678	147.812741690903	-58.6511625032394	149.55362699097	-0.751003050054278	-63.3027301523092	
1018750000	-9.51201201121631	166.999576951132	-60.2385900746532	149.732268848805	-59.3001626973182	152.803311446028	-0.756556458498145	-63.9653049345523	
1019000000	-9.51950340286888	166.35414218873	-58.1592852744948	149.07772317169	-58.3868465875643	149.903875467904	-0.757364735262738	-64.6297713179846	
1019250000	-9.52005698060175	165.73237615635	-58.9559992440856	153.261146443868	-59.3636387720056	149.761199047713	-0.756417147734738	-65.311403976151	
1019500000	-9.51731660541698	165.114931826084	-59.74894373676	140.250828064965	-58.242876349239	136.830293749874	-0.762187246459034	-65.9840934106747	
1019750000	-9.51718625792324	164.42822062298	-59.09734623953	142.202381979585	-59.3879798214798	138.546648395134	-0.759766895665385	-66.6446516446002	
1020000000	-9.52089916108493	163.77232358872	-58.011207799433	131.424851176716	-57.5083183970045	138.752593864385	-0.756341981412634	-67.3400856143936	
1020250000	-9.50362668270266	163.100865304684	-57.793590680178	135.672741659311	-57.8456073418562	135.160953160204	-0.761161884661511	-68.0114433559875	
1020500000	-9.51843112289672	162.440791017066	-58.8336654193552	146.655326381641	-58.8856858943396	146.419647963872	-0.759619280518125	-68.6652938385497	
1020750000	-9.51512747165881	161.791591822123	-58.745746204117	132.84986948836	-57.4540764322178	135.491818293272	-0.757512717510398	-69.3541821193122	
1021000000	-9.51112858860005	161.126141467202	-58.1669759616304	140.456717095159	-60.2891607175865	144.977287069054	-0.760331811095292	-70.0470483203339	
1021250000	-9.50505429245569	160.526613470673	-57.2704164895208	133.729110177799	-57.5305923998673	141.665100274503	-0.759741575773165	-70.69442321924	
1021500000	-9.50949731611546	159.712183631405	-58.4939187179391	138.071410250424	-59.2162645366321	143.94788640062	-0.758309451370741	-71.3756624061499	
1021750000	-9.50162081074392	159.248727983765	-58.0783152353616	130.954088289951	-58.3398306650171	124.660833526353	-0.762907702241625	-72.0810145862062	
1022000000	-9.50629330802854	158.476459615028	-58.6492983992985	133.606663046931	-60.4490047647658	136.307304440133	-0.760945642185374	-72.7505022484255	
1022250000	-9.49395527821792	157.843468376383	-57.7145976227679	129.36680380302	-58.6280123356535	135.468890126514	-0.763772702228914	-73.4282386098128	
1022500000	-9.49709427684898	157.183814731504	-58.6272973086523	125.819838069139	-59.3704744296665	135.129684990254	-0.762366057637218	-74.0816256384529	
1022750000	-9.49171155381315	156.483506437708	-59.443894253276	130.114009306102	-58.2543144296998	129.956599110627	-0.760634812590199	-74.7510913720521	
1023000000	-9.49886904408478	155.851630276839	-58.4373172143983	135.229629959888	-59.763746625429	126.6620684225	-0.762824511025458	-75.4357732948595	
1023250000	-9.48676349637554	155.161367125772	-59.0623178515035	130.178897394012	-58.9044561193039	138.523220233185	-0.762945834979982	-76.1515913742655	
1023500000	-9.49547321128729	154.494946765852	-57.709348506771	128.523550643961	-58.2265799391213	132.124163129285	-0.768283402461506	-76.7963059409093	
1023750000	-9.48535728501442	153.835260316073	-60.4650523538952	129.159227363625	-59.469452697318	128.833050586128	-0.768795167255556	-77.4759400608193	
1024000000	-9.47252948842277	153.251172564123	-57.8215329571092	128.334555873221	-58.0000620663097	128.992841370481	-0.766353808925805	-78.1531121705827	
1024250000	-9.48509528683189	152.569933936229	-57.2581184306657	128.79997811082	-60.1007178316657	129.58165555889	-0.766900395606165	-78.8202820852086	
1024500000	-9.47788339916856	151.869028676469	-59.4137576734504	124.428407989208	-59.0099349237145	134.77376058476	-0.770575963188346	-79.4856080178082	
1024750000	-9.48260398321165	151.233996354149	-58.7700370336977	124.607147459626	-57.9089974975096	135.880734106164	-0.769569987523044	-80.158601566181	
1025000000	-9.46750473002764	150.59892030103	-59.5361026719099	108.404869099458	-58.8673249963141	122.257802743277	-0.768106007039862	-80.8275622433236	
1025250000	-9.46645067615991	149.954871484182	-60.3204698849676	124.830234969948	-58.0212336675179	131.103110645435	-0.76387472340622	-81.5237561097599	
1025500000	-9.47347675661813	149.300865778474	-58.6309974827661	133.29850036968	-59.7817126930473	125.223241857365	-0.77092611830911	-82.2095068143328	
1025750000	-9.45573098101389	148.629196034809	-60.1652613763974	127.03897994778	-58.2051566555498	120.728306415957	-0.767728164469508	-82.8645481405158	
1026000000	-9.46629551472911	147.945475238846	-58.9063664383643	119.490525036845	-60.2231403536184	125.344152556154	-0.773857008486224	-83.5491429266477	
1026250000	-9.46092150402034	147.376875749771	-57.8316091134216	126.84382078484	-58.519722039856	122.443851567066	-0.771246935294325	-84.2132992768147	
1026500000	-9.46106929693958	146.613318106358	-58.2232478590021	117.210006873558	-59.237114475173	119.669692035088	-0.769278789192443	-84.903536542927	
1026750000	-9.46383656793464	145.912047956071	-59.7230305250026	127.596613010807	-58.6595540353389	122.469557177817	-0.768360264657466	-85.5536179755544	
1027000000	-9.45714021456792	145.312162314358	-57.3658265443385	120.637099123497	-58.0502748307905	121.922614853344	-0.773002559428495	-86.2757906796341	
1027250000	-9.45017810954121	144.688833501078	-57.7263281718557	118.213813792066	-59.6697767543793	117.68542029991	-0.770779249953376	-86.9034181489759	
1027500000	-9.44522318642182	144.045239164409	-57.5298512695053	116.939571903655	-58.0473524668849	113.960265494167	-0.775686903057566	-87.5993854416813	
1027750000	-9.42845508977215	143.337814840308	-57.8701703634395	119.759518297976	-57.4759816519672	115.481040907137	-0.770726631165851	-88.2965381866974	
1028000000	-9.45001065477572	142.660624420159	-58.5968372234401	115.763229986284	-60.5133218719305	110.86071110963	-0.776605896672942	-88.9690999537707	
1028250000	-9.44366356570072	142.026402814731	-58.5946522004158	117.59418111204	-59.4424212410895	123.834620730236	-0.773842809109189	-89.6318951630253	
1028500000	-9.44302252915857	141.409443158949	-59.8826331884503	113.19080219216	-59.4884025123105	113.675621770972	-0.778340068181958	-90.3131966519084	
1028750000	-9.43580304229258	140.712707399082	-59.6019764128235	109.724544211222	-58.353239760146	115.542436124798	-0.7764071044236	-91.0104989271708	
1029000000	-9.42783257300904	140.057040811832	-59.1114037462136	110.322839274522	-59.7419673671853	117.331970866114	-0.779290213411922	-91.6490141540953	
1029250000	-9.42890497035501	139.417413327915	-58.6004338781877	112.714416030628	-58.0277643151916	113.200713006004	-0.782855876529124	-92.335740256936	
1029500000	-9.43154914656034	138.750890233715	-58.7671025516016	110.19687437165	-58.4873578178399	115.568454486648	-0.777646291271548	-93.019673576225	
1029750000	-9.4300254166247	138.033381856662	-57.4268395893872	107.285333298647	-58.5895508868148	107.810567706537	-0.781862074663062	-93.6987602853345	
1030000000	-9.41932874051083	137.46671040777	-58.0449876055313	115.658212895677	-58.1304581718327	100.353338385983	-0.784758440467524	-94.4061616696886	
1030250000	-9.42029166594791	136.770675715185	-58.9637624289519	113.011100614047	-58.5748400351578	111.942201021663	-0.783901995242798	-95.0338157302327	
1030500000	-9.41588637729242	136.142031595697	-57.6350173742936	111.323278801238	-58.0500047184232	109.371650188564	-0.78450022102896	-95.7298395596407	
1030750000	-9.42181355566332	135.418449535655	-59.1330996849021	102.913149199344	-60.5854596986911	112.75717984317	-0.788241891745654	-96.4028747913286	
1031000000	-9.40232320062686	134.766358056733	-58.5443529552766	111.765074562068	-59.0365411274434	113.94903748313	-0.787638702231237	-97.1086942371344	
1031250000	-9.40407377197685	134.104361120026	-57.3453965119571	105.80532355446	-59.6089096152184	102.491015104411	-0.785786547899493	-97.7474266769737	
