!Keysight Technologies N9923A: A.08.15
!Date: Wednesday, 14 February 2024 18:11:54
!Timezone: (GMT-05:00) Eastern Time (US & Canada)
!Model: N9923A
!Serial: MY52412730
!GPS Latitude: 
!GPS Longitude: 
!GPS TimeStamp: 0001-01-01 00:00:00Z
!GPS Seconds Since Last Read: 0
!CHECKSUM:1648753571
!Correction: S11(ON Q)S21(ON Q)S12(ON Q)S22(ON Q)
!S2P File: Measurements:S11,S21,S12,S22:
# Hz S DB R 50
1000000000	-0.736698162286335	-15.0026164898559	-59.2306982326445	-141.336297273153	-59.1139504052399	-137.656810357085	-8.79196638943659	-157.693628381687	
1000625000	-0.737192215638164	-16.6861108099651	-59.1253833575016	-139.191291234964	-59.0150238064196	-138.742504556255	-8.79379043665022	-159.314398089002	
1001250000	-0.736235036011726	-18.3713094042369	-59.0430034498849	-139.772876679433	-58.7584291713548	-141.406474113797	-8.79603638161416	-160.927828332631	
1001875000	-0.736859415578671	-20.0582506415701	-59.0659827659545	-144.759229959828	-59.1077609219088	-142.525079227523	-8.79458698744354	-162.551295584144	
1002500000	-0.736960333578122	-21.7374469246506	-59.0578423950171	-146.220471613689	-59.2235329560616	-145.351077614808	-8.79554767694341	-164.173629075769	
1003125000	-0.736182445209626	-23.4231031479922	-59.2939907265583	-150.059632829855	-59.3355966423941	-146.089839510915	-8.79531748412263	-165.790379648586	
1003750000	-0.735733878743542	-25.1064846288208	-59.2978626155864	-148.566399774536	-58.9830605516196	-149.497332856895	-8.79456248334303	-167.418343283474	
1004375000	-0.736301869070251	-26.7893142471114	-58.890830069866	-154.610667096181	-59.3244753444372	-152.142549995394	-8.79565720525079	-169.044754511235	
1005000000	-0.736023728609606	-28.4724687637584	-59.3194569995959	-154.851896314623	-59.3254312850459	-153.879211087832	-8.79573523406013	-170.666121784943	
1005625000	-0.736905458175597	-30.1569346517702	-59.1448571390922	-159.742656882539	-59.2809073099041	-155.248246024421	-8.79582425660012	-172.296829748378	
1006250000	-0.737036090444748	-31.8458489285686	-59.2465471104565	-162.116085640096	-59.283099057627	-157.700956468217	-8.79463223022861	-173.93077035218	
1006875000	-0.736466625387345	-33.5242333172874	-59.5094577441	-162.997836358391	-59.2626465067377	-161.160988649776	-8.79386249356473	-175.557115060584	
1007500000	-0.738370955755543	-35.2150399002712	-59.0780175505514	-165.129962448586	-59.4802750763275	-162.483454426621	-8.79506676897029	-177.178947373215	
1008125000	-0.737746241366682	-36.8958965521404	-58.9852941587502	-167.434855082304	-59.5621755804286	-165.76868764939	-8.79313623931855	-178.81977477216	
1008750000	-0.738315268362978	-38.5825328721998	-59.4223384648459	-169.17629681027	-59.2920383077366	-168.041045207739	-8.79226929980538	179.534085222033	
1009375000	-0.739006871375129	-40.2693958902511	-58.991812177923	-170.871507699154	-59.7356553506904	-170.996783777913	-8.7916580659282	177.897334019354	
1010000000	-0.740273828357755	-41.9492840912911	-59.0083503453174	-171.915276109078	-59.8216515861704	-171.373426464068	-8.79251663639241	176.260380675571	
1010625000	-0.739276716899244	-43.6427594126687	-59.1011331290666	-176.886509659858	-59.394223496236	-173.644277992032	-8.78879324523921	174.633065714436	
1011250000	-0.739903058071631	-45.3305462343833	-59.2741041555814	-176.234237461136	-59.2173797923437	-175.560818264184	-8.7879806243033	172.996683440838	
1011875000	-0.740712026032074	-47.0134727886171	-59.6520028757803	-179.062710469739	-59.6092268068611	-178.650095406097	-8.78737632636757	171.362974421112	
1012500000	-0.741351472651562	-48.7014582236806	-59.4366126225495	178.757479959422	-59.8244768886946	-179.810102518122	-8.78512109636852	169.715270746103	
1013125000	-0.742326669808335	-50.3896389704989	-59.7220681933435	173.445595136777	-59.5556207208817	177.307986256561	-8.78375788045783	168.061564900248	
1013750000	-0.742353177520879	-52.075107261378	-59.5877685347465	173.467569946962	-59.7734909281592	175.790433943705	-8.7815029830131	166.409935301523	
1014375000	-0.743285695379768	-53.7596040378879	-59.4442379057855	171.864412706753	-59.8748026785612	174.467002932461	-8.77902442510215	164.784461053863	
1015000000	-0.743520381986156	-55.45443790106	-59.1972428698333	167.672133937526	-59.5491180217958	171.869025971363	-8.77662992604567	163.122050778188	
1015625000	-0.745452443765397	-57.1411818968503	-59.5887398586795	166.735775199312	-59.7160350948383	166.881536806811	-8.77454759731223	161.482771426099	
1016250000	-0.745995166122668	-58.8390718811019	-59.3763869757562	164.956430530597	-59.8165931007699	167.769557041278	-8.7721474306567	159.83221667409	
1016875000	-0.746372214193699	-60.5207446270479	-59.5354153682543	161.287676500305	-59.7096598358574	164.892803114832	-8.77187680523846	158.186778975982	
1017500000	-0.748650388896758	-62.2133416277438	-59.49794588712	161.648382833489	-59.6604060845688	162.602594292296	-8.76823717395935	156.542599242497	
1018125000	-0.749157923783937	-63.9057086903726	-59.4951069463569	159.560252988192	-59.9580957618101	162.163124084513	-8.76554149289678	154.900172913943	
1018750000	-0.75008696622961	-65.5983992068896	-59.4847849756406	155.718008200907	-59.7960819139922	160.333742961099	-8.76211903554336	153.244911340336	
1019375000	-0.750809478110688	-67.2900739695447	-59.5887831879971	155.983216560465	-60.1284108426779	155.268886106689	-8.76110695327505	151.606064855814	
1020000000	-0.751122770304644	-68.9922958200805	-59.3249658025977	153.628841330249	-59.8721285019887	155.44512954814	-8.75338232125535	149.952242852167	
1020625000	-0.7532821554807	-70.6747811410993	-59.3454001830572	149.82419462792	-60.4219171227981	153.806424764142	-8.75351333403285	148.308777067375	
1021250000	-0.753858309713842	-72.3693195979033	-59.4527091974164	145.015656527783	-59.9852825684017	148.893224407269	-8.74952714986443	146.663629248214	
1021875000	-0.755964545475484	-74.0637431187575	-59.5933278577697	145.223357381582	-60.3302647113171	147.194580813714	-8.74376917187163	145.014887044151	
1022500000	-0.757430160049497	-75.760585929666	-59.4062981234609	145.214447638557	-60.2960110899406	146.222955600237	-8.74028284206554	143.359018167455	
1023125000	-0.759141549577864	-77.4544542862095	-59.5956032441395	141.858647352291	-59.8127057488492	143.844357560206	-8.73715237879901	141.705347721887	
1023750000	-0.759659674170832	-79.1494232010332	-59.6407586910626	139.03648225151	-60.0938434648004	141.184211377338	-8.73208655303508	140.056517075761	
1024375000	-0.76116597259378	-80.8512301805064	-59.6973133202316	136.880946201773	-59.8775643477216	140.765501298145	-8.72837990399688	138.415377839377	
1025000000	-0.762133389704079	-82.5414893879971	-59.6797436777741	136.003344555564	-59.9786987808881	137.406616960758	-8.72205294020003	136.760088969706	
1025625000	-0.764615086624745	-84.2463618117655	-59.6129634914229	132.052959380184	-59.9162614664484	135.924852867305	-8.71749250528933	135.119169025913	
1026250000	-0.765511500216907	-85.9499603613412	-59.7499859453193	128.952959773532	-60.0813899874148	131.672500067967	-8.71306992645605	133.456017153377	
1026875000	-0.767058571001046	-87.6421193177822	-59.6989779614092	129.370704644508	-60.0689846488299	128.603483081513	-8.70639456753343	131.807807592185	
1027500000	-0.767238276374801	-89.3443232512391	-59.8341187018097	129.555420362902	-60.030809133057	129.300249261884	-8.70174237324384	130.167199947264	
1028125000	-0.769913141105441	-91.0462394472782	-59.717603324984	123.570121555162	-60.2371372754323	125.46793123501	-8.69670454056938	128.515157607974	
1028750000	-0.770888837889853	-92.7484553648334	-59.5845079658588	122.565024942559	-60.0908975114901	125.756776018742	-8.69014302917286	126.878108768005	
1029375000	-0.772881323813067	-94.4495842407521	-59.9047204615669	120.929610081626	-60.16631459764	123.295894094183	-8.68359189416004	125.213995763185	
1030000000	-0.774337248066302	-96.1429676933133	-59.6646856617727	118.912511645912	-60.0190491015529	120.665746759964	-8.68190893081976	123.582230320271	
1030625000	-0.776264949847164	-97.8563111938829	-59.7890162776766	116.272240825544	-60.082622332997	116.78195780963	-8.67160388432228	121.928073892847	
1031250000	-0.778335584580346	-99.5667122912619	-59.4617246232759	114.163728202299	-60.2005091884187	113.90474629788	-8.66564324578825	120.282438642917	
1031875000	-0.779662278033376	-101.268668026594	-59.5870564950964	113.016364194904	-60.1172475189665	111.466877262778	-8.65909147319989	118.63408732219	
1032500000	-0.781903524884902	-102.976405759043	-59.9873918684369	110.744695127682	-60.4296351040037	113.007087713987	-8.65228769318225	116.983801863197	
1033125000	-0.783967323181348	-104.690682933944	-59.7394222721663	107.580313498353	-59.9484009328165	111.012586600824	-8.64745844866121	115.346701868288	
1033750000	-0.786043786775797	-106.402332616563	-59.6588631600289	105.821206867208	-60.0411584630305	108.616277251814	-8.63869960803487	113.713641456071	
1034375000	-0.787530261964923	-108.11271516641	-59.6632958523489	103.551900219495	-60.2385974228469	105.397138852064	-8.63321248283899	112.070829387593	
1035000000	-0.789453934425054	-109.821903131094	-59.8623737723756	103.469163079457	-60.2992682083432	105.123868991199	-8.62502132596967	110.427965127855	
1035625000	-0.791510923932738	-111.532477864038	-60.1409888675792	101.764495242339	-60.1559337992343	101.699019086783	-8.61727389792989	108.791935188347	
1036250000	-0.793428616353197	-113.244029778375	-59.772992475918	99.5095850128356	-60.361338373331	98.4057196498941	-8.61002935838257	107.156429564134	
1036875000	-0.79528008112281	-114.962853693788	-59.9414168630713	97.5127718813649	-60.4840755060178	96.5180872812459	-8.60226082447422	105.503964087428	
1037500000	-0.797343212257421	-116.672892364289	-59.738424413959	92.4208404277825	-60.0215834164784	95.7485122472286	-8.59331240059252	103.873784848399	
1038125000	-0.799748497291993	-118.390812274312	-59.9328502217068	92.8074697855279	-60.5689191544461	92.671080275192	-8.58574219100129	102.233509020191	
1038750000	-0.800604382284953	-120.104322564866	-59.7248432575461	92.5634873612479	-60.391582744621	88.6345971002987	-8.57648161908878	100.612293756896	
1039375000	-0.803811095854118	-121.826630097003	-59.6292170381255	88.3175719873367	-60.3104435894514	89.1111005198574	-8.56767353326083	98.9754859496179	
1040000000	-0.806268074472961	-123.551289003648	-59.6725383501353	88.4613304069218	-60.3703743539027	87.3320424765564	-8.55769195231883	97.3207369948903	
1040625000	-0.807248538367548	-125.26618895949	-59.5844223366021	85.3410391074546	-60.2742747143951	84.8315595341229	-8.55197818542397	95.7181411800172	
1041250000	-0.810443462637304	-126.984761872162	-59.9509999591998	83.7336016821654	-59.8715013196224	81.7366270303159	-8.54262782644087	94.0997467926031	
1041875000	-0.81159301396299	-128.708556780758	-59.7288719520196	78.9461025226001	-60.2394663772904	82.183661271411	-8.5344946792088	92.4616649020275	
1042500000	-0.813542112592631	-130.425223044247	-59.9161890889271	78.7125173633289	-60.2398976391164	79.2150743830578	-8.52389249841107	90.846240728936	
1043125000	-0.816434554348324	-132.151812875444	-59.5271047782257	78.4520788913897	-60.248883249602	76.3707463073807	-8.5165812693343	89.2167100226991	
1043750000	-0.817936254199749	-133.879016497091	-59.639935614167	74.1552614755955	-60.1678836889011	73.8239824778953	-8.50745345713113	87.5773232503446	
1044375000	-0.820523960725027	-135.597017395173	-60.0853813340109	73.5605802025038	-60.2480385189486	71.1705280733016	-8.49834727440781	85.9599599804808	
1045000000	-0.824412209533638	-137.320458176873	-59.6217413596727	71.2826627826415	-60.1750731147447	68.527374854722	-8.48686610461825	84.345382690695	
1045625000	-0.824564000749088	-139.050224366553	-59.334804533534	66.7815900413123	-60.3061199150923	68.418692622954	-8.48059553329719	82.7408152413483	
1046250000	-0.827046578468662	-140.785111110966	-59.9855812050382	65.0794379035011	-60.3182431609558	63.5114489666973	-8.47071962127117	81.1226321575395	
1046875000	-0.830217531515047	-142.507657088266	-60.0307700631255	63.4154393086774	-60.3936008929198	62.8201456799184	-8.46318256760158	79.4994762315144	
1047500000	-0.832124896821918	-144.23695142663	-59.782016372027	62.3306224740023	-60.2228945887446	61.7324023722617	-8.45117387612443	77.8863303304962	
1048125000	-0.834799977300468	-145.968129358422	-60.3603749188154	60.3597597085614	-60.187572869536	58.76464289778	-8.4418761635409	76.2896241044082	
1048750000	-0.835905958884212	-147.7056055644	-59.9220944215152	55.8365753351671	-59.6667909165142	57.3639291840319	-8.43328339463639	74.6763377148028	
1049375000	-0.838293825705169	-149.43496983427	-59.9474070069561	56.0877470096917	-60.233609036573	57.1818998949619	-8.4248883381584	73.0786069080062	
1050000000	-0.842873450753816	-151.178778030984	-59.9746939089359	51.4102714147259	-60.466859909319	54.0613363974992	-8.41193447034142	71.4844564040723	
1050625000	-0.843290262480399	-152.903253051282	-60.1427533238158	53.1984705203229	-60.7668655816379	49.0057690572264	-8.40382047646212	69.8585562020592	
1051250000	-0.845884221983585	-154.637873397436	-60.5366627168648	48.5246638337776	-60.1258388738716	49.4584926309566	-8.39226455900662	68.2616519026457	
1051875000	-0.847939655126054	-156.379876885204	-60.1968590482557	48.3278932216438	-60.2100304251705	46.7820847663448	-8.38268329958065	66.6697527672439	
1052500000	-0.849625179147651	-158.113948193411	-59.7625730413655	44.5423252902036	-60.1901375175183	45.046664535046	-8.37198893289073	65.0753850172746	
1053125000	-0.853276921022328	-159.856471383556	-60.2426149262957	45.5419064668896	-60.4621889331806	41.6677677139142	-8.36308969871962	63.4732327881808	
1053750000	-0.854724184688482	-161.589026584708	-59.9644498585817	43.3946317490765	-59.9930400421724	42.1235776931091	-8.35209179196334	61.8955149705436	
1054375000	-0.857056745231181	-163.336729112475	-60.3517449525971	38.6629684115163	-60.2714997112038	37.9018824984204	-8.34273826382619	60.3049058981166	
1055000000	-0.859647846956482	-165.062345737211	-60.0689846874754	38.2694248173432	-60.2726217522651	37.999974137719	-8.33284230387977	58.7247701343479	
1055625000	-0.862444907945668	-166.818292999971	-60.4522184457806	33.5147077967132	-60.2962362241057	33.0550271323548	-8.32194186782171	57.1206993516704	
1056250000	-0.865206932965078	-168.556117435602	-60.4444844791287	30.6176424985209	-60.2235524631211	33.8504991746943	-8.31246542632832	55.5384917289603	
1056875000	-0.866735490800697	-170.301917162721	-60.1433181232979	31.401361880643	-60.5210672060822	30.5644811303526	-8.30202445876942	53.9516237543365	
1057500000	-0.869132627080895	-172.053580010251	-60.1096014885138	29.7976870207288	-60.49498520309	28.0821270982265	-8.29082290076453	52.3823598850065	
1058125000	-0.870957567620178	-173.786360979932	-60.1392218929543	27.0970203769465	-60.2096922081612	24.7296725964177	-8.28258778086555	50.7930309042383	
1058750000	-0.873317892164525	-175.540873290867	-60.4015973573394	25.2585505794112	-60.292127777477	24.1982157261472	-8.27417733903197	49.2056972495522	
1059375000	-0.875655205283518	-177.290851295336	-60.376515956433	22.062730680281	-60.4830937855214	22.540918055721	-8.26289360135152	47.6459523472481	
1060000000	-0.877136770077005	-179.027428098107	-60.563576523766	19.1062630943536	-60.3862952578874	21.6657506167061	-8.25487394089536	46.0497336063148	
1060625000	-0.880619489486042	179.21882570945	-60.0275814417482	22.1731130106027	-60.0923642297054	17.6928878142609	-8.24279666906558	44.4807394644186	
1061250000	-0.882217229457465	177.471612946521	-59.9156628141485	16.2204954760159	-60.2345506515306	17.9584542740468	-8.23582114341366	42.9189308565214	
1061875000	-0.886008657271655	175.715064369321	-60.6663833555949	14.374513730325	-59.7492246137696	14.4736621350747	-8.22645142826921	41.3409462733654	
1062500000	-0.888260157204588	173.976414099682	-60.5963377011757	13.911650522389	-60.3911664596418	14.40558335647	-8.2165505573254	39.7799330526823	
1063125000	-0.889493959822852	172.217549564609	-60.4138537574116	10.7248081580157	-60.0807833021034	12.3901776034539	-8.20791785854457	38.2130937737676	
1063750000	-0.892634004272638	170.469073468808	-59.9485984307954	7.68737670917338	-60.0939279659579	6.05314774657845	-8.1989423624727	36.6378874545764	
1064375000	-0.893959826079541	168.717989671693	-60.3306158796882	7.49659296688482	-60.2096081875211	4.62335324602149	-8.18967917855997	35.0786721074111	
1065000000	-0.894807125887795	166.974093547778	-60.6552007610431	7.42194041044389	-60.3610007674307	5.91221981297429	-8.17922544529952	33.5336485870626	
1065625000	-0.898797354324085	165.209414500406	-60.5662290600013	0.92314045074591	-60.3401027587479	1.24486726081638	-8.17190887960922	31.970295743555	
1066250000	-0.900283791397228	163.455933889622	-60.3119346166479	3.5824174581841	-60.1368393801125	-0.492368967650581	-8.16298766727447	30.4106072357151	
1066875000	-0.903436486232456	161.704423393593	-60.0914249154298	-2.30653366745617	-60.0849116217925	-2.08915639492318	-8.1546094063764	28.8600589273409	
1067500000	-0.905001330138751	159.947378319676	-60.266864919557	-1.62337572121139	-59.9935049578664	-3.70018719087833	-8.14572310611863	27.3155202267639	
1068125000	-0.907770018051612	158.199209744495	-60.8411682905058	-2.62411111873115	-60.2892253133332	-3.60159251660828	-8.13705297631042	25.76045093282	
1068750000	-0.909946201375346	156.439532354597	-60.4921632448119	-6.72773616320541	-60.0720338331497	-8.28175301396279	-8.12935384529323	24.203780490003	
1069375000	-0.912063316636527	154.689466247726	-60.4123180770848	-9.11334062616559	-60.1164494489784	-9.75995585207094	-8.11998771410314	22.6507286669448	
1070000000	-0.915857478678371	152.941809635118	-60.2361323739273	-9.174245109269	-60.3554070708106	-12.5131117798409	-8.11195097129199	21.1129840502723	
1070625000	-0.915985983698126	151.171625259765	-60.7825556178766	-10.9756427801104	-60.0490142800819	-12.5703385194975	-8.10451246619076	19.5598431227826	
1071250000	-0.918216650351385	149.418671333034	-60.5119351003757	-14.2253699530195	-60.3424376601458	-15.8592912527359	-8.09639483265792	18.0191364017657	
1071875000	-0.919152189121815	147.666633213185	-60.6370405325158	-15.305837472438	-60.5732759351049	-17.4000841991966	-8.08912504878704	16.4761795942909	
1072500000	-0.920714440214235	145.907072423241	-60.8004481307642	-17.9719829345935	-60.2521253553554	-17.1841087911835	-8.08116032208991	14.9337774096669	
1073125000	-0.923745264068633	144.147475367994	-60.3827193517064	-17.9889616366394	-60.2688385832233	-21.0095919060375	-8.07413574886216	13.3973449856396	
1073750000	-0.924560417606979	142.393028412514	-60.4864055251239	-22.4273101585566	-60.1444736622306	-21.0701006728015	-8.06699350602395	11.8634417350508	
1074375000	-0.925486742117738	140.635950615472	-60.920527031979	-23.8428503834293	-60.2325071285023	-26.3003531288678	-8.05889477857834	10.3217649512274	
1075000000	-0.927678549305436	138.867781637017	-60.758062192195	-28.7460966405052	-60.0139935651341	-27.2736066699151	-8.0541741084006	8.79359383127333	
1075625000	-0.92919746412371	137.119779699385	-60.3921055029381	-28.5250084444154	-60.368421643004	-30.8242985716551	-8.04640001969173	7.2516914994926	
1076250000	-0.930865213292077	135.36196557493	-60.5748657702435	-32.1702400550814	-59.7936741172675	-31.4190674847524	-8.040627498164	5.72199750447183	
1076875000	-0.932192302224424	133.60178390175	-60.2617078255419	-32.0675886181403	-60.235482635225	-34.0954476850469	-8.03415116842154	4.20068377327842	
1077500000	-0.934286206946914	131.849393403455	-60.4366320917958	-35.3643795611741	-60.1606839145209	-35.5025594645705	-8.02842938499629	2.66703349597204	
1078125000	-0.936012319938539	130.078141990647	-60.373138919451	-37.4203908468158	-60.4591291470702	-35.9335948887192	-8.02080866836418	1.14014699351628	
