!Keysight Technologies N9923A: A.08.15
!Date: Wednesday, 14 February 2024 18:12:46
!Timezone: (GMT-05:00) Eastern Time (US & Canada)
!Model: N9923A
!Serial: MY52412730
!GPS Latitude: 
!GPS Longitude: 
!GPS TimeStamp: 0001-01-01 00:00:00Z
!GPS Seconds Since Last Read: 0
!CHECKSUM:0092642649
!Correction: S11(ON Q)S21(ON Q)S12(ON Q)S22(ON Q)
!S2P File: Measurements:S11,S21,S12,S22:
# Hz S DB R 50
1000000000	-0.736959299833228	-14.9982077960363	-59.6801808567228	-135.751073547537	-58.9635258551041	-136.169964024563	-8.79276953564827	-157.710671053498	
1000625000	-0.736941237711949	-16.6831038114104	-59.4485612203558	-140.608256991995	-58.8913722103204	-139.318704249439	-8.79504032061839	-159.33678258878	
1001250000	-0.737042604561844	-18.3696447869344	-59.4776788152453	-142.545391827979	-59.1090890835586	-143.6800875843	-8.7966776713007	-160.954628328941	
1001875000	-0.737346805939555	-20.0566458025592	-59.5385811222875	-144.740284954394	-59.0702612335919	-142.383085498511	-8.79405285015375	-162.571230237444	
1002500000	-0.737419199000861	-21.7398337969388	-59.490771008476	-144.828540103044	-58.9271565181645	-144.444208259948	-8.79681749820196	-164.195168768545	
1003125000	-0.736884207059875	-23.4218706314994	-59.1649895807949	-151.894325549776	-59.2393991577187	-146.482534378548	-8.79730496907378	-165.812964085525	
1003750000	-0.7367471494983	-25.1069070464317	-59.2263254616172	-153.560808144474	-58.8352114820501	-149.62039603036	-8.79595901243096	-167.432289257024	
1004375000	-0.737498553539101	-26.7900082701919	-59.4156888837782	-154.41420312011	-59.0259596434036	-152.278659772979	-8.79743713068194	-169.052815413579	
1005000000	-0.736932865221273	-28.4717717183954	-59.3631351733211	-156.601994157233	-59.2303912679568	-154.181551338675	-8.79755995252741	-170.686307252237	
1005625000	-0.738214253676611	-30.1576248695921	-59.7712376804051	-157.363988199374	-59.1324521529765	-157.189868000293	-8.79711614242303	-172.313260057062	
1006250000	-0.737421636451411	-31.8402938366165	-59.4733785232335	-159.706410784307	-59.1101464786869	-158.460564043819	-8.7962113196501	-173.940102387972	
1006875000	-0.737101572281021	-33.528184303627	-59.5936514186803	-164.117588314548	-58.9894012933835	-161.456307734072	-8.79650041579989	-175.570340797428	
1007500000	-0.738920981677428	-35.2221558977915	-59.4753916998189	-165.865924269021	-59.3021673387538	-162.071609524944	-8.79521144694877	-177.201653339888	
1008125000	-0.738106609247152	-36.9029619527155	-59.6182282977163	-168.016393199144	-59.5602094348588	-165.213971044721	-8.79513663153719	-178.829889984311	
1008750000	-0.738808170562917	-38.5839143389873	-59.7678179918998	-168.585228260204	-59.4003650529381	-166.856684510859	-8.79185703938372	179.526679233164	
1009375000	-0.739420502459441	-40.2760563784121	-59.7691223768818	-170.705470331968	-59.6788255341862	-168.542478976304	-8.79269462139268	177.881843036165	
1010000000	-0.741188392740648	-41.9572613964004	-59.4524944722228	-173.027731972937	-59.3068225120875	-175.244497735671	-8.79465255393324	176.256135657762	
1010625000	-0.740251300356969	-43.6521034225659	-59.4765097910459	-176.311951289765	-59.4322704806248	-172.404052301268	-8.79068357496477	174.624928374874	
1011250000	-0.740850839227883	-45.3385298350576	-59.3410928322911	-177.774654634176	-59.3415076973161	-176.519854180647	-8.7904449996006	172.992445988746	
1011875000	-0.741523810709693	-47.0177634444698	-59.4510799906227	178.841535874458	-59.5388933883062	-176.627124873953	-8.78918934337303	171.347627324617	
1012500000	-0.742506705916801	-48.7030319599773	-59.3281810378247	177.957249902415	-59.4742129477144	177.98835570249	-8.78737132455926	169.704393053581	
1013125000	-0.742542517889358	-50.3905970109452	-59.4518697231242	177.165913698152	-59.4778913173004	179.982001246126	-8.78551355933822	168.051139900658	
1013750000	-0.74302630135714	-52.0797553280918	-59.3589660601752	171.252197194851	-59.4609745448791	174.26938815121	-8.78533409441247	166.411217433093	
1014375000	-0.743537542113024	-53.7658101496804	-59.6649735763093	170.138999648559	-59.82400225176	175.450561999036	-8.78169495632717	164.774288236627	
1015000000	-0.743833589962609	-55.4595300653499	-59.4244025038482	168.738332177825	-59.5195153719266	172.075440927009	-8.78052043089992	163.125820164577	
1015625000	-0.745428607797452	-57.1480160016609	-59.6235091675722	167.73816642833	-59.6808389289802	168.83693449645	-8.77858853861912	161.480481581586	
1016250000	-0.747043813995064	-58.8416373569695	-59.7840537118757	165.361014971583	-59.5919930537522	165.591359551499	-8.77617021444866	159.832508729522	
1016875000	-0.747131297803063	-60.5227577559046	-59.7233911651575	163.840440183404	-59.759975406476	164.508493070021	-8.77533061975028	158.193843453948	
1017500000	-0.749532795529299	-62.2134981069443	-59.6340590787881	158.965619414896	-59.3346058724402	162.768573809235	-8.77205715467764	156.536762056256	
1018125000	-0.749587629761551	-63.9051578886584	-59.5804206811389	158.68619020824	-59.9255514089487	158.694437863543	-8.76832618645271	154.899668387473	
1018750000	-0.750886860590529	-65.5981147822051	-59.4235449241089	156.282076195124	-59.7067691790735	159.693677893598	-8.76583289591222	153.252037803605	
1019375000	-0.751808812274924	-67.2895812099766	-59.8154603387537	154.258365861399	-59.7050872208935	156.745265046477	-8.7625591535262	151.608441608544	
1020000000	-0.751744083705904	-68.9906103561025	-59.9342866744048	151.508382218119	-59.9447816760776	154.412129157847	-8.75555690610102	149.951122850089	
1020625000	-0.754226162015201	-70.6701195649032	-59.677511285626	148.787730311744	-59.9234163941956	151.206443891482	-8.7566310700001	148.307855996517	
1021250000	-0.755165454631533	-72.3671204290925	-59.9326557721153	148.402465385353	-59.7631792677932	151.374607137296	-8.75274273735262	146.664317431326	
1021875000	-0.756688057808289	-74.0605182793635	-59.7389132755206	146.760844709864	-59.8482098628966	147.023984054643	-8.74799055417176	145.007019577727	
1022500000	-0.758259951831514	-75.758486685672	-59.5694587511147	142.92124529616	-59.8397977950693	144.240560929746	-8.74273404424841	143.362388844211	
1023125000	-0.759463790527174	-77.4534738661078	-59.6087565729739	142.215032270944	-59.5925577369129	140.846174885722	-8.74037139846281	141.700435593688	
1023750000	-0.760477972397296	-79.1482644973573	-59.496650631071	141.831775091127	-59.6068734445972	139.271444434855	-8.73574766444391	140.065771728046	
1024375000	-0.761751916614172	-80.8533937211371	-59.8228265436456	137.343467857795	-59.8271449825531	136.519566008361	-8.73161952296197	138.41330053534	
1025000000	-0.763225784006523	-82.5428293811497	-59.4554093657788	135.897013430049	-59.9502398789017	136.090441259468	-8.72725218599835	136.763408754848	
1025625000	-0.765634543101615	-84.2487422794916	-59.7162713518363	135.080296511368	-59.7678652328331	132.862522385085	-8.72097265162883	135.120479812065	
1026250000	-0.766017329143855	-85.9487141015129	-59.7991722658978	133.765918867556	-59.9515509050319	134.155883601624	-8.71696224385433	133.462697136272	
1026875000	-0.767504438580676	-87.6434630063311	-59.5148329678993	129.85798137606	-60.1198778759735	129.106227364012	-8.70952624825382	131.805116398707	
1027500000	-0.768045483888332	-89.3495909263881	-59.723046745818	129.632894384514	-60.1015906223919	128.355530719959	-8.70499063158656	130.162086554014	
1028125000	-0.770629892375022	-91.0479894969339	-59.7431749280289	125.4789553037	-59.770596109838	124.900570838242	-8.69984719200973	128.521139391473	
1028750000	-0.771735435713947	-92.7506211381907	-59.7900382751883	125.155210373738	-59.9725880499431	122.656693519796	-8.69419762043771	126.873792049949	
1029375000	-0.773469068246268	-94.4541176037299	-60.063588517557	122.284591729866	-60.0537853304915	121.924492785127	-8.68840034849905	125.225610515128	
1030000000	-0.774934732434322	-96.1437067254815	-59.8069914536442	120.282314865607	-59.8165933528254	115.845028519987	-8.6854716923338	123.593869719319	
1030625000	-0.776617876725509	-97.8558883493488	-59.9358146261394	116.63443994502	-59.9671638139521	116.598298142537	-8.67513634976604	121.929783741534	
1031250000	-0.778726625685378	-99.5653731422495	-59.7775215079783	116.841290589206	-59.9473347071336	115.269458173111	-8.66908836284864	120.287075586484	
1031875000	-0.780545796542007	-101.269784611613	-59.7560233336589	113.35785123107	-59.7899786110522	111.126392594082	-8.66212060732716	118.641558916591	
1032500000	-0.781864740097752	-102.97686096312	-59.6794755979073	113.075454211394	-59.9886263673049	111.690455804048	-8.65714228434066	116.994202328952	
1033125000	-0.784844563532785	-104.687131973735	-59.764702755501	112.008218451003	-60.124470175874	107.855820033205	-8.65153626999124	115.35048713391	
1033750000	-0.786806673160614	-106.398566278291	-59.6220478258473	107.601860901862	-59.8447643236867	105.599618850873	-8.64447776581967	113.710202086811	
1034375000	-0.788546303183265	-108.106035140341	-59.6732882062201	105.256988104493	-60.027303943173	104.168288330562	-8.63580071462821	112.067301859535	
1035000000	-0.791022191379107	-109.823170802595	-59.8819154810364	101.458947360632	-59.7156537698377	101.08283862735	-8.62972966013122	110.440693561201	
1035625000	-0.791818970948015	-111.524832081803	-59.8650488094418	101.29700435627	-59.9990769780529	99.929984248565	-8.62232053953925	108.789444721128	
1036250000	-0.794277438691735	-113.240559523188	-59.7331970482641	100.728658349257	-59.7214968706829	97.3168976462169	-8.61437313292647	107.159283893526	
1036875000	-0.795955028222002	-114.954278943379	-59.6033980579176	97.0111360731848	-59.7082754263994	94.9216976199858	-8.60612661748283	105.514435407671	
1037500000	-0.797366532706101	-116.672403542826	-59.9923337557164	96.7452683856348	-60.3803500874782	91.8391984680706	-8.59767794488957	103.88244323192	
1038125000	-0.800079048715555	-118.389283493136	-59.7764538318837	93.0160356738676	-59.8063599789293	92.3607920589567	-8.58998025097409	102.248647789801	
1038750000	-0.801520561555215	-120.101994023283	-60.0084364161826	90.9549294140909	-59.8414733390454	90.3140089065331	-8.58170025672116	100.608304656343	
1039375000	-0.803744070137052	-121.824281399231	-59.4174520322575	90.4569373823114	-60.2583494502898	87.6675861304881	-8.57272527018746	98.9728465590912	
1040000000	-0.806095093637211	-123.54965758373	-59.5711404731302	88.5413858755078	-60.1936733701105	84.6746942914881	-8.5625051987731	97.3331726850261	
1040625000	-0.808091518558362	-125.26298068985	-59.9617411299131	86.3293789983597	-59.8853498349612	82.4654661330846	-8.5564591084213	95.7225486420991	
1041250000	-0.810808142600465	-126.981994059455	-59.8330090187072	83.8676949148359	-60.1429258599391	81.1295982253656	-8.54717888102262	94.0985953447206	
1041875000	-0.812631806704951	-128.702172424937	-59.5088656914113	80.0227223907072	-60.3528889595458	78.9696730416195	-8.54038461007516	92.4709515893975	
1042500000	-0.814991832853465	-130.425356296781	-60.2646279415836	77.9634768397914	-60.1856000197046	75.1511643896112	-8.52962026501985	90.8427738241071	
1043125000	-0.817371507494368	-132.145294366677	-59.9022681886456	77.3487394442424	-60.2607053074631	73.7711035882322	-8.52216089623978	89.2212333362351	
1043750000	-0.818363525055047	-133.875960600767	-59.789463694841	73.0128768203828	-60.0677137609503	74.5538167491849	-8.5129022391455	87.597147458753	
1044375000	-0.821069536630214	-135.594381505173	-59.6745811828699	73.0761685139525	-59.8238558018635	69.564507577125	-8.50314425857314	85.969383445831	
1045000000	-0.82465238084409	-137.323892803115	-59.7357997937432	69.9436277211591	-60.1804442445119	66.3558815582546	-8.49630075632338	84.3686531910446	
1045625000	-0.824522390310848	-139.052364085256	-59.7884545352022	68.4811760292814	-60.3750617288669	65.2256855943793	-8.48579582934299	82.7435375635142	
1046250000	-0.827753098283234	-140.781459367017	-59.9366106257122	66.7002840959902	-60.0917255303311	63.8671996544294	-8.47705182775437	81.1215236942867	
1046875000	-0.829703162246949	-142.500505904473	-59.7169093678529	64.8881448411846	-59.9743092236974	61.8060102192038	-8.46748215873347	79.4987715112366	
1047500000	-0.832473805642582	-144.234673505108	-59.7773212242141	63.0177397605238	-60.435064447809	59.716761789374	-8.45750191257511	77.8953170266543	
1048125000	-0.83460420732328	-145.97005489589	-59.6331491695945	60.0619594607659	-60.0110099163302	57.6607105423343	-8.44775948894899	76.2922521155158	
1048750000	-0.836370651773449	-147.699704658599	-60.1231160915859	57.990840058846	-59.9739786619869	54.8584875860024	-8.43724553072537	74.6767583677449	
1049375000	-0.838767917573753	-149.431776545354	-59.4043906645026	55.2470608617908	-60.3327654191537	55.6887813622656	-8.43039480360263	73.0735053670598	
1050000000	-0.842346404944972	-151.166739641609	-59.8544681643375	54.0707464563132	-60.403750013685	50.0187409895671	-8.41822077145392	71.4788930704584	
1050625000	-0.843674991229516	-152.904522712462	-59.9156984091231	50.3933456081172	-60.0218097465395	48.6740511789038	-8.40942556062114	69.8710523873113	
1051250000	-0.845656410387878	-154.633390372062	-60.0090448767448	49.3413561338035	-59.8370317823907	45.3264317878475	-8.39774525280537	68.2623551413519	
1051875000	-0.847499527156789	-156.375395390105	-59.9769715923409	48.1872389659727	-60.3878700181033	43.5979258329847	-8.38866406836704	66.6698322627526	
1052500000	-0.85043967763366	-158.100729530213	-59.8034389123974	45.8583859279827	-60.406557737402	42.2027148860995	-8.38029476552116	65.0721430332033	
1053125000	-0.853350234808092	-159.848884281017	-60.1349515816278	43.4115849015105	-60.4187211369478	40.1778578238291	-8.36845092519457	63.4730267562181	
1053750000	-0.855063120703932	-161.588392103557	-59.830289159876	40.71335564805	-59.9200657285123	38.4678215151817	-8.35800001903099	61.8831598964217	
1054375000	-0.85713320110349	-163.324834413925	-59.8941445075773	39.4104558450654	-60.0872075784587	34.5545520331556	-8.34706732545245	60.2978906983405	
1055000000	-0.858160189543622	-165.068721326297	-59.8796141700428	36.4769201912225	-60.1394598832679	36.03106938582	-8.33863675342792	58.7119960266057	
1055625000	-0.862194133950165	-166.81090232304	-59.6088065195995	33.1782227604355	-60.3261231359821	33.3526711135377	-8.32778406748382	57.1116672342472	
1056250000	-0.864055081775791	-168.549149137635	-60.1154533139927	30.1532464676833	-60.0708579909993	31.3134699600938	-8.31816786008819	55.529784502534	
1056875000	-0.86684748808547	-170.2959437871	-60.3305879925177	30.9332177481769	-59.9267416648229	29.2015489278668	-8.30885127343135	53.9442417449456	
1057500000	-0.868541573116711	-172.044460098945	-60.1313819715334	27.7166671794263	-60.2857392457211	28.2744491592363	-8.29822270955453	52.3668039639203	
1058125000	-0.871112394715186	-173.785087103623	-60.444365252038	24.8111495999398	-60.2154511585318	25.8834023430289	-8.28891109614535	50.7870287607315	
1058750000	-0.872187026241037	-175.535253520736	-60.0823936826435	24.0391547861308	-59.7713771518609	22.5143928849682	-8.28078790904004	49.2039340484582	
1059375000	-0.875640959238117	-177.279665816188	-60.1407540887848	22.8186124556814	-60.4313094744872	20.7851354968146	-8.26896201312493	47.6352991854107	
1060000000	-0.877017348157143	-179.02535048079	-60.3492820721386	22.9672649829354	-60.3105874361302	15.7093331579222	-8.26118676001963	46.0425109896724	
1060625000	-0.880386913219314	179.227884731065	-60.0107179440341	18.7597437638723	-60.2110187009275	15.3380792201587	-8.25058709851081	44.4699508314452	
1061250000	-0.882651607517797	177.478053538274	-60.4213479481917	16.2518835557335	-59.9549470316758	14.9781248206936	-8.24233949756436	42.9101651336608	
1061875000	-0.885375455454776	175.721695746856	-60.0271198268753	15.9108602699099	-60.2937701840772	11.0077693585941	-8.23209998425282	41.3350591494413	
1062500000	-0.88815101041263	173.985218102396	-60.3689883997031	13.1425816876867	-60.1421021561569	8.64558379427092	-8.22356403558464	39.76858311905	
1063125000	-0.889196882883626	172.221656847243	-60.0367537225817	9.84863497605592	-60.4105142401377	6.55519670846574	-8.21484413926986	38.1956074798985	
1063750000	-0.892121830888421	170.473841286542	-60.1053668152498	10.4951815127962	-60.2993447355837	6.30879961009921	-8.20526079756433	36.6322951532582	
1064375000	-0.894342553508866	168.724502755295	-60.0683696081438	5.36841058360236	-60.6171181450657	4.21510558422782	-8.19660228256085	35.0647599030005	
1065000000	-0.895304383467769	166.965032327546	-60.7846810043439	3.10818291634276	-60.7006703449875	1.70654469636829	-8.18579816152952	33.5265777090137	
1065625000	-0.898715996660874	165.217949869235	-60.2265265937007	0.485648524895681	-60.3011180612151	-0.447000690990852	-8.17912575956484	31.9566901875545	
1066250000	-0.899853899408429	163.463660109288	-60.4501523968338	0.589297229849831	-60.1730143096472	-1.72980744615907	-8.16998388388689	30.4002874506271	
1066875000	-0.903080825173	161.712590994553	-60.2229354383412	-0.231889085714317	-60.4581637422536	-4.34926649927117	-8.16243479270887	28.8403448244933	
1067500000	-0.904627769073631	159.959197094449	-60.7100762429674	-4.49833734276335	-60.3793752038901	-5.37276902291133	-8.15301416091573	27.2904295446016	
1068125000	-0.90768363611748	158.204871591501	-60.3774272425839	-5.75041577807731	-60.823165782053	-8.10895566046367	-8.14502159925181	25.7349768115326	
1068750000	-0.909042119943573	156.454113945223	-60.3300081656654	-8.18576667253789	-60.3166710220827	-10.0744463928784	-8.13786475787412	24.1922677382222	
1069375000	-0.911441222673095	154.697350398128	-60.5376030894904	-10.2018014627256	-60.4721483513137	-13.2949984575606	-8.12812802001129	22.6362108334407	
1070000000	-0.914025384538143	152.949905406499	-60.480416938481	-13.2444825412325	-60.307462383089	-14.9119391839329	-8.11934187586228	21.0946145162087	
1070625000	-0.914287672001464	151.188747873535	-60.6746521060975	-13.332900933888	-60.2270949295049	-16.5303225895836	-8.11337185515216	19.5534788850292	
1071250000	-0.917021930391938	149.4306584114	-60.1324725763008	-18.5231341948765	-60.2457030113467	-18.1359786370384	-8.10419870803708	17.9993994806207	
1071875000	-0.918680194453474	147.678848737559	-60.3510417237578	-19.3722598529778	-60.7184063921053	-18.4247172381617	-8.09752078604127	16.4582267656078	
1072500000	-0.91970502349602	145.920666508232	-60.3225325595475	-22.3449149536317	-60.4009290369817	-21.922812135806	-8.09101606845609	14.9256143813286	
1073125000	-0.922551324905303	144.154609054417	-60.6575705393488	-21.9469578126552	-60.0968543660443	-23.0030623323255	-8.08224009090454	13.3766810372702	
1073750000	-0.924308093942788	142.401314171056	-60.5314378054372	-25.3292354474	-60.0801830035592	-24.3572724540889	-8.07483543755254	11.8439913796629	
1074375000	-0.924886165312575	140.643668393229	-59.9779152878955	-25.8721431770932	-60.4909565518558	-30.0383706770418	-8.06755611049184	10.3046054447871	
1075000000	-0.928822139506294	138.867238475019	-60.3051853550053	-28.2821186383253	-60.5267050679826	-29.1146401900778	-8.06119779891391	8.77920335152124	
1075625000	-0.928866742875211	137.128473751984	-60.5307287953545	-33.7114719328804	-60.7573138852839	-32.1260341761696	-8.05494734006153	7.24035586613442	
1076250000	-0.930077155744256	135.373602888948	-60.4829400212658	-33.5595134898832	-60.4272660092135	-33.1489788435457	-8.04792852622207	5.70484736405119	
1076875000	-0.931754643911456	133.61046480952	-60.3032144031541	-35.6681174853257	-60.1696048683693	-34.3015886563025	-8.04153366519811	4.18075086150096	
1077500000	-0.933649064415957	131.85297902434	-60.2251230724758	-36.802216598026	-60.2874825639742	-38.1314538613922	-8.03698275612293	2.65599795737894	
1078125000	-0.935841805323949	130.088357614234	-60.7873224868236	-40.6204273418048	-60.887292771245	-39.433056594261	-8.02979651684764	1.11833673298751	
