!Keysight Technologies N9923A: A.08.15
!Date: Wednesday, 14 February 2024 18:09:15
!Timezone: (GMT-05:00) Eastern Time (US & Canada)
!Model: N9923A
!Serial: MY52412730
!GPS Latitude: 
!GPS Longitude: 
!GPS TimeStamp: 0001-01-01 00:00:00Z
!GPS Seconds Since Last Read: 0
!CHECKSUM:0288382426
!Correction: S11(ON Q)S21(ON Q)S12(ON Q)S22(ON Q)
!S2P File: Measurements:S11,S21,S12,S22:
# Hz S DB R 50
1000000000	-0.733613990593176	-15.0393626102184	-59.1661223418667	-137.080188753996	-58.9947703024625	-137.533053248847	-8.78748950526623	-157.682546511609	
1000625000	-0.733549280468466	-16.722588490414	-59.4488369847346	-138.4473355615	-59.0900016533353	-137.922706574609	-8.78741422284167	-159.301464749471	
1001250000	-0.732712155708515	-18.4098997585561	-58.9742849977386	-142.607708395577	-58.9778761817525	-140.974310650567	-8.79081872531312	-160.918548093485	
1001875000	-0.733527907809497	-20.0921530566647	-59.4324132398925	-143.052646315424	-59.1292209491523	-141.004275929985	-8.78919884125035	-162.53649725839	
1002500000	-0.733972599845426	-21.7796600011716	-59.3417952253357	-146.088765986119	-59.2399519615678	-145.059759386876	-8.79028584719679	-164.173056014976	
1003125000	-0.733120316220709	-23.4608268030098	-59.0038119036287	-149.588903904958	-59.1436271823608	-146.386192857602	-8.79030603245969	-165.79329776094	
1003750000	-0.73215386682498	-25.1453312412327	-59.0679776935138	-151.457820630828	-58.9670794321095	-148.543506439712	-8.78948907424886	-167.409882839315	
1004375000	-0.733283145572875	-26.829698141931	-59.3664399306717	-150.240902326988	-59.135766275834	-147.884176715909	-8.79087457420666	-169.028807489661	
1005000000	-0.732967886269455	-28.5087185786094	-59.357160659986	-154.86114544233	-59.2060743974295	-152.974084574955	-8.79028954650489	-170.658925312175	
1005625000	-0.733387066675034	-30.1953230501983	-59.1085970776629	-156.043353511757	-58.9299069932705	-155.318489065106	-8.79010361937933	-172.291597462516	
1006250000	-0.733307229645077	-31.8800758492617	-59.5350936553626	-160.070282167185	-59.3295632543185	-156.937243547358	-8.78958248158043	-173.929979765497	
1006875000	-0.733785172275484	-33.5618874545714	-59.3851700411675	-162.476183128317	-59.211125430543	-159.407460235885	-8.78888064134791	-175.551188846778	
1007500000	-0.734737987721843	-35.2550871196312	-59.3742349316955	-163.243901420539	-59.3376666046887	-159.656320446298	-8.787986224407	-177.172759316689	
1008125000	-0.734182465655911	-36.9314508038849	-59.3707928142608	-166.219319327763	-59.3289032986685	-163.103507588778	-8.78841918846827	-178.819865636624	
1008750000	-0.735192128461119	-38.6165021214079	-59.2629438856415	-167.07201913802	-59.492625353232	-167.351850248891	-8.78583107702436	179.547574236862	
1009375000	-0.735112426283363	-40.3058798106729	-59.3801691357596	-173.212599720088	-59.2083221497715	-168.739892111711	-8.78513402149236	177.899009644752	
1010000000	-0.736753315989099	-41.9837942285837	-59.4420259659003	-171.543380662634	-59.3984326805797	-171.36921143768	-8.78645515795652	176.259280962234	
1010625000	-0.736095728814206	-43.6790093983687	-59.6540468646397	-175.039500984483	-59.4178834589554	-171.940277112921	-8.78218257243486	174.629253131036	
1011250000	-0.73675936049604	-45.3669934075205	-59.3800083998193	-176.862187800486	-59.6383053693242	-172.825542762909	-8.78216426090368	172.995364499836	
1011875000	-0.737697234429945	-47.0486035412367	-59.5907787106998	-178.778447059237	-59.551715242364	-174.643992038761	-8.78031520053635	171.349115152067	
1012500000	-0.738522386323811	-48.7366928550108	-59.251535827056	177.750444821415	-59.3659884321944	179.397561367608	-8.77727874402354	169.702028163487	
1013125000	-0.739119389609002	-50.4230078549826	-59.6442852749474	177.082957662562	-59.3487767027157	177.217815167843	-8.7760903436133	168.056747595262	
1013750000	-0.739020698940436	-52.110463763184	-59.4992217176684	172.605894648086	-59.6238846898349	175.773962193893	-8.77507139836884	166.402359224301	
1014375000	-0.739919430702735	-53.7968436008307	-59.4762481252267	174.328016398889	-59.6884649772422	174.895503106348	-8.77196097588366	164.767417292812	
1015000000	-0.739973024444181	-55.4887294859285	-59.6722139632373	170.834534541539	-59.5273240407171	173.225418799193	-8.77005491878099	163.116371572495	
1015625000	-0.741658773160881	-57.1787783430011	-59.2184497246746	168.025941916786	-59.5415472527691	172.581451946573	-8.76902740669233	161.478840971375	
1016250000	-0.742795666438776	-58.8723198247814	-59.4716300030513	164.569613417514	-59.6292149327357	167.976493693151	-8.76483688724034	159.827058580571	
1016875000	-0.743173379692364	-60.5549576831776	-59.3285300422056	162.576035154225	-59.828794326558	167.326584322771	-8.76371404335585	158.179134890648	
1017500000	-0.745111661804813	-62.2453554293366	-59.5297714868822	161.275412458069	-59.5111632850447	163.244569421022	-8.76009830390141	156.527432627921	
1018125000	-0.745032864965722	-63.9375763613817	-59.4604630956553	160.398818705019	-59.6501168212031	161.799371001762	-8.75729598262853	154.888581526576	
1018750000	-0.746972248302571	-65.6303829518548	-59.6977915138722	158.21201538129	-59.7938866684237	159.531487548356	-8.75476808035685	153.235141481961	
1019375000	-0.747794119509522	-67.3228851463548	-59.9876817736518	156.850262036973	-60.0670855204509	157.06331797661	-8.75166087903863	151.589843597933	
1020000000	-0.747594742733734	-69.0269884618409	-59.2273690045814	154.697972640982	-59.8912740131442	156.272404943864	-8.74300222947045	149.940348991537	
1020625000	-0.750059864447555	-70.7061035952523	-59.9074646351202	153.920985805343	-59.6817738813508	153.841377645687	-8.74441700260397	148.291836912525	
1021250000	-0.750626515075394	-72.3999796873674	-59.2306756694401	150.563423078616	-59.6846876848482	151.563002745666	-8.74018940352458	146.646809422748	
1021875000	-0.752678247218042	-74.0943674344255	-59.5964189725066	148.180660104313	-59.7679348670023	150.032629101599	-8.73569932122291	144.989378318862	
1022500000	-0.754423105751005	-75.7922315449078	-59.3491675888545	145.387600714739	-59.5695188888911	144.881417265705	-8.73187311369319	143.343127212777	
1023125000	-0.756175815526813	-77.4883699358656	-59.2413108287931	143.356414801543	-59.9414352245489	144.283198429461	-8.72695296670562	141.68572031071	
1023750000	-0.756370794626228	-79.1809158527614	-59.5501618021411	142.667986677131	-59.8061793091837	142.187837008173	-8.72306813323501	140.035238699226	
1024375000	-0.757964390771167	-80.8823806515088	-59.5100263044342	139.641520002771	-59.770431011975	141.814741709413	-8.71777877900503	138.389443976442	
1025000000	-0.759625045729331	-82.5720782348001	-59.7677917852856	138.617002595686	-59.6995644872981	139.770257360962	-8.71089337144743	136.73892213881	
1025625000	-0.761959871148169	-84.2810770859158	-59.3824596439123	132.749738575528	-59.9723287010863	135.30806803589	-8.70689491060247	135.099676171454	
1026250000	-0.762213633847761	-85.977479517817	-59.5444328320825	132.468040627361	-59.7401050684147	134.197715421079	-8.70156415177298	133.439785109312	
1026875000	-0.763912780090567	-87.6737754048402	-59.272339547211	129.640387093951	-59.7339137519727	131.0445979143	-8.69531619710886	131.78493987309	
1027500000	-0.764627163602414	-89.3786326936965	-59.2657275330143	127.923769787405	-59.5373128711925	127.240691896275	-8.68949787190897	130.139590304568	
1028125000	-0.766990155732974	-91.0779944342384	-59.5117363577732	127.35700104775	-59.9896812439169	126.017116733006	-8.68404066660619	128.497903732962	
1028750000	-0.768267434211148	-92.7800172729356	-59.6763846627853	123.611562771059	-59.7105322602389	125.180212847191	-8.67947694902214	126.857690627305	
1029375000	-0.770403605054358	-94.4797896041776	-59.3842453979675	123.124824297531	-59.8543501876701	123.039002112321	-8.67256825966162	125.204499186835	
1030000000	-0.772372938336103	-96.1741869661864	-59.5122274135646	120.316678754604	-59.9740429247336	121.631921300592	-8.66874966665236	123.568412265717	
1030625000	-0.774071630290926	-97.8869173411457	-59.2870993865845	118.920829497935	-59.9703959776788	119.456857012502	-8.65836885242057	121.911421596123	
1031250000	-0.775553098394711	-99.5995603212146	-59.5157486714803	117.864057898796	-60.0453607741984	117.630839569994	-8.65157492627552	120.252645077359	
1031875000	-0.778293403678598	-101.301745785249	-59.5507701273012	114.345318556722	-59.9522683868979	114.616805284149	-8.64421655194919	118.614363732796	
1032500000	-0.779342365563917	-103.006987096064	-59.7746300738049	112.625191257985	-59.9021429208923	112.716389872597	-8.63761083239558	116.974256940627	
1033125000	-0.782146317869183	-104.719012000367	-59.2134655613457	110.736825468962	-60.0839730960516	110.464787005356	-8.63390984657252	115.323362047103	
1033750000	-0.783862493516266	-106.427239964392	-59.7949126298265	109.946761957586	-59.9127461060022	108.385627925963	-8.6238949614729	113.694991114759	
1034375000	-0.78540789908328	-108.137821402253	-59.2620117865953	108.077095721502	-60.0205708288793	106.728500859208	-8.61729183014782	112.047603679304	
1035000000	-0.788714784683637	-109.854605675224	-59.4307495053698	104.649201927601	-59.9124291252803	104.502438227024	-8.61036503158238	110.40556659129	
1035625000	-0.789173437665614	-111.554941946858	-59.7965173860976	100.800632768407	-60.3664879730919	101.356464163901	-8.60231654397966	108.764667271436	
1036250000	-0.791642082308461	-113.272613458324	-59.5332845172508	100.105912044383	-59.8492813976002	99.9403596656781	-8.59405528709865	107.139001907567	
1036875000	-0.793145199032	-114.987841718346	-59.6228143869216	95.3448692993189	-60.5536454657659	96.145609410843	-8.58595043830544	105.482112495485	
1037500000	-0.795056425182502	-116.702947216755	-59.181954034948	96.7033351584038	-60.0901202509296	97.2465176792547	-8.57769050716996	103.852613013291	
1038125000	-0.798459921442174	-118.416018385011	-59.5792092612348	94.5443435043185	-60.1953168505804	92.8799431291196	-8.56978632790017	102.222375472528	
1038750000	-0.799667805737844	-120.134097001571	-59.2979961554885	91.5654930897187	-59.6500428131208	90.5127437073727	-8.56009083978013	100.580749003735	
1039375000	-0.802417920111949	-121.853662231428	-59.4422781300711	87.7567585654436	-60.1964656760135	89.5167734059593	-8.55060501446295	98.9532242417472	
1040000000	-0.804166326031174	-123.57926157279	-59.522342956894	88.2194616392539	-60.020269196044	86.4016926372106	-8.54079370405232	97.2966704758915	
1040625000	-0.806679185934824	-125.29235450818	-59.8680119886592	83.6900653357395	-59.99698114289	85.7468060777317	-8.53559723514165	95.6980417374952	
1041250000	-0.808811563693864	-127.018835070379	-59.4668405839541	82.5498716065937	-59.5688402601157	83.0099927192475	-8.52561675332003	94.0797979248229	
1041875000	-0.810986605902233	-128.73703008657	-59.2102975812225	82.4620113908729	-60.0940784680814	82.4534015106586	-8.51765335522985	92.4514323865493	
1042500000	-0.812990911843073	-130.454677607367	-59.7526554370408	78.8324716488226	-60.1009642331339	76.9729570064419	-8.50613127628234	90.8324817813346	
1043125000	-0.815385416907109	-132.187441598299	-59.251785927242	77.7017140661657	-60.046721336723	77.3254042484986	-8.49865421184932	89.2000327000041	
1043750000	-0.817503999102842	-133.905027063691	-59.2311622790065	76.065700886123	-60.2078593604146	73.1644303598394	-8.48910418898915	87.5735392355702	
1044375000	-0.820088458531221	-135.627935937188	-59.3383319873892	73.9056767245551	-60.0195122263426	71.6299464520557	-8.47965440237306	85.9518974889124	
1045000000	-0.82319455559596	-137.358020799719	-59.3321934730825	69.1214347724892	-59.8743134182114	70.1895842307401	-8.46863518144759	84.3429371434171	
1045625000	-0.823516428193927	-139.087679935844	-59.8089232202656	70.394121244313	-60.0756100414489	66.8212175275373	-8.4602867444853	82.7333736577094	
1046250000	-0.827129201525392	-140.816736992822	-59.6293398940681	66.9453460020248	-59.9230539974642	64.1332911489077	-8.45088448928808	81.1117948415831	
1046875000	-0.8288495664908	-142.54067250834	-59.6027091560386	64.7613410643587	-59.9780681219617	64.3166591916277	-8.44021362360463	79.4929648348979	
1047500000	-0.83115803364467	-144.27149667652	-59.5947807898955	62.0236447865877	-60.1214047377772	58.8078228109604	-8.43229335387669	77.877743641186	
1048125000	-0.832741632137946	-146.002181572536	-59.7873411914625	58.660714207158	-60.2239185983218	58.9619961854387	-8.42061169340841	76.2798305156446	
1048750000	-0.836413607648679	-147.733949643251	-59.4495238348922	58.8407655461602	-60.0364699139205	56.0223090777693	-8.41167992781953	74.6615929721994	
1049375000	-0.837821619076807	-149.467162919985	-59.6899980235851	54.3557376104421	-59.9834261479192	55.2741924487569	-8.4021866423322	73.0630391501913	
1050000000	-0.841476026570456	-151.210653684605	-59.8556538941236	56.5543437823256	-59.9866771743527	55.080734077211	-8.3901855100901	71.4754925649924	
1050625000	-0.842549838949766	-152.934512789012	-59.8463173946833	51.4904919546187	-59.883462001943	51.0484754610332	-8.38275589411884	69.8610302169441	
1051250000	-0.844642311292472	-154.674377676275	-60.0262929445766	49.8291191221768	-60.0600534236715	51.9325637574875	-8.37110326572848	68.2553450716354	
1051875000	-0.846518863580387	-156.409693843381	-59.7480671838212	48.1425579287968	-60.0164829682402	45.7475533505864	-8.36129537721235	66.6652108717036	
1052500000	-0.848583185560667	-158.141793535303	-60.0075510045235	45.5577604746345	-59.7983581367858	44.7457195082053	-8.35044059046818	65.0662277934575	
1053125000	-0.852582715416059	-159.886158949768	-59.9742829536922	44.454657981056	-59.9829958681787	42.245080833599	-8.33971509508569	63.4767736349481	
1053750000	-0.853765426458434	-161.625858566044	-59.7243661502951	42.5564579201986	-59.9273686215894	41.1737578944754	-8.32795421376557	61.8860629627272	
1054375000	-0.856329888498265	-163.365771626477	-59.9606755322087	34.8147813247752	-60.270062485744	38.1986831292369	-8.31854810839719	60.2991605132047	
1055000000	-0.857678072926493	-165.107056024216	-60.0737958252976	38.3477665659331	-59.9139704213352	37.5983432938773	-8.30853720895397	58.7017071540743	
1055625000	-0.86181415687292	-166.848852440206	-60.1519527900643	36.8112495428274	-59.859351631728	34.3471482475387	-8.2969719133856	57.1143351172997	
1056250000	-0.863294211748973	-168.596014745332	-59.8314009333532	33.2216981611817	-59.7869877144328	32.490983545609	-8.28825000570291	55.5327586054746	
1056875000	-0.865635136775131	-170.33814897472	-59.5300260449268	30.6995086871749	-60.1165994354867	30.5974513235901	-8.27803557192732	53.9490544370527	
1057500000	-0.867620710238575	-172.086481966659	-59.8006061692214	30.3385658907164	-59.7665039437682	28.4878465222395	-8.26844383289662	52.3704969478914	
1058125000	-0.870609113202943	-173.827233803603	-59.9164182669609	26.9899606505391	-60.0404049218895	25.2577377239741	-8.25938938651169	50.7935809637949	
1058750000	-0.872117329617732	-175.577000548629	-59.8307585239731	25.5235047291954	-59.9985814864505	24.2248295821591	-8.24925263518414	49.2078215247261	
1059375000	-0.875024369150762	-177.324996904004	-60.189879854697	21.7752751786078	-59.7290631226114	22.8774337437311	-8.23945577839926	47.6364654217552	
1060000000	-0.875998527290453	-179.069083388846	-59.8942184828766	20.4779029467415	-59.9742510082657	20.7775195872087	-8.23136296438325	46.0483909708383	
1060625000	-0.879939966957433	179.18476978742	-60.0665497826746	18.7386686701799	-60.0431774394116	18.2487227817215	-8.21955370679624	44.479550690633	
1061250000	-0.882912616672259	177.435235276307	-59.6909134502242	19.1366047943693	-60.0283262176317	17.4121325235047	-8.21133582974214	42.9153111575797	
1061875000	-0.88455387902846	175.676499190999	-59.8699046277203	12.9580564009702	-60.1412279091346	13.9072503181476	-8.20120276480517	41.347265125251	
1062500000	-0.887815983852078	173.940061329216	-60.3823364134976	11.5984383392502	-59.7127264182681	11.7518691268987	-8.19188369380837	39.7837698724957	
1063125000	-0.889260034038818	172.180280362093	-60.3496739666612	10.6732852795848	-59.9530580339166	9.53363372345318	-8.18428476871516	38.2027529976057	
1063750000	-0.890957059833178	170.430681457902	-60.2260376085659	10.9037559564355	-60.1249192849641	6.93147019835924	-8.17439424040847	36.6497876309056	
1064375000	-0.893753238905711	168.677944915716	-60.1470741228967	6.34678523462101	-59.9607572512658	7.88690946075774	-8.1657971999277	35.0777178966266	
1065000000	-0.894618972375858	166.918100122828	-60.2985291459313	3.90723133536104	-60.0178047249039	5.10698318350343	-8.15583015929234	33.5218753807213	
1065625000	-0.897542946181756	165.171518974189	-60.1332631350153	3.01318200530076	-60.2281776512236	-0.633036233512255	-8.14690742492942	31.9670695135822	
1066250000	-0.90008001043364	163.416407384973	-60.5196188137163	0.0554472207244787	-59.8014625482134	-1.32677819066393	-8.13776422088233	30.413450216991	
1066875000	-0.902913171203763	161.659525708226	-60.1067153082788	-4.86386030374165	-59.8447821223699	-2.3092788484551	-8.13078662276652	28.8666174559168	
1067500000	-0.904870073804846	159.909572252944	-60.1071765549307	-3.27429005708514	-59.9106580408058	-3.61283887939234	-8.12137948103858	27.3105431553771	
1068125000	-0.906996923168215	158.159807460118	-60.4523383752135	-6.38805641669533	-60.0160012837108	-3.61044281906095	-8.11303015687614	25.7560104347141	
1068750000	-0.908913441140919	156.399122508025	-60.388727221302	-7.46618490480174	-59.782889808312	-7.59388338059668	-8.10517831342222	24.2022996229685	
1069375000	-0.911132812970756	154.641815062156	-59.9771437596019	-9.27285579129879	-60.0705443404215	-11.4418699422018	-8.09714978209021	22.6606003875354	
1070000000	-0.91402504005043	152.898536150007	-60.2558648542933	-9.77201809386414	-60.350041915064	-13.0734552190843	-8.08741600226451	21.1166661868666	
1070625000	-0.914335911911035	151.131727470419	-60.9127420544277	-14.7432382833721	-59.9892298172509	-14.202965277361	-8.08067743659075	19.5683022038281	
1071250000	-0.916705381752081	149.376800099592	-60.4519101974075	-15.4676136761704	-59.8024856047534	-16.4467470487216	-8.07247658700223	18.0308777308356	
1071875000	-0.91841466320139	147.628616714388	-60.4573326154393	-18.7835082291999	-59.9923327484167	-17.6291509485953	-8.06533377130165	16.4816231375623	
1072500000	-0.919206633616205	145.870950605156	-60.8215074482262	-20.0665846044004	-59.9744721675175	-20.0302848170719	-8.05823906434429	14.9480825627407	
1073125000	-0.922162509469644	144.102350418156	-60.5736190132906	-23.3640415679417	-59.8891040651005	-23.1547652399751	-8.05035819619666	13.4105399947558	
1073750000	-0.923365827314167	142.351091284623	-60.198633414598	-22.7501266945538	-59.9162776559613	-22.6433441261656	-8.04364855250756	11.8731275188965	
1074375000	-0.924343106682479	140.594460428317	-60.4192397248006	-27.7247231614855	-60.133009171946	-28.4415003318444	-8.03627549582366	10.3354005006499	
1075000000	-0.926259119049254	138.825820471467	-60.4804059555317	-26.8784316527875	-60.1981266094352	-27.2994599516108	-8.03082548684592	8.8042380406116	
1075625000	-0.928251613023928	137.073239220327	-60.5948529783546	-30.5522597579972	-59.908610566947	-29.7142714651057	-8.02322453750658	7.27043382180319	
1076250000	-0.92994689804304	135.319881918411	-60.397243240451	-30.8782909314673	-60.2047333713249	-32.8067475907236	-8.01756112812427	5.73837355133799	
1076875000	-0.931083231661072	133.557884745561	-60.7541883097277	-33.0218985459678	-59.9356942368669	-34.2022849426833	-8.01111128774706	4.20681721286247	
1077500000	-0.933207239715624	131.797796936637	-61.0130411244143	-38.1583959425081	-60.1183322616152	-36.3946990903024	-8.0058752166393	2.68418981484584	
1078125000	-0.93420668631361	130.03266265052	-60.9539311053023	-37.9546777869917	-60.0975738579697	-38.0744814845208	-7.99985755149442	1.15130005246279	
