!Keysight Technologies N9923A: A.08.15
!Date: Wednesday, 14 February 2024 18:10:37
!Timezone: (GMT-05:00) Eastern Time (US & Canada)
!Model: N9923A
!Serial: MY52412730
!GPS Latitude: 
!GPS Longitude: 
!GPS TimeStamp: 0001-01-01 00:00:00Z
!GPS Seconds Since Last Read: 0
!CHECKSUM:0274398115
!Correction: S11(ON Q)S21(ON Q)S12(ON Q)S22(ON Q)
!S2P File: Measurements:S11,S21,S12,S22:
# Hz S DB R 50
1000000000	-0.734720997813021	-15.0291944276882	-59.0558829693822	-138.234681436802	-58.7736112095365	-136.289749265138	-8.79572476461552	-157.698173258784	
1000625000	-0.734466469193862	-16.7116908825853	-59.4418287497186	-140.700443047504	-59.3700673429824	-137.463842110614	-8.7970069716569	-159.319224298972	
1001250000	-0.734451127276974	-18.3959937455484	-59.1441974031248	-142.902662490111	-59.0804661048826	-141.210654666737	-8.79822499985602	-160.936344648657	
1001875000	-0.734741870069804	-20.0821095186246	-59.3083685297351	-143.567107683492	-59.0644006093525	-145.079729615008	-8.79788878462811	-162.556152449228	
1002500000	-0.734866200477748	-21.7640669099568	-59.2073090233709	-146.562531086884	-59.2357828331889	-145.677388939912	-8.7983053364361	-164.179480138476	
1003125000	-0.733997049861761	-23.4517699627107	-59.2084007696221	-149.510048845796	-59.1810454179827	-147.961711939177	-8.7989248467679	-165.811951033398	
1003750000	-0.734745477855327	-25.1311723114768	-59.1753699833809	-150.411828265508	-59.1344749026195	-150.774128714931	-8.7989849458397	-167.423964369247	
1004375000	-0.734685769836441	-26.8154944296814	-58.9724880038309	-156.858129584634	-59.0305266767818	-150.74248785742	-8.80016246438549	-169.049754675214	
1005000000	-0.734145616883475	-28.4994784725183	-59.1635110180437	-155.543546380084	-59.167187097411	-153.752811724829	-8.79839845071462	-170.667546938494	
1005625000	-0.735402575949618	-30.183311107501	-59.0886226185806	-158.085957620622	-59.3414026237187	-156.866953594867	-8.79898314597596	-172.302661546735	
1006250000	-0.734614371546116	-31.8683094590054	-59.3856784309217	-160.281124003631	-59.4925293917639	-158.921329514792	-8.79820289886659	-173.930581650524	
1006875000	-0.734803464050123	-33.5514535164839	-59.293532152497	-162.496669898806	-59.0238498851193	-161.037860435069	-8.79799017081409	-175.558504737243	
1007500000	-0.736132857040516	-35.2402624595171	-59.2756409324506	-163.769065639595	-59.1238390492177	-162.743825035261	-8.79762358607339	-177.182420314082	
1008125000	-0.73555636740302	-36.920215056325	-59.3200287356646	-168.768604203301	-59.2605433098724	-165.705218464157	-8.79800998033378	-178.825819674834	
1008750000	-0.735696507691872	-38.6050279101404	-59.4374662860492	-168.382349966853	-59.4875606797098	-169.332164924615	-8.79527171059176	179.537905482435	
1009375000	-0.73656477750009	-40.2945198512696	-58.9787030047995	-171.061408934068	-59.1714458023621	-170.919447806003	-8.79352335509373	177.888035959823	
1010000000	-0.738661369157616	-41.9763961302212	-59.4699870494525	-176.699997547582	-59.317033445532	-172.73466836925	-8.79536638452222	176.258887919431	
1010625000	-0.737603296539221	-43.6706832588914	-59.6289110442838	-177.282221058916	-59.4996648882247	-173.22745964557	-8.79280778384325	174.623043327717	
1011250000	-0.737823567582124	-45.3527505138129	-59.7242173717439	-179.490753461688	-59.2416866394999	-176.114555517197	-8.79179503506354	172.985705803995	
1011875000	-0.738649787349472	-47.0363318534028	-59.4153883482431	177.209802999794	-59.5194698701801	-177.560156457103	-8.7915463231124	171.344867262565	
1012500000	-0.739948679793069	-48.7235780051816	-59.565647205684	175.925125988261	-59.4918929152258	178.080885839229	-8.78772153346443	169.690750836365	
1013125000	-0.740077043748321	-50.4109426055471	-59.2832406488238	172.398294392009	-59.6369434366097	176.972842641218	-8.78714839148549	168.04880321184	
1013750000	-0.740507647257021	-52.0984308653497	-59.7561492275591	173.008108591196	-59.6963578694236	174.62126050373	-8.78494023363639	166.397290065362	
1014375000	-0.741165426890757	-53.7840341129333	-59.5108448302954	171.300376520233	-59.5674360654914	173.002560223718	-8.7817678216469	164.768992595386	
1015000000	-0.742000891543606	-55.473028524879	-59.430165347734	170.030257062642	-59.7935179286893	170.862785569852	-8.77898666972477	163.129325106013	
1015625000	-0.742902503434052	-57.1605910197217	-59.7921919217713	167.757732947284	-59.7739678148687	167.165140999675	-8.77791464978005	161.473857044703	
1016250000	-0.74446124266532	-58.8570439348619	-59.4814812757443	163.512079827644	-59.8683667281952	167.027535125865	-8.77664612663058	159.817009908131	
1016875000	-0.744743248285144	-60.5395431952288	-59.8323492119404	162.084955465914	-59.6844035929834	164.992874106069	-8.77551625525392	158.174634588218	
1017500000	-0.746883308369344	-62.2346119319657	-59.4742317807059	158.963359610462	-60.007319946501	160.106033851371	-8.77065160611489	156.523666142661	
1018125000	-0.747514680371908	-63.9242064895225	-59.6381492077018	158.823950639578	-59.6209805481789	160.43577915626	-8.76906181855268	154.885392637603	
1018750000	-0.748740024292731	-65.6178807290682	-59.554378417593	155.633257276793	-60.2326799856882	157.39444754999	-8.76476676132678	153.235479507159	
1019375000	-0.749358607322122	-67.31209593155	-59.5716149154554	153.169425736876	-59.7645062008538	156.905117327512	-8.76117164944398	151.596199545227	
1020000000	-0.749085757967974	-69.0133618142001	-59.38626725857	153.052601152365	-59.9339848693284	153.690701106482	-8.75405029727238	149.932220909396	
1020625000	-0.751581419735004	-70.6930614757747	-59.4363656639148	149.57090826735	-60.0262219555907	152.228397618816	-8.75638240777486	148.282046902303	
1021250000	-0.752589709244394	-72.3883675652199	-59.8136783279505	145.216541281223	-59.8496096505361	147.85729772233	-8.75195956044406	146.637694295405	
1021875000	-0.754370381693025	-74.0832138736191	-60.045607961965	147.038242235018	-59.5993194430871	148.08390283739	-8.74600731077789	144.983818338829	
1022500000	-0.755660815752241	-75.7798783345354	-59.743657613839	141.397415659413	-59.819915436522	145.285665994861	-8.7421640997633	143.337057182008	
1023125000	-0.757635893750329	-77.475503944261	-59.7460331055472	139.934992984285	-59.7151827105537	142.146398847833	-8.73901791481835	141.673951037563	
1023750000	-0.758225299094778	-79.1702949860494	-59.4656084124324	139.267230603862	-59.7888253916133	140.719503600696	-8.73430596768505	140.039220430287	
1024375000	-0.759978572579175	-80.8708938561676	-59.8490473438843	135.952950587328	-59.707991165847	138.927671456579	-8.73081595163639	138.394575187923	
1025000000	-0.760833220978207	-82.5604358475815	-59.7711135009025	133.276281538392	-60.189711741381	135.558575872167	-8.72353599475828	136.740216914084	
1025625000	-0.763221550048156	-84.2657134403678	-59.4768605949618	131.506927474875	-60.2776433682678	133.715213121695	-8.72063404900491	135.104677249179	
1026250000	-0.763982152812065	-85.9676818119578	-59.9952592803364	132.490936427251	-60.2947874948563	131.815084248477	-8.71470094153008	133.437576556097	
1026875000	-0.765186477911633	-87.665357547884	-59.7230160908534	128.811027221769	-60.0865084044558	128.145172361011	-8.70819479470668	131.789461008736	
1027500000	-0.766329514620471	-89.3653225380262	-59.6858629228492	127.527688610132	-59.9066036756982	128.072676698345	-8.70314431174716	130.143125178787	
1028125000	-0.767885883736095	-91.0662547474593	-59.8128261139973	125.365750506061	-59.8352414310842	126.615821584	-8.69785482698297	128.494451595096	
1028750000	-0.769344084100437	-92.7719005456208	-60.0685536627632	121.335221088781	-60.0602193325204	124.249995952151	-8.69131526449571	126.849663397216	
1029375000	-0.771912094458608	-94.4715899812805	-59.6140213118411	121.365915212262	-60.262121222376	121.402114218707	-8.68521559924555	125.199570674421	
1030000000	-0.773395853821941	-96.1623501529144	-59.8146887541918	118.778663753734	-60.203533667093	118.962832102653	-8.68207451911892	123.564969839568	
1030625000	-0.775004355453302	-97.878173401283	-59.7970894793193	114.239259577056	-60.1259863690625	116.054988833944	-8.67168295919338	121.905943020582	
1031250000	-0.776935194627578	-99.5881512473565	-60.0012360148509	112.870675014339	-60.1188289939953	115.100476502003	-8.66545731175565	120.263517894534	
1031875000	-0.779322651945917	-101.291226873337	-60.0622049631683	110.95405235662	-59.9299629129998	115.111817075459	-8.65824620996907	118.612177289153	
1032500000	-0.780784916683694	-103.001970866413	-59.796207149813	111.926080805791	-60.4675769000388	107.664396734638	-8.65407270057652	116.974682434408	
1033125000	-0.783112509229275	-104.710511460677	-59.8166773726408	107.693285792426	-60.128362511033	107.98758152601	-8.64716661579683	115.326286812527	
1033750000	-0.785536082017989	-106.419464688835	-59.9950770567482	107.341229866692	-60.3405326845033	105.812702452837	-8.63797350001377	113.687467190403	
1034375000	-0.786228015775972	-108.128542196242	-59.5882451273762	106.033211403327	-60.0321795385875	103.881910501204	-8.63246312166354	112.04160849623	
1035000000	-0.789761928727358	-109.844221869474	-60.1051860343055	104.540286336231	-60.1894476221695	102.3288582925	-8.62481847516717	110.410156871917	
1035625000	-0.790119965476415	-111.549001734567	-59.6213481318741	100.734938535621	-60.1947229002646	99.0017462844839	-8.61624620662842	108.765306199483	
1036250000	-0.792924997430044	-113.265354077698	-60.0250135341477	99.3844287182174	-60.0387457071994	97.0551319840363	-8.60995182402148	107.129760515065	
1036875000	-0.794602456978704	-114.977860043534	-60.0506213440858	96.011314287496	-60.064425826751	96.4523709998287	-8.60047048221693	105.485952677561	
1037500000	-0.796139232558079	-116.693174649509	-59.7010430884698	94.4853774706158	-60.5117946634914	91.6213204192229	-8.59302643838624	103.857520869335	
1038125000	-0.798854420753696	-118.410150400267	-59.7446503112161	92.8918626527868	-60.382895151914	92.4348605467967	-8.58454039886733	102.217565091238	
1038750000	-0.801227550181193	-120.119270863436	-59.8315734900656	89.0113747111377	-60.1625507342047	90.2703964899228	-8.57545233181514	100.580345231482	
1039375000	-0.802605029629104	-121.846356096384	-59.7917604406551	88.9497354518198	-60.4312978315864	85.5585700422049	-8.56529767924538	98.9598752690762	
1040000000	-0.805050982741144	-123.566278099262	-59.6923386418951	87.5054877602967	-60.2504663720688	85.0939655742911	-8.55636922071901	97.3046856094467	
1040625000	-0.806312013026993	-125.288479345652	-59.5177521903442	85.9401318899264	-60.1945157987764	84.6571637400691	-8.55173255338101	95.685797781252	
1041250000	-0.809651040780723	-127.005325643492	-59.4920370754276	83.2740590248126	-60.2402661361958	82.4221449494681	-8.54147425760631	94.0745154317408	
1041875000	-0.811083506731432	-128.730915647151	-59.5339541386307	78.5484664061762	-60.0189848189232	79.4687731184591	-8.53345811378563	92.4514724351799	
1042500000	-0.813813517706208	-130.448900500879	-59.965061240781	78.0618531117756	-60.3279589092918	75.7129768164713	-8.52252227417591	90.8246630425233	
1043125000	-0.815367530877882	-132.177930767073	-59.8143274105202	75.7348260228137	-60.5164063610869	73.9607018258829	-8.51478681766829	89.1980952235307	
1043750000	-0.81767634116174	-133.899716583929	-59.8983148111006	72.7067514882484	-60.5663460783278	72.3129404634169	-8.50603674043883	87.5734595085388	
1044375000	-0.819780186322927	-135.624257531029	-59.7614497599147	71.1796177171295	-60.2464979452346	71.373186526523	-8.49675723913323	85.9484129788966	
1045000000	-0.821629816588149	-137.354062792077	-59.7287703187148	69.8264066971871	-60.0862655163912	66.3425913333389	-8.48704254275977	84.3394065172939	
1045625000	-0.825320442121228	-139.08051836045	-60.2454698469614	66.369323151208	-60.1932959834896	67.3598700022376	-8.47837676805307	82.7208456547	
1046250000	-0.827194322834011	-140.805258364655	-60.2606397874829	64.9809921214585	-60.240348445158	63.6551865151066	-8.46824450777229	81.1032918147834	
1046875000	-0.829811243726303	-142.529300793742	-60.0729092540127	65.2700416647371	-60.3199352645872	61.0360690720695	-8.45859173686677	79.4892357635917	
1047500000	-0.831918138139344	-144.263800738951	-60.1235676069139	60.7310026228493	-60.3814848224977	60.4045375338121	-8.44885840158653	77.8721143183542	
1048125000	-0.834106080442702	-145.993127882068	-60.0458441628813	58.9461770786739	-60.4757583139068	56.5221050042661	-8.43786057083882	76.2666209488964	
1048750000	-0.836584500896885	-147.726108984844	-60.2261534980028	56.9002779531098	-60.2108394879243	57.4568823149234	-8.42968462749382	74.6660667110952	
1049375000	-0.838946949274284	-149.465320564952	-60.1880795321897	54.4443587764244	-60.0293438993626	53.5921237605107	-8.42036600430642	73.058080318063	
1050000000	-0.84197341514635	-151.190075255188	-60.0311415699272	53.2261598819871	-60.1837767496797	50.2154056892057	-8.40939231778935	71.4644532515927	
1050625000	-0.842798063098556	-152.925775203125	-59.7235572002457	53.7127327489571	-60.196615521214	49.2107365074503	-8.40144999622161	69.855311284548	
1051250000	-0.844835467187977	-154.660082930448	-60.3279151964112	49.0257445637781	-60.0939903687719	48.7765162937618	-8.39059933556514	68.2457991657251	
1051875000	-0.847971290719037	-156.398882842982	-60.0603467785297	47.1922097396108	-60.5289097157063	43.2775806189363	-8.38011541210058	66.657064724801	
1052500000	-0.849498189519806	-158.136361919848	-60.3196705432788	47.3203325366931	-60.3910943858704	43.8206913457366	-8.36882418738117	65.0635523130345	
1053125000	-0.8528256965176	-159.87400994873	-60.2757712290181	41.8665831910439	-60.2291842298029	43.630919637	-8.35888812894856	63.4662482171397	
1053750000	-0.854983839936756	-161.608336391651	-60.0616520703595	40.7431265469852	-60.1423020395127	41.6380584894039	-8.34886384480424	61.8706569754041	
1054375000	-0.857158612475111	-163.358554258559	-60.5369322118713	39.789535112745	-60.1155351052031	38.8086713298241	-8.33782475897662	60.2962563957295	
1055000000	-0.859026760936862	-165.086833538448	-60.5238399752875	35.131931392202	-60.3324868979248	35.6697983755265	-8.32834285813181	58.6989259491783	
1055625000	-0.861794127812514	-166.841312586523	-60.5109751047543	35.0736042201948	-60.1568554189045	33.4879464235391	-8.3182990348556	57.1099175248309	
1056250000	-0.86429666074573	-168.581599356835	-59.9945333886318	30.7279776398241	-60.5629441238388	29.3626075967491	-8.30909381440828	55.5249086493969	
1056875000	-0.865817771729834	-170.330574837075	-60.0301765654936	30.1697006176605	-60.2349722544603	29.5413082733746	-8.29830202764821	53.943933484976	
1057500000	-0.868146090536417	-172.069218006012	-60.2588405538463	31.6709529534271	-60.5072779708477	25.25873734299	-8.28719190651058	52.3693679282959	
1058125000	-0.870689428317524	-173.814412299849	-60.337693471339	27.3755364094475	-60.3648209715759	24.8977235945327	-8.27880466638493	50.7854977252769	
1058750000	-0.871104657936268	-175.566384351225	-60.5196790154001	22.3485135326649	-60.6642742849843	23.1478679770109	-8.27070029235428	49.2013395726945	
1059375000	-0.875128330984902	-177.314381296982	-60.2787463732075	22.2631843649254	-60.2215686453127	19.5728459646059	-8.25940053330011	47.6354307467275	
1060000000	-0.87586873792189	-179.055484769208	-60.2835844126276	21.7388411907112	-60.270123282624	18.9442514763973	-8.25063547125786	46.0422356027238	
1060625000	-0.880493832814769	179.192577603504	-60.2621602575283	20.3713882810028	-60.3198340178567	17.9920358143283	-8.23901057698657	44.4745871558025	
1061250000	-0.882208623550909	177.448257769492	-60.2845431203451	18.1830661160423	-60.612989081927	15.2232327244452	-8.23168675721939	42.9072021038696	
1061875000	-0.884830691928423	175.690114844501	-60.4090153888363	15.0066756168171	-60.2389424070212	14.0745440847051	-8.22105463923986	41.3366014089393	
1062500000	-0.887641411127231	173.949384612413	-60.3872874136117	14.1068258060208	-60.1876912478444	11.9997957497321	-8.21330928266507	39.7716180946231	
1063125000	-0.888850557543668	172.193823477878	-60.249565937757	12.8393363218825	-60.377580801982	10.7794850335081	-8.20387489057586	38.199188057681	
1063750000	-0.892025732054291	170.438827459	-60.3696820279244	9.75873210726542	-60.5903958173653	5.11679224205454	-8.19515385581789	36.6353258646888	
1064375000	-0.894034290762732	168.692599429949	-60.011164129814	5.54792108460808	-60.51501201268	5.54868757139597	-8.18595641135615	35.0697514545296	
1065000000	-0.893924644101855	166.947036368283	-60.6367982151403	6.45845997224885	-60.2677432123069	2.76748626028491	-8.17710774218899	33.512389771001	
1065625000	-0.897788416637431	165.188798991814	-60.38235596885	3.20526943393686	-60.1039825584353	-0.96245350694752	-8.16768552470732	31.9657963337315	
1066250000	-0.89942928810067	163.428575218304	-60.3380944340543	-1.45212524587802	-60.7860562720365	-1.14362667319026	-8.15792374892258	30.3994349217426	
1066875000	-0.902776007575677	161.676859299096	-60.9109684329356	-1.86453665791996	-60.2995300004295	-1.31255301791677	-8.15114547655982	28.8506183830696	
1067500000	-0.903922268148724	159.923392578742	-60.7185912898105	-2.60552138420085	-59.8251168013619	-3.06837817778174	-8.14190448550407	27.3006838506252	
1068125000	-0.907199181043943	158.167787969016	-60.5905697301484	-4.88852583913692	-60.8373491801716	-5.17254661958136	-8.13322412565203	25.7448256310745	
1068750000	-0.909130461472798	156.410024347497	-60.3475970178215	-8.44897902119633	-60.3050198755306	-8.61634396510116	-8.12602175763096	24.1986899574313	
1069375000	-0.910771786605852	154.661580372999	-60.6053600693147	-10.2779673397518	-60.1295014549798	-11.8995656449342	-8.11725140437499	22.6491340306306	
1070000000	-0.914556005242351	152.913937344182	-60.7681868272389	-10.8018942023636	-60.2891331112177	-11.0886561749851	-8.10778018312964	21.1054175188802	
1070625000	-0.914224205995186	151.1472312235	-60.6884821670528	-12.1911093398869	-60.3986724215644	-13.5579979492943	-8.10096479292125	19.5636625066701	
1071250000	-0.917174025272632	149.388492112668	-60.7547644855692	-13.6428181789802	-60.0302520071708	-16.2195801235023	-8.09388675580533	18.0143788379898	
1071875000	-0.91826222009844	147.639973437979	-60.7584654486541	-16.5502899013941	-60.6796385885658	-17.5431407057655	-8.08460161058294	16.4817093715933	
1072500000	-0.919127194419523	145.881229799309	-60.8573954761479	-15.9332104418419	-60.3342898266485	-18.9164626469193	-8.07847884683601	14.9360628943137	
1073125000	-0.922323805629018	144.119702395787	-60.785160463722	-21.1608819962253	-60.8635228621869	-21.4193589991763	-8.07086446090386	13.4047919332451	
1073750000	-0.923050449259215	142.366385522794	-60.9852556091394	-24.8553637824572	-60.7440214217846	-26.0787212864982	-8.06334830670871	11.8654132013861	
1074375000	-0.925105233312265	140.606631619582	-61.1612662101418	-26.1424745791979	-60.5246824210464	-25.2065188664341	-8.0554554506389	10.3209451370767	
1075000000	-0.926836138729832	138.836697123061	-60.1039132264688	-29.8677636519159	-60.3310836852969	-29.131995240062	-8.05106835888853	8.79716761863011	
1075625000	-0.928472807142687	137.092456478832	-60.6406962491393	-32.9297851596488	-60.1559131678704	-28.805431529042	-8.04245445208209	7.26156191830394	
1076250000	-0.929801293366659	135.335332119443	-60.8661641328872	-34.0954976517009	-60.5628989916332	-32.6651601419486	-8.03758552857357	5.73297852298007	
1076875000	-0.931035044796503	133.571741548432	-60.7780831370078	-33.3643654844857	-60.5962413591378	-32.7674214902828	-8.03127323803073	4.20498073813028	
1077500000	-0.933244486705617	131.817713655479	-60.7432210778375	-35.5913309754501	-60.4474825340253	-36.1630505532619	-8.0251604852921	2.6816659070302	
1078125000	-0.934334224248356	130.048200202599	-61.1828711945261	-39.4732804693688	-60.2329277608497	-39.1905836723802	-8.01889843424357	1.14172844114026	
