!Keysight Technologies N9923A: A.08.15
!Date: Wednesday, 14 February 2024 18:08:10
!Timezone: (GMT-05:00) Eastern Time (US & Canada)
!Model: N9923A
!Serial: MY52412730
!GPS Latitude: 
!GPS Longitude: 
!GPS TimeStamp: 0001-01-01 00:00:00Z
!GPS Seconds Since Last Read: 0
!CHECKSUM:2033111267
!Correction: S11(ON Q)S21(ON Q)S12(ON Q)S22(ON Q)
!S2P File: Measurements:S11,S21,S12,S22:
# Hz S DB R 50
1000000000	-0.716074934526673	-14.8953181619596	-58.7033091820802	-108.18532070714	-58.0309549199709	-108.416809702839	-9.26756139047469	-154.457132405453	
1000625000	-0.716276722059611	-16.5824760256529	-58.6495666905316	-111.320866129149	-58.2554349273906	-108.753163535105	-9.2702778345585	-156.078568355293	
1001250000	-0.715388083034984	-18.2686401452355	-58.0402444474409	-113.377177210979	-58.0356883258361	-114.232933444394	-9.27396439449502	-157.688965041127	
1001875000	-0.716185807409128	-19.9539140846854	-58.509218489299	-115.747486953997	-58.3861985184408	-116.672177737479	-9.27336138597257	-159.308149995392	
1002500000	-0.715569723163527	-21.6367277992319	-58.4625238297212	-118.275660570754	-58.7152866244895	-117.53703617806	-9.27662726095143	-160.93192206456	
1003125000	-0.715129218867746	-23.3182635353942	-58.3897325262098	-118.916479900504	-58.4892376460469	-119.601698155609	-9.27728071710262	-162.551190128109	
1003750000	-0.714742087189871	-25.0025303797426	-58.4311899094657	-120.88597052125	-58.5030945726286	-123.04086149179	-9.27696064495675	-164.175415474654	
1004375000	-0.715876839636627	-26.6819792970734	-58.5865438121468	-124.477189873586	-58.4205093110289	-122.183324135146	-9.28058292524914	-165.80146014068	
1005000000	-0.715247136935365	-28.3670050094337	-58.3295706361891	-128.423569520958	-58.4023585592469	-126.561505267197	-9.28164601966756	-167.425911474162	
1005625000	-0.715685349814544	-30.0526785076234	-58.7519766291882	-128.561737039585	-58.4783768066576	-128.166893380868	-9.28201756733117	-169.042604262	
1006250000	-0.715181448462463	-31.7414153292885	-58.7290063907988	-132.131867464672	-58.6025620451067	-131.410783845017	-9.28106440230318	-170.676498434896	
1006875000	-0.715079331803186	-33.4190693248457	-58.6461343655845	-134.500707300889	-58.4970584947787	-132.835679827447	-9.28290316166336	-172.30644414539	
1007500000	-0.716809229308302	-35.1113414015071	-58.3043275668297	-139.443421437428	-58.8599433941098	-136.412344194022	-9.28376002978161	-173.929048183094	
1008125000	-0.716227326454925	-36.790582951408	-59.1360529448249	-137.768869688568	-58.795790012896	-137.765463583109	-9.28331910477604	-175.562622912424	
1008750000	-0.716954716321309	-38.4729332896777	-58.8793635609366	-143.040248410103	-58.6506661978172	-139.24789484872	-9.28339134909579	-177.202792656945	
1009375000	-0.717586117099058	-40.1637651404754	-59.1040692040614	-145.25024272393	-59.2488253373382	-141.85348570179	-9.28439446739821	-178.838840882111	
1010000000	-0.718888262207979	-41.8464063867569	-59.157802925999	-145.461195322625	-58.6253081581765	-145.230858817278	-9.28641086079524	179.521148839598	
1010625000	-0.718186757598261	-43.5366043824264	-58.8329154719399	-149.608378689336	-58.7751817374516	-146.319520601201	-9.2846484678453	177.893418597191	
1011250000	-0.718176844951561	-45.2249587047331	-58.8654296238123	-150.187424467015	-58.802957171393	-147.448391694009	-9.28426857139839	176.250223665928	
1011875000	-0.718942568256924	-46.9076240451583	-58.9079443299763	-153.000795385418	-59.0295607077319	-151.797918150661	-9.28460323313435	174.615521698715	
1012500000	-0.719686379389934	-48.5944105630558	-59.0590906390537	-154.557199142546	-58.5942552537541	-151.926846538288	-9.28245024818728	172.972546377763	
1013125000	-0.720345374239376	-50.2808499357648	-59.1493446996612	-156.672733916173	-59.0106018379778	-156.045643341978	-9.28265094745544	171.319822240723	
1013750000	-0.720298579498564	-51.9680877601763	-59.2030207920725	-159.754742011355	-59.2067270912658	-157.586189816345	-9.2830628304626	169.674681643679	
1014375000	-0.720900908261714	-53.6510800524967	-58.8865625594933	-161.953487814866	-59.0604141983555	-159.210206644852	-9.28121905994517	168.042336110426	
1015000000	-0.721256041866119	-55.346277976825	-59.118746999467	-164.882202134216	-59.4132963416146	-162.591533537489	-9.27928832368512	166.396819322162	
1015625000	-0.721935289411664	-57.0359668687569	-59.0999279524556	-166.822585652533	-59.0105123232956	-162.893091260956	-9.27935377521912	164.747589004249	
1016250000	-0.724500350735258	-58.7297469599656	-59.406184601945	-169.137844325076	-59.1162724790596	-165.372858359798	-9.27836624094132	163.094478180727	
1016875000	-0.724076847718546	-60.4113621437114	-59.1156768602074	-170.928148269278	-59.6616645084442	-168.615529566901	-9.27766121840546	161.452734053867	
1017500000	-0.726154028705744	-62.1082324871511	-59.1988676189705	-172.272854778815	-59.5691764257448	-171.806252874229	-9.27497369193137	159.805616728589	
1018125000	-0.726182932075406	-63.7958609867529	-59.0677593415833	-173.599756008533	-59.6226126506154	-175.304788277264	-9.27248293515406	158.163091156925	
1018750000	-0.727682272979712	-65.4885386966379	-59.3128516075428	-176.252826138937	-59.4727946999758	-176.198446893984	-9.2710328449284	156.51136763144	
1019375000	-0.728490355371527	-67.1807077732488	-59.2421560800301	177.953618702425	-59.8965483460579	-176.98959263907	-9.26812901492932	154.868155617241	
1020000000	-0.728276082242151	-68.884367376057	-59.2491194078269	179.957711793917	-59.5591753206992	179.961899596884	-9.26434256291243	153.212231926941	
1020625000	-0.730154441425231	-70.5626612686405	-59.1510049366	176.201249765229	-59.5348092499864	178.406625773144	-9.26491487522944	151.56572530863	
1021250000	-0.73082351375337	-72.2589725728573	-59.0667610425553	174.711509029413	-59.3921685735283	174.287179189698	-9.26027149198184	149.921088499467	
1021875000	-0.733136124109515	-73.9533929822122	-59.2152838575626	170.89494462597	-59.3228222663839	173.615621454222	-9.25712075832703	148.259033989053	
1022500000	-0.734155538200255	-75.6504969337667	-59.3053410056872	169.611753581832	-59.6574227123505	171.006526077915	-9.25330168171057	146.611487069656	
1023125000	-0.735829805170146	-77.3437125190713	-59.0344457459356	166.166447757771	-59.4980331901741	169.117513964244	-9.25143259059111	144.955231177342	
1023750000	-0.7362188345031	-79.0395947890201	-59.2333184098094	163.719153604385	-59.5019744552974	167.153107668522	-9.24615536858565	143.307202159062	
1024375000	-0.737562829340792	-80.740519026738	-59.2964462158829	162.378098523523	-59.3151186935893	164.208973649349	-9.24382134915236	141.659658163816	
1025000000	-0.738627094631399	-82.4305088402969	-59.4288938712799	159.784237351717	-59.4844725056297	161.140588374047	-9.23748834036625	140.008512259285	
1025625000	-0.740918335799007	-84.1348615495334	-59.4252975293373	157.376623390384	-59.7920991572082	158.690873992679	-9.23443856756263	138.357896935665	
1026250000	-0.741255360367431	-85.8363010664672	-59.0365685126267	156.560695883733	-59.4700221289656	156.208550528108	-9.23094226611427	136.703781154814	
1026875000	-0.742897225746425	-87.5325735748665	-59.4675899391324	151.403878765516	-59.648533930002	155.55773851449	-9.2247645107812	135.034107703991	
1027500000	-0.743106095976593	-89.2367016869652	-59.4153552951585	152.174589850001	-59.580642883602	151.557651490369	-9.21913597968853	133.388318564677	
1028125000	-0.745446649211564	-90.9352105246369	-59.307123148738	149.779916732182	-59.9528931703281	149.695950442005	-9.21450472034064	131.74975165934	
1028750000	-0.746587015262635	-92.6373330758042	-59.3039902726801	147.316590152094	-59.9419273947277	148.304396758715	-9.21045265997283	130.109496744275	
1029375000	-0.748558476498903	-94.3409820364952	-59.228926316141	144.518130265035	-59.7258091467457	147.33471676191	-9.20417001484704	128.446672089664	
1030000000	-0.750382896959097	-96.031765396405	-59.2514053990908	143.221360139535	-59.4665690663162	146.742246103973	-9.20297775889033	126.821110683643	
1030625000	-0.751754041516383	-97.7460216890327	-59.6751603024171	139.714270828411	-60.0565319292611	143.681619933467	-9.19274740691138	125.147930749401	
1031250000	-0.753208944393045	-99.4549965204505	-59.7629252239335	139.97470472549	-59.9176283022667	140.396117681609	-9.18666609177449	123.509315691815	
1031875000	-0.755089330277365	-101.157934937207	-59.4649258910537	136.135664603276	-59.6592216553912	135.983706339052	-9.18024093107664	121.856809969935	
1032500000	-0.756989333963459	-102.86501318168	-59.5151184721764	136.122215843046	-59.9029813445065	135.841588229945	-9.17675975551449	120.215539070779	
1033125000	-0.758938343432962	-104.575760326543	-59.4182695659141	132.530236784541	-59.8045377068716	134.11096601789	-9.16998473648694	118.566251044711	
1033750000	-0.761089068750804	-106.285778445113	-59.8978681940069	132.281148599525	-59.927717250203	129.964512372986	-9.16245316199857	116.927732996478	
1034375000	-0.762171469322995	-107.9962366018	-59.3617977590834	127.723927982823	-59.9042193105194	128.044995970352	-9.15482225506255	115.269358404282	
1035000000	-0.764639785743797	-109.710249149561	-59.5583344761441	126.272127087981	-59.8748063861853	125.734632790466	-9.14722320442285	113.631556039493	
1035625000	-0.765474819195182	-111.410902356555	-59.3266741112037	124.278536996847	-59.8167480834151	123.146336979497	-9.14260749999887	111.984923885994	
1036250000	-0.767492480923447	-113.131905204764	-59.5317446629098	122.197940053425	-60.0253831268042	120.864160677106	-9.13491779017752	110.350341294993	
1036875000	-0.769805960580234	-114.845933317729	-59.374780758855	119.205753161306	-59.942319526133	118.897341593828	-9.12746233158429	108.709705825433	
1037500000	-0.771327071049328	-116.557787633184	-59.7672240172766	117.878778798508	-60.5820370341515	114.762139027227	-9.11734069351869	107.071326162175	
1038125000	-0.773292076334485	-118.276851439435	-59.5760550049094	115.544277953086	-59.7927096545714	114.64760790466	-9.11085918617809	105.422671481493	
1038750000	-0.774751515251157	-119.98337574239	-59.5337082991183	112.774303589294	-59.7703166468527	110.763930536955	-9.10378746188978	103.789965148354	
1039375000	-0.776750553050621	-121.712437792031	-59.5911077383787	112.049796737059	-60.1365127434082	111.137225164796	-9.09396033885296	102.162996474419	
1040000000	-0.77926485248684	-123.435147521279	-59.7668773926213	107.075389430359	-60.4122279148009	106.05203437308	-9.08349485610256	100.502932273064	
1040625000	-0.780665185637446	-125.146195584049	-59.6124681270913	107.53694470846	-60.1519714677871	108.378692848386	-9.07905773641926	98.9004851442377	
1041250000	-0.783289671408419	-126.868610188741	-59.7343981829051	106.975484810249	-60.2372230275983	104.14509594661	-9.07045744324248	97.2712056477611	
1041875000	-0.784892179418807	-128.59042183602	-59.9110365115271	101.972048147738	-59.7268989509904	101.580105019595	-9.06273489258585	95.6337444977698	
1042500000	-0.787385936712026	-130.307576844467	-59.7811332724869	99.9255570606138	-60.033021973507	98.3306880660191	-9.05221044388341	94.0087773817621	
1043125000	-0.789475796965859	-132.032372930581	-59.742557419832	98.464876161053	-59.9740894600212	99.1438975252947	-9.04421508442952	92.3786875493734	
1043750000	-0.791041130106949	-133.762333604223	-59.8373979683106	96.4975832520343	-60.4759425726874	94.3741855731928	-9.03551173359598	90.7467750546463	
1044375000	-0.793513376173123	-135.483065402761	-60.014451004016	93.725863037301	-59.8804140902735	92.1037273984229	-9.02614724419171	89.1208525543728	
1045000000	-0.795290228733062	-137.214617779854	-59.7437815122301	92.409900603714	-60.4444032556913	90.2724158545301	-9.01588954349347	87.5029198378231	
1045625000	-0.797014920035128	-138.936106306308	-59.7043547892767	89.3249625302283	-60.0294354332101	89.3077660107838	-9.00811245278454	85.894841662051	
1046250000	-0.79865587126274	-140.663608998316	-59.7039214114622	86.8014273039759	-60.3633064874956	87.744289362925	-8.99994861006722	84.2652652606876	
1046875000	-0.801516841492482	-142.385814996422	-59.8609230409074	86.0429180464865	-60.2041395054688	84.4612686177228	-8.98949715427421	82.6407381554204	
1047500000	-0.803821251804408	-144.122640163607	-59.8637773791855	84.4946986280057	-60.4112395677833	81.4489967419991	-8.98026801536999	81.0332502783155	
1048125000	-0.806596157847715	-145.854005462217	-59.7912907543444	83.0012870524488	-60.2280996889928	81.9193112684582	-8.97028469742739	79.430295731172	
1048750000	-0.808332354015347	-147.58309231721	-59.9213104140732	80.838133811499	-60.1699069122345	77.419102068913	-8.96217980681126	77.8100609726018	
1049375000	-0.810478645587927	-149.315291198651	-59.9413824371916	76.404861838394	-60.3259442744707	76.1797912461123	-8.95324037663494	76.2034951664182	
1050000000	-0.813112501058361	-151.051052594086	-59.9158296133185	76.2117090764899	-60.4362360744681	75.0492388492932	-8.9409033351502	74.6161998217551	
1050625000	-0.814387649362939	-152.784146294018	-59.8215533174748	73.0439486163166	-60.6654340486942	70.8877865255531	-8.93235283536894	72.9947914866483	
1051250000	-0.816683496921323	-154.521964463702	-59.9437704849122	70.9306271704575	-60.1026672345596	69.7839830575293	-8.92209891856217	71.3920629759598	
1051875000	-0.818273273226387	-156.257665250004	-60.1732948270998	67.3037309120496	-60.3285537696704	67.8476303761353	-8.91183713544913	69.801690614055	
1052500000	-0.820434662237965	-157.986426310167	-60.2656927725624	68.5262257446533	-59.7795269228901	67.5682214843921	-8.90222493386041	68.1921751578856	
1053125000	-0.82353880631108	-159.729950229449	-59.9555558828273	67.7739321134606	-60.2400853130405	62.6629134026208	-8.89150912890736	66.5991152029277	
1053750000	-0.825090544614723	-161.468308557059	-60.2947613867965	64.1563123123742	-60.4160703455664	62.3697243295127	-8.88245417650578	65.003873393771	
1054375000	-0.827985020308609	-163.210956399941	-60.2384692215258	62.8681161227632	-60.1340498436624	58.1928257214345	-8.87059770376151	63.4216370185904	
1055000000	-0.828548098663235	-164.956969864197	-60.1659692606331	60.0974528691164	-60.6911743188837	56.4727201976671	-8.86191147052174	61.8242658092779	
1055625000	-0.832536667494135	-166.691504768027	-60.448771489257	58.75535398766	-60.4020137416551	55.8034390325783	-8.85007789440145	60.2297445115127	
1056250000	-0.833815437064035	-168.437609547702	-60.4305948126002	54.4609882171507	-60.3546752015454	54.312004984447	-8.84121895506144	58.64630581217	
1056875000	-0.836019495049416	-170.177542226141	-60.4146358164077	51.9585842877092	-60.3525989217884	51.9140624723883	-8.83222004294245	57.053218389967	
1057500000	-0.83847208501186	-171.922998300511	-60.3045313857162	51.2314140235947	-60.5025825784755	49.6321433643202	-8.82057592539827	55.4821171404139	
1058125000	-0.840792560223633	-173.670016111084	-60.5525616910451	48.1339775731652	-60.4751934434541	45.4846188241107	-8.81194158102978	53.8873699298342	
1058750000	-0.841901072146799	-175.409119878778	-60.422991727586	45.2889998095807	-60.3882090861325	47.0167789133302	-8.80318535928451	52.3039179288359	
1059375000	-0.845648512065912	-177.161476029567	-60.1553068773568	45.4419554532087	-60.3710221390859	42.8737188214293	-8.79290239750897	50.7393879262292	
1060000000	-0.845528959854565	-178.904781710808	-60.479475919536	42.128873444986	-60.5932017573664	43.0439905404217	-8.78463970121287	49.1451689629313	
1060625000	-0.850033342247614	179.348089964005	-60.4384723278975	42.4566781856922	-60.4164576565537	38.5736028949797	-8.77351684891557	47.5690113386429	
1061250000	-0.85182001359294	177.600584805993	-60.1059090537435	38.1945477855746	-60.468705962656	37.593089882134	-8.7666587651363	46.0146910226811	
1061875000	-0.85514842170093	175.846478401209	-60.3401294012412	39.5328512871043	-60.1904804919787	33.2381369522545	-8.75479426471179	44.4304773186355	
1062500000	-0.856077495344523	174.104620374448	-60.371183881789	35.8789725686046	-60.1228261895628	31.8163615306644	-8.74496639639001	42.8748009643967	
1063125000	-0.858922614395828	172.346144137847	-60.6648383608358	32.2393916515279	-60.4933635286937	30.3882964249701	-8.73848638969282	41.2907870400178	
1063750000	-0.860244815221192	170.598418105352	-60.5172543888669	30.8749713769254	-60.6371940945904	30.6416126501274	-8.72831805628272	39.7346793877082	
1064375000	-0.863353632056223	168.847232508344	-60.5680887212873	29.007087451634	-60.6059827755095	25.8653400971974	-8.71937709656305	38.1600520249741	
1065000000	-0.86357436680189	167.105602238874	-60.5207028108524	25.0918649340882	-60.4174813129967	22.8799784404126	-8.70921990803272	36.6103770952864	
1065625000	-0.867093071404821	165.34666020199	-60.5117937298054	21.9766099636207	-60.7529620745346	22.9879130967424	-8.70168590985187	35.0527004660517	
1066250000	-0.868669522468182	163.592506757146	-60.8641480395155	21.1606166278556	-60.802189615646	20.6737142827445	-8.69305597620542	33.4923198694964	
1066875000	-0.871260633797541	161.844354117215	-60.5171719485319	19.7118636125744	-60.5775922408907	16.8218341682895	-8.6852817441391	31.9455470663632	
1067500000	-0.872575046979423	160.089105229974	-60.6556645735042	19.3831301673873	-60.8547286547357	17.4336239107107	-8.67627699960109	30.4025965065855	
1068125000	-0.87520996409355	158.333201400339	-61.2471728880325	15.7840516493772	-60.587261672439	11.5926735030481	-8.66822326333817	28.8340596088568	
1068750000	-0.87718341998961	156.578060152867	-60.3455850049948	13.6284179357107	-60.5412434476509	10.3013388053717	-8.66002405696811	27.2933600606907	
1069375000	-0.87920894122128	154.827573691749	-60.5271018371622	12.0564475136174	-60.5573221429235	8.28319957749601	-8.65092757842643	25.7411581613767	
1070000000	-0.882228751007138	153.082781365655	-60.649713425681	9.29436764953977	-60.2547924004153	6.96550621393624	-8.640755146796	24.2099582315657	
1070625000	-0.882387295233921	151.315395956042	-60.8418147724753	7.04299716853608	-60.2708017729673	4.03519424493668	-8.63559711943095	22.6553291034425	
1071250000	-0.88464479871018	149.562394244004	-60.8014204345986	3.49408917716646	-60.7033597411416	2.41868352154032	-8.6282861243771	21.1144076564429	
1071875000	-0.886002090029887	147.814631665579	-60.7183443914968	4.91765187284272	-60.5440585572564	0.26197842419452	-8.62017827511279	19.5697225882769	
1072500000	-0.887697047974694	146.05362300137	-61.3275809928872	0.824688559562051	-60.8733456444088	1.35882349506498	-8.61314837373237	18.0428724598557	
1073125000	-0.889550543309545	144.290339061014	-61.2035959287771	-0.744412589801561	-60.5906021871649	-1.11026844185536	-8.60658862736498	16.4895568194878	
1073750000	-0.891015063299754	142.542505281026	-60.8936766797223	-1.90066900491936	-60.597569126603	-3.19045358927178	-8.59843063411277	14.9632788253449	
1074375000	-0.892654390029954	140.779623263327	-61.2842117306161	-4.82289338802824	-60.5196725850497	-7.27594912513663	-8.5910835876245	13.4211283722531	
1075000000	-0.894791844395597	139.015969510905	-60.9063116679342	-6.81698859974814	-60.5175968909432	-9.65457589175424	-8.58724296259154	11.8913228638465	
1075625000	-0.896190085415951	137.267789383433	-60.7922908159838	-8.35187463952369	-60.6597232973263	-10.3658459178024	-8.57826126543313	10.3542032131754	
1076250000	-0.897260309613393	135.513972103927	-61.1092711078465	-10.6215274545245	-60.7198818487536	-11.930343902093	-8.57301558095069	8.83231174567267	
1076875000	-0.898651356947275	133.751741661767	-61.1242497554524	-11.9499306864662	-60.4834298260035	-14.7194802271344	-8.56642470803555	7.30998438256021	
1077500000	-0.900521057220047	131.993035456664	-61.0225121999001	-11.5659049868108	-60.571067823569	-13.6924379125171	-8.56126113854744	5.78265528782434	
1078125000	-0.902491830664025	130.232795410329	-61.3491654539131	-16.4270580053881	-60.4539929947207	-15.6243488168786	-8.55487253593114	4.25360426416772	
