!Keysight Technologies N9923A: A.08.15
!Date: Wednesday, 14 February 2024 19:53:55
!Timezone: (GMT-05:00) Eastern Time (US & Canada)
!Model: N9923A
!Serial: MY52412730
!GPS Latitude: 
!GPS Longitude: 
!GPS TimeStamp: 0001-01-01 00:00:00Z
!GPS Seconds Since Last Read: 0
!CHECKSUM:1998652962
!Correction: S11(ON Q)S21(ON Q)S12(ON Q)S22(ON Q)
!S2P File: Measurements:S11,S21,S12,S22:
# Hz S DB R 50
1000000000	-39.3354955216808	-72.6869225463442	-3.73194644371573	21.1682539217403	-3.74470023342702	20.7961839376347	-27.053210581521	-0.74956644109478	
1001666666.66667	-39.8059138724178	-71.7999097501148	-3.72533249750412	16.4149038033185	-3.7412834475922	15.9840129710678	-27.0790060753832	-2.49668862043054	
1003333333.33333	-40.0049975543367	-71.3614109607168	-3.72350962465827	11.6315808933361	-3.74113213287786	11.2282888759926	-27.0798132222086	-4.67837876021502	
1005000000	-40.1395350214577	-71.9433823554353	-3.72142105963044	6.83879037289434	-3.74036065118054	6.49499651055958	-27.0843988443248	-6.59792341324959	
1006666666.66667	-40.2505236022058	-70.2398872861265	-3.72160080133334	2.101811442199	-3.7370622515692	1.68250883302054	-27.1975132313584	-9.4696503517743	
1008333333.33333	-40.1762238866799	-71.1176918215083	-3.72076934807243	-2.68983748345155	-3.73694666931356	-3.06958087840418	-27.2512864270395	-12.1965837026116	
1010000000	-40.1740772707908	-70.286263386276	-3.72129066034614	-7.48151834882704	-3.73337472527138	-7.8699210897003	-27.3789042097803	-14.9516454801655	
1011666666.66667	-40.0798582884656	-72.6095337273423	-3.72808674304887	-12.2209506859574	-3.72446683743543	-12.6305890818082	-27.4978155509732	-18.1821503715642	
1013333333.33333	-39.8337803140026	-74.1670521248576	-3.71572667626106	-17.0562329446133	-3.73504379835219	-17.3467891563447	-27.7060880881459	-21.1566633534333	
1015000000	-39.6743061354994	-76.9331301037281	-3.72007605446304	-21.7927766784976	-3.73141969949901	-22.1616492466579	-27.9230086634586	-24.7150757476777	
1016666666.66667	-39.3645218437497	-80.8612400157429	-3.71658609489043	-26.5941969013858	-3.73117026301955	-26.9074350084039	-28.1749265232061	-28.778128999685	
1018333333.33333	-39.4416058226543	-84.96263950863	-3.71950841647853	-31.361332479094	-3.72750299604073	-31.6891360258276	-28.4266246943665	-32.6871978642743	
1020000000	-39.2686715091118	-90.4481415860541	-3.7180270812846	-36.1154610738925	-3.72462687193557	-36.471385929474	-28.7335024436821	-37.13600494844	
1021666666.66667	-39.0481646209956	-94.8943669473699	-3.72076338948978	-40.933805827426	-3.72681951247106	-41.232095456667	-29.0872850633314	-41.5466507315908	
1023333333.33333	-38.8412889027333	-102.735214662224	-3.71544181902352	-45.7187607071338	-3.73150931619967	-45.9946515865029	-29.5272012571457	-46.2921636631262	
1025000000	-38.5886751227223	-108.86703506309	-3.71198564772615	-50.48875526235	-3.73752747442825	-50.7708327544008	-29.937066628959	-51.8123889053849	
1026666666.66667	-38.5234562709584	-116.405059062299	-3.72627208354084	-55.2531543573181	-3.72289068362919	-55.5714641940487	-30.3900145753395	-57.2536508759218	
1028333333.33333	-38.3276063639022	-124.051137976983	-3.72212607923673	-60.0317415901106	-3.72775046752758	-60.3412174617404	-30.908891530642	-63.4768546057882	
1030000000	-38.1484715729621	-132.677699385313	-3.72265107203834	-64.8509003333248	-3.72926292037175	-65.0409340832705	-31.361478390454	-70.0059833760624	
1031666666.66667	-37.6905762623554	-140.900345019792	-3.72289841321109	-69.581686987113	-3.73084174802904	-69.8856016655332	-31.9401445119958	-77.2336330700675	
1033333333.33333	-37.3083728595534	-149.600999669483	-3.72110335761582	-74.3366360440451	-3.73743052155101	-74.6806478845977	-32.449563338085	-85.6775842687702	
1035000000	-36.8322681467058	-159.401040818098	-3.72314577157376	-79.1914776479743	-3.73898481793346	-79.372033823305	-32.9249220299575	-93.7848745907744	
1036666666.66667	-36.4807132206589	-168.203534452628	-3.72249667958026	-84.0107051539468	-3.74244469624861	-84.0988494365689	-33.3115153156828	-102.944833254895	
1038333333.33333	-36.0570227430867	-177.247078686746	-3.72742525246618	-88.7175655628264	-3.73712868102684	-88.9248320771907	-33.7286584218792	-112.877412568078	
1040000000	-35.5442814891006	173.366598323268	-3.73539941717993	-93.5224585607305	-3.74178206728333	-93.6817632186261	-33.917960652111	-123.678216250334	
1041666666.66667	-34.8607197263593	165.662215910725	-3.73230814871326	-98.2585307839554	-3.74411871491958	-98.4478075375321	-33.9304634583513	-134.17767200442	
1043333333.33333	-34.3568551816744	157.831717518138	-3.72947124289278	-103.049343906906	-3.75211513881614	-103.195027085577	-33.749660088161	-144.757854774892	
1045000000	-33.7259015266872	149.959323129027	-3.733795395902	-107.731228978862	-3.75133310821848	-108.038791210945	-33.4887851288212	-154.671625649482	
1046666666.66667	-33.1618739045387	142.48976703541	-3.73088363717807	-112.52782937297	-3.76205695194313	-112.768316890806	-33.0873633922363	-163.707426325516	
1048333333.33333	-32.6448382552406	135.227829909557	-3.73221265471047	-117.333315823568	-3.76532749364604	-117.475152476917	-32.6627899294347	-172.329498956211	
1050000000	-32.1015387752741	128.115456552629	-3.73653790259488	-122.120207567166	-3.75790015863058	-122.225277788257	-32.1728901919222	-179.675536104206	
1051666666.66667	-31.6338978683308	120.94812820623	-3.73870452746724	-126.859435603926	-3.76901916120576	-126.988356532243	-31.7731829661221	173.042790127993	
1053333333.33333	-31.1326705174973	114.332376854509	-3.7388062635266	-131.62971344424	-3.77404643492997	-131.731163798237	-31.2624893606634	166.545920048289	
1055000000	-30.7538127550161	107.596603330624	-3.74705963899865	-136.379770627407	-3.77218504645105	-136.497979238882	-30.73705463154	160.957046268747	
1056666666.66667	-30.3151693257465	101.404513519541	-3.74217000856797	-141.116759676899	-3.78074220777804	-141.29778599825	-30.2990257682559	156.029264075726	
1058333333.33333	-29.9405475813492	95.1347839004874	-3.75101710024906	-145.887094385118	-3.77729832821092	-146.036067409357	-29.9123339813724	151.488875980121	
1060000000	-29.6025831268957	88.6415354055035	-3.75960794095015	-150.618830806115	-3.77770189969532	-150.789117013285	-29.4931918538846	147.269679551196	
1061666666.66667	-29.2732053569555	82.603511950274	-3.75258097178059	-155.386594874079	-3.78541854815091	-155.559571989064	-29.0716027623241	143.130887328654	
1063333333.33333	-28.954497296965	76.1718260994037	-3.75811109935547	-160.106363253105	-3.78358637180948	-160.355018782368	-28.6992034373171	139.768701810552	
1065000000	-28.7166333430218	70.0927081033725	-3.7529788134815	-164.892218450042	-3.79511121537395	-165.09638746562	-28.3582877258254	136.25555864132	
1066666666.66667	-28.509661066492	63.6735993156546	-3.75596553267183	-169.647911399375	-3.7945533586379	-169.838391169342	-28.0428055730469	133.406197194194	
1068333333.33333	-28.3006142926374	57.9795440355131	-3.76502859172758	-174.404555108906	-3.78766627581066	-174.606384576295	-27.8111978809543	130.895880070557	
1070000000	-28.1650858657445	51.8341063726737	-3.76417389690344	-179.194564183912	-3.79321140765482	-179.353282337683	-27.5117532977789	128.291742684728	
1071666666.66666	-28.0046899530637	45.4866065556104	-3.76137182744932	176.039512470685	-3.79903550109237	175.921250817307	-27.277790203213	126.028679076449	
1073333333.33333	-27.8914423766596	38.924507270449	-3.76293713061781	171.312679877988	-3.80069305082525	171.139985908326	-27.0640614906709	124.000139875834	
1075000000	-27.7857820524377	32.7983965484064	-3.76544263872332	166.57875115006	-3.8000532208686	166.356159466392	-26.7987147427401	122.071848606339	
1076666666.66667	-27.6896904496855	26.4931422390097	-3.76375110699026	161.802184985392	-3.80527610615582	161.592292980187	-26.6216852506651	120.242446452895	
1078333333.33333	-27.6250275272969	20.0699500144849	-3.77426243982875	157.044343554363	-3.79702500536577	156.823874315501	-26.3981343301559	118.90116491759	
1080000000	-27.6493268752806	13.9128201912321	-3.76607868692796	152.276807120521	-3.80266625998967	152.055654095875	-26.1288593860451	117.253348382375	
1081666666.66667	-27.6662066095448	7.31388103714627	-3.774005047588	147.507819295436	-3.79782289867005	147.311402374305	-25.927152590542	115.896696101132	
1083333333.33333	-27.660221281013	0.742762540172051	-3.77223019987747	142.73790545991	-3.80074116063765	142.545546499492	-25.7118784799661	114.328103301107	
1085000000	-27.6829203361818	-5.89656296622746	-3.77463021033547	137.964242343417	-3.80051447800485	137.795334951644	-25.4991583989705	113.362559660983	
1086666666.66667	-27.7039172458312	-13.1095636243711	-3.77818935045292	133.232115504294	-3.79996870994948	132.984077150765	-25.2905703234987	112.149648640607	
1088333333.33333	-27.7671786348918	-20.0207945639174	-3.77883419533703	128.446327321695	-3.80058763428663	128.243918627536	-25.0509868277691	110.975659351891	
1090000000	-27.8409437021609	-27.4779685444334	-3.77561867583077	123.639105965987	-3.80199541891353	123.527334783954	-24.8229330370008	109.677653997681	
1091666666.66667	-27.8756982424476	-34.6160470348428	-3.78035673477291	118.915527029698	-3.80157059427519	118.703180475784	-24.5823128864638	108.63579877221	
1093333333.33333	-27.9563980136373	-41.9171824501651	-3.77642814963506	114.134159837516	-3.80768714712178	113.948568924048	-24.3557248441371	107.345861181575	
1095000000	-28.0199287535436	-49.4312503658427	-3.78094761384352	109.411052627419	-3.80431791302747	109.136961418825	-24.1117429862992	106.002395821528	
1096666666.66667	-28.0785928322148	-57.1406080727259	-3.78469716627217	104.591983679504	-3.80190060252843	104.42755443958	-23.8414770069412	104.701553883584	
1098333333.33333	-28.1086765135251	-65.1045782490698	-3.78172278888811	99.8317528512896	-3.80811944164318	99.6453017601214	-23.6347966871324	103.31656138687	
1100000000	-28.1449123031978	-72.5866104243678	-3.791959846821	95.0842733476093	-3.80110128925549	94.8699524447484	-23.3960994539724	101.894317477502	
1101666666.66667	-28.1581153758234	-81.1364134363271	-3.78747902667819	90.3344642414267	-3.80672831595803	90.0943219525303	-23.1281731042388	100.288670796831	
1103333333.33333	-28.1116968600219	-88.7901551747458	-3.78462707936641	85.5696075681075	-3.81139949010413	85.3111740797803	-22.9232528238615	98.5199816089993	
1105000000	-28.108275121142	-96.6767428257771	-3.79203994054218	80.826008801004	-3.80866959340869	80.5299257934873	-22.701177527961	96.9355609513298	
1106666666.66667	-28.0305992782859	-104.581853809858	-3.78711967388659	76.0172268758077	-3.81615187275823	75.8183719858254	-22.5174343998014	95.0367004002935	
1108333333.33333	-27.9290003448644	-112.115935174815	-3.7897635777118	71.2759787011137	-3.81685443804771	71.0326774498977	-22.3042980480827	93.2902204905735	
1110000000	-27.827014029544	-120.143554213836	-3.8032835259912	66.5049758914511	-3.80786716238591	66.2434357299628	-22.1318691979006	91.4918985666567	
1111666666.66667	-27.7923893863336	-127.263468321154	-3.80003425606538	61.7269751534536	-3.81428292827275	61.5215526225235	-21.9906561333438	89.4415149877611	
1113333333.33333	-27.6577430199643	-134.61921338348	-3.79901760398784	56.9582261864817	-3.81802488136692	56.7513951137176	-21.8292540676187	87.4527508555725	
1115000000	-27.5249450937337	-141.722820661697	-3.8028451522865	52.1975761466307	-3.81760673119667	51.9636287184135	-21.681195327836	85.237555218619	
1116666666.66667	-27.4159961420214	-148.95973836828	-3.80334927332556	47.4934278159876	-3.82092668080454	47.1720916868491	-21.566502052834	83.1988585935541	
1118333333.33333	-27.2683844076979	-155.504493194332	-3.80337373119165	42.6761621943592	-3.82609639187413	42.4636222322361	-21.4766190908151	81.0694287931032	
1120000000	-27.1858232045324	-162.21140967177	-3.8043759650955	37.9305285229123	-3.82659338996806	37.6875503507316	-21.3830269902623	79.0465002884805	
1121666666.66667	-27.033648983392	-168.703943297181	-3.80991391027222	-146.835322003285	-3.82729318359799	-147.049467207276	-21.3399140254266	76.4839640942923	
1123333333.33333	-26.9440895423513	-175.050908397137	-3.81527625700577	-151.547380391059	-3.82663344154917	-151.857220214534	-21.2861145772956	74.4522913449405	
1125000000	-26.8200177823577	179.019176837858	-3.81358200724822	-156.374500521171	-3.83059035420999	-156.539526184344	-21.2725911905527	72.1578575325481	
1126666666.66667	-26.7854984478659	173.424033067144	-3.81593100092562	-161.094555854595	-3.83233062168426	-161.315284761515	-21.2633341615956	69.8727112324894	
1128333333.33333	-26.7081849649258	167.719310685273	-3.81564571258745	-165.808338884709	-3.83572087567352	-166.116319916196	-21.2585595980898	67.5946120162639	
1130000000	-26.6746672443102	162.117438748582	-3.81937233167267	-170.621922758206	-3.83469704890216	-170.797145426041	-21.2980438395616	65.5460174402199	
1131666666.66667	-26.6252913787455	156.785700984777	-3.81488149229542	-175.341352574218	-3.84257490631682	-175.580951838515	-21.330618512299	63.1719452098219	
1133333333.33333	-26.6997056652058	151.602251980546	-3.82942972435744	179.872758688689	-3.83140759909223	179.711504251059	-21.413083118201	61.0334680282481	
1135000000	-26.6882158357176	146.502410615587	-3.82432647524192	175.112640742431	-3.83723931136527	174.957096525194	-21.4872520531564	58.9995436578011	
1136666666.66667	-26.7640118922696	141.650741036135	-3.8240921596443	170.380504018634	-3.83986842466731	170.204917288439	-21.5773432406306	56.9107002474872	
1138333333.33333	-26.8176935236183	137.049791158709	-3.8181189705034	165.639453572735	-3.84763751093726	165.451988073362	-21.6715080061445	54.6367602994071	
1140000000	-26.946248217611	132.247379149734	-3.82391185566314	160.893558423934	-3.84657635308734	160.71359496872	-21.8010868722131	52.5987662326486	
1141666666.66667	-27.09747897239	127.918656899466	-3.82745068764651	156.220350251067	-3.84324637865179	155.899502769939	-21.9644369977727	50.5483726284692	
1143333333.33333	-27.2457236810163	123.293214679055	-3.81659799007174	151.407139014507	-3.85356112789831	151.23828645791	-22.1448784784258	48.7040664419847	
1145000000	-27.4306097395658	119.19232478749	-3.82389037370773	146.682831349263	-3.84726238067196	146.47462945125	-22.3187427945116	46.8387681542399	
1146666666.66667	-27.6809996191885	114.819091220406	-3.82369943259319	141.959984890848	-3.84943147559191	141.713622810894	-22.535179380618	45.1526827213984	
1148333333.33334	-27.9191001384349	110.881393770979	-3.82416464965084	137.196212811162	-3.84908166678307	136.988767794698	-22.7271878081129	43.3994765276433	
1150000000	-28.2214088970779	107.267251413101	-3.818764957931	132.486015534991	-3.85313694325737	132.210282435388	-22.9362525828177	41.9236547401669	
1151666666.66667	-28.6285214272764	103.139596183484	-3.82468512752239	127.7062611488	-3.8460488242524	127.509051858374	-23.1596687785767	40.2361213850045	
1153333333.33334	-28.9427790523958	99.8525382330081	-3.81908580382363	122.97428576248	-3.85204628073569	122.757414238615	-23.3902158273739	38.7753494263856	
1155000000	-29.3324016821937	96.4753326621124	-3.81732417674883	118.227042727027	-3.85180534177717	118.030314413333	-23.6487985910754	37.5259182247196	
1156666666.66667	-29.8247923406995	93.5317707079218	-3.8172393618513	113.486493176269	-3.85308217666471	113.27494500655	-23.8941646212353	36.2742397674369	
1158333333.33334	-30.3152235837818	90.2217238432835	-3.81772941062115	108.752615167012	-3.84941279592489	108.502115105593	-24.1524987754419	34.9647631523201	
1160000000	-30.8900196726905	87.2268723790784	-3.81037968500467	104.012149760311	-3.8521950051462	103.771393881782	-24.3829292445306	34.1637308308814	
1161666666.66667	-31.5102009598914	84.8913026097638	-3.81352333892136	99.2433880220798	-3.8517289459788	99.0182342678056	-24.6299100485585	33.2499176354668	
1163333333.33334	-32.2328035355506	82.7288063827048	-3.80865630603102	94.48271188696	-3.85330620527738	94.2716355581862	-24.8839612506092	32.3661436593157	
1165000000	-32.9135340287903	80.3529429760487	-3.80848173554414	89.7881124484112	-3.85475565568812	89.4467277430929	-25.1353403390827	31.5751769993582	
1166666666.66667	-33.7197170097061	79.4066925034585	-3.80586851220936	85.0319017239523	-3.85319309977657	84.7112485320826	-25.3338534298744	30.8803207389776	
1168333333.33334	-34.5275441922922	78.1467935027161	-3.80487604377859	80.2481643287993	-3.85306567532478	79.9814286980189	-25.5777725114763	30.232965273226	
1170000000	-35.5460501617288	77.3888593578607	-3.80452909333314	75.511651857738	-3.85419897953644	75.2031172437621	-25.7584042391461	29.5652738365946	
1171666666.66667	-36.488413438485	78.1715366200931	-3.8048069362106	70.7738080746793	-3.84929199944803	70.418953409151	-25.9900535847039	28.6569726611604	
1173333333.33334	-37.5299414791817	79.8245022572981	-3.80119356006671	65.9916157629443	-3.85295795951404	65.6887848929489	-26.1438256105691	28.0899853181009	
1175000000	-38.5729165136322	82.7473548566444	-3.80476803613843	61.2418564022733	-3.84659921381575	60.9054468530338	-26.3549950124465	27.1908211074515	
1176666666.66667	-39.8180034042725	87.189783739119	-3.79905768835167	56.4719034415568	-3.85088327618445	56.1540637000325	-26.5197893443227	26.0506179895902	
1178333333.33334	-40.691892853947	93.6279534062693	-3.79730069292709	51.726568653621	-3.85068694553622	51.3764124670669	-26.6728953684723	25.0660456134403	
1180000000	-41.3206232500775	101.223024133187	-3.79338132616938	46.9773003879481	-3.85353775195117	46.5729035434669	-26.8584079291791	24.0425393582358	
1181666666.66667	-41.8386447883256	112.159555683705	-3.7997151572059	42.1886707809258	-3.8451465286524	41.8441785560388	-26.9899321121226	22.6887063842784	
1183333333.33334	-41.9702333018767	119.121685725675	-3.7947348235154	37.4596829998771	-3.84978667908778	37.0481591035587	-27.1675623980877	21.0212879283511	
1185000000	-41.4931019946441	127.865248289566	-3.79657093535338	32.6715292232932	-3.8461671874164	32.2888892779119	-27.3296223819683	19.5215606511338	
1186666666.66667	-41.0153506156576	135.357530455717	-3.79389298227804	27.8823623701814	-3.8463244605678	27.5554186221598	-27.5127068420854	17.5411641846012	
1188333333.33334	-40.6943329600672	139.384463767811	-3.79137149506796	23.1869215047571	-3.84862133233954	22.7240023587711	-27.7123220126926	15.5435671882308	
1190000000	-39.970672665185	143.495713223845	-3.79081220784953	18.3924312796802	-3.84536590561694	17.9717934147924	-27.9257329876504	13.483971246977	
1191666666.66667	-39.5393253133761	146.261295513907	-3.79590451101871	13.635791186695	-3.84250814806042	13.206518742742	-28.1885333812773	10.7340527969969	
1193333333.33334	-38.9609439783793	148.289799331633	-3.79320493821331	8.85534527569687	-3.84214680256712	8.44794076195691	-28.4217909832595	8.137565207179	
1195000000	-38.6701490733698	148.936059134355	-3.78503178201474	4.09278716599793	-3.84665155215499	3.67452867091402	-28.726322894851	5.15645516436316	
1196666666.66667	-38.365102780792	151.188196980031	-3.79469386624551	-0.683475794426711	-3.84053778978389	-1.08522344048146	-28.9968324645715	1.83116397584334	
1198333333.33334	-38.0726816240226	153.052935073895	-3.79162290717325	-5.46948990670767	-3.84249529744731	-5.83197252914795	-29.3423610043871	-1.83413499465779	
1200000000	-37.9697695667336	154.401260919173	-3.79018932976287	-10.2114221033265	-3.84223771489406	-10.6069611870022	-29.7619805245785	-5.25476786450308	
1201666666.66667	-37.7036340992155	155.973611484872	-3.79679336409571	-14.9559405544196	-3.83604073903179	-15.4115462206153	-30.1613682186583	-9.7660800499296	
1203333333.33334	-37.5877158390749	158.017489999878	-3.79805717021269	-19.7596723710811	-3.83425119164854	-20.1438052320931	-30.5646961532345	-14.4155040133879	
1205000000	-37.3507225628834	161.557316167152	-3.79944953871399	-24.5019679814007	-3.83316070982001	-24.9374304263758	-31.0245286279282	-19.5279197922223	
