!Keysight Technologies N9923A: A.08.15
!Date: Wednesday, 14 February 2024 17:39:42
!Timezone: (GMT-05:00) Eastern Time (US & Canada)
!Model: N9923A
!Serial: MY52412730
!GPS Latitude: 
!GPS Longitude: 
!GPS TimeStamp: 0001-01-01 00:00:00Z
!GPS Seconds Since Last Read: 0
!CHECKSUM:1315801665
!Correction: S11(ON Q)S21(ON Q)S12(ON Q)S22(ON Q)
!S2P File: Measurements:S11,S21,S12,S22:
# Hz S DB R 50
1000000000	-9.34935970319188	-150.9025962684	-56.6151183819104	-135.024784655393	-56.397254412959	-132.777590187962	-0.773847380426581	-14.2599436652099	
1000500000	-9.33406176590372	-152.199204618597	-56.5278645622594	-135.319013970278	-56.5882560297047	-134.342791752545	-0.780696858044088	-15.6280863601818	
1001000000	-9.32022212668692	-153.461572257747	-56.8118247859759	-138.481571859497	-56.3078613422258	-137.290554282858	-0.784323476897886	-16.9892639143804	
1001500000	-9.30617699700152	-154.744732449474	-56.4984098547954	-140.105281046454	-56.5826423757696	-139.507454551967	-0.788724199691099	-18.350325952843	
1002000000	-9.29146773836131	-156.026362094397	-56.8151529716329	-142.0173040991	-56.4145326780586	-142.267761176631	-0.794536138953492	-19.7210127525748	
1002500000	-9.27636273105983	-157.297677166992	-56.6189765184716	-144.253101761192	-56.6367610772189	-142.672503328878	-0.798737795517049	-21.0831926599307	
1003000000	-9.26429245312905	-158.576502936171	-56.4081628915779	-145.736629485334	-56.7269065755992	-144.139709627732	-0.802976862081962	-22.4489598873058	
1003500000	-9.24870923140978	-159.864293889299	-56.7243694454796	-148.303617364666	-56.7316414586145	-146.627330125935	-0.806815174288836	-23.8136723206106	
1004000000	-9.23521982387487	-161.135711025356	-56.6900201945324	-149.697488496375	-56.6575607257378	-147.826029229258	-0.813141715050924	-25.1827078563941	
1004500000	-9.2227443119011	-162.417431648272	-56.6234451518032	-151.562076350579	-56.6670477112372	-152.165765227702	-0.816572062022973	-26.5420627709238	
1005000000	-9.20740408496362	-163.693973797927	-56.6461947519539	-153.792694943511	-56.5906842707752	-152.206464195083	-0.821227076712327	-27.9082028956409	
1005500000	-9.191176789599	-164.990067585977	-56.7999957465165	-155.961814833319	-56.6918553595484	-155.293424255918	-0.825387635580183	-29.282024144101	
1006000000	-9.17865116582664	-166.24819267223	-56.7377024124792	-158.66542961128	-56.799624392412	-155.162392770123	-0.830074895461483	-30.6383716997031	
1006500000	-9.16291032700764	-167.526878106414	-56.7574548874123	-158.143347067149	-56.8627742159831	-156.348984160015	-0.83437350101733	-32.013470904348	
1007000000	-9.15233028808681	-168.797147086233	-56.7157382835018	-160.016702449406	-56.6836790650987	-158.973037800886	-0.837364023764309	-33.3793996683083	
1007500000	-9.1374216993924	-170.079097747839	-57.0639142517226	-162.213174963785	-56.6883926944032	-161.223298326178	-0.841613590822257	-34.749927031273	
1008000000	-9.12443795320335	-171.35797941311	-57.0092328489243	-164.273253263048	-56.679312046988	-163.726181458605	-0.845327208014171	-36.1148730015417	
1008500000	-9.11007721095676	-172.630391848687	-56.6997817602714	-166.454754306984	-56.8042966629973	-163.654157547232	-0.849757947436217	-37.484893561537	
1009000000	-9.09482147614797	-173.91074708591	-56.8739869133288	-167.427287680138	-56.9399213071843	-167.015668150204	-0.853803499323816	-38.8495705075916	
1009500000	-9.08208581344408	-175.185806811688	-56.7576605944847	-169.162430844642	-56.9560104817183	-169.260149610932	-0.857978467674316	-40.2172603328267	
1010000000	-9.06906825964091	-176.457425180081	-57.2329549238053	-171.79587297284	-56.8891568114375	-169.535804259938	-0.863150858930602	-41.5909574359271	
1010500000	-9.05281243317727	-177.741743399234	-56.6917733609892	-174.989940083794	-56.9601739366066	-171.143227519746	-0.86494265725553	-42.9572494867188	
1011000000	-9.04178098856962	-179.033485105491	-56.8914061867328	-174.836698626776	-57.0336309168022	-174.292145530526	-0.869268516618227	-44.3264941564139	
1011500000	-9.02652117124402	179.703754246176	-56.919150959273	-177.088097610931	-57.1458547429184	-176.212072022842	-0.87234441579428	-45.7026213649491	
1012000000	-9.01478128948417	178.434671939202	-56.7153173812348	-176.850686382272	-57.079306880837	-177.086757954571	-0.876848704335209	-47.0701247669221	
1012500000	-9.00295974061255	177.158323147916	-57.0552714056521	-179.113923966742	-56.9663090808527	-179.466747498704	-0.879376159606629	-48.4450882163777	
1013000000	-8.98505669134873	175.881068460993	-57.2879299979308	176.606058650983	-57.218926153172	178.51515695204	-0.883104444310106	-49.8097739611596	
1013500000	-8.97269775694782	174.62484532788	-57.108780363495	174.999764247624	-57.0852139164555	176.825977703095	-0.887437912578872	-51.1780256218174	
1014000000	-8.95776087046746	173.35262792564	-57.1384264253168	174.542756022913	-57.0773997172276	175.700019772729	-0.890109235355872	-52.5536168449338	
1014500000	-8.94365281570312	172.074470389099	-56.9463404777128	171.718222203939	-56.7973726441851	175.429984618666	-0.89335869428926	-53.920155255574	
1015000000	-8.93091277409791	170.787387242429	-57.055106365291	171.610105979255	-57.1245599744658	172.697213741091	-0.897058320137376	-55.2912840136959	
1015500000	-8.91672517686274	169.523334109188	-57.123193428625	169.465122114466	-57.1763698639571	170.023190684921	-0.899842110391269	-56.6618406573657	
1016000000	-8.90376673004062	168.258240769215	-57.2130436149576	168.771325345216	-57.305592250474	168.529291946701	-0.903472458685331	-58.0360402126936	
1016500000	-8.89104908577408	166.989468011717	-57.0812030774511	165.884960721441	-57.2318200319793	168.55044720411	-0.905141830637723	-59.4100329940172	
1017000000	-8.87634416569236	165.713193843752	-56.9908903921103	164.662591235374	-57.0244375352231	166.431407469276	-0.908276264515	-60.7813849860097	
1017500000	-8.86205191832127	164.432190332586	-57.133591988377	163.320707840437	-57.2292832395934	162.94778034071	-0.911012904349845	-62.1572372385479	
1018000000	-8.84973383498438	163.177138474309	-57.2098610182337	161.448337987979	-57.2120616392721	163.154586329496	-0.914430832943673	-63.5264605320392	
1018500000	-8.83611514897895	161.901273076554	-57.1173412624947	158.338369149798	-57.0766407685546	159.376742721453	-0.917421165243926	-64.9018596523967	
1019000000	-8.82289306431131	160.632442780377	-57.2824270279028	157.303305850788	-57.2610829433005	159.713663607561	-0.919938602713353	-66.2847855544617	
1019500000	-8.80794877020966	159.366237556488	-57.1474591103277	156.73564598572	-57.1230254491384	156.358239206558	-0.921138101762579	-67.6489015380113	
1020000000	-8.797412499974	158.068081258807	-57.1872121889284	152.654577997996	-57.3410032846536	155.232598259498	-0.921551688979627	-69.0304454865859	
1020500000	-8.78118863082745	156.814123987847	-57.2475103328432	153.291557881969	-57.4058449810899	153.289836071716	-0.926135400264793	-70.3994847157798	
1021000000	-8.76723137537852	155.559924283594	-57.5276568518605	150.013755191568	-57.3573087501746	151.984762087954	-0.929010328701087	-71.7829813847238	
1021500000	-8.75737442237798	154.274218469283	-57.1947664077432	148.320430649271	-57.4283424698531	151.66043992932	-0.929911340274836	-73.1615477770066	
1022000000	-8.74375336429945	153.009522556363	-57.3060271846685	146.941157364525	-57.3734940297798	147.971204435205	-0.932305343040869	-74.5327323725725	
1022500000	-8.72987196947145	151.749591891583	-57.2962353539127	144.982651794831	-57.2601939202633	146.392580575475	-0.935218064055375	-75.9119968049765	
1023000000	-8.7159205660028	150.455207276597	-57.4789435692756	144.70134874743	-57.4353738543462	146.222521728139	-0.937812316210871	-77.2900285782667	
1023500000	-8.7048372232441	149.203178790462	-57.1575695873015	141.546091048677	-57.6640564225571	143.626442264604	-0.938617336463213	-78.6679836334259	
1024000000	-8.69235113628306	147.924666380621	-57.3631676981354	141.385529647924	-57.389402523803	142.467339449766	-0.93975423424388	-80.0429456497356	
1024500000	-8.67887264431246	146.660709591343	-57.5161371777407	139.519155161136	-57.6321162978596	141.559127689549	-0.941712402908073	-81.4205681565512	
1025000000	-8.66528386300719	145.387967731671	-57.4156885182458	137.78683505235	-57.6994194976835	138.445649150169	-0.943849603723767	-82.8049498596993	
1025500000	-8.65223490087348	144.116668484028	-57.4726340542592	134.378122627103	-57.6670896762851	137.589026689078	-0.94521903103539	-84.1757385161843	
1026000000	-8.63977914311318	142.858081533444	-57.3687810009632	134.571729747655	-57.6013603050918	135.293162844783	-0.945171044257927	-85.5608650607146	
1026500000	-8.62925338027171	141.599920661948	-57.2425808147869	132.652917620337	-57.3687972270068	132.164611210773	-0.947352735046483	-86.9470592486189	
1027000000	-8.61505337315077	140.336501474122	-57.2999690161578	129.945764807705	-57.6741341792882	132.071437115532	-0.948984047030709	-88.317925241496	
1027500000	-8.60503866593639	139.058094703004	-57.2384661408487	129.97756829732	-57.8230480230397	129.851086424747	-0.948390208055719	-89.6963566793841	
1028000000	-8.59280935396802	137.793217327614	-57.3367368940966	127.819407546323	-57.7115366383854	127.946733055152	-0.949277221761218	-91.0905045609671	
1028500000	-8.57875650789422	136.522229821669	-57.4564426978145	125.411244162465	-57.8364388746104	126.298731531854	-0.951189239291215	-92.4577833769305	
1029000000	-8.56697078763271	135.27285539377	-57.3760196084865	124.403557991536	-57.6465249159218	126.32033334346	-0.952017520867284	-93.8374212535352	
1029500000	-8.55283278348353	133.994896113736	-57.474593699532	122.376745815359	-57.6827615607671	122.252896497197	-0.951933182085136	-95.2199121877426	
1030000000	-8.53922872795908	132.739698060429	-57.6730595319163	121.192829440803	-57.8976113657494	123.865214521665	-0.954654860288632	-96.6010013697474	
1030500000	-8.5306348463658	131.452011002664	-57.3388938810775	120.255581752749	-57.8522511488332	120.297320665938	-0.953708602726524	-97.9794690305497	
1031000000	-8.52007080226339	130.192918106721	-57.4556382075655	117.504660625156	-57.8618080440053	118.453056214768	-0.95443569373466	-99.3725030364518	
1031500000	-8.50612027600515	128.935642194229	-57.4756721240216	117.200682071183	-57.7742866953907	116.371445254431	-0.953375863914045	-100.746226668267	
1032000000	-8.49656350265494	127.677589201207	-57.6605779009516	115.284700624314	-57.7348753074417	116.876623367778	-0.953712753841585	-102.131777369493	
1032500000	-8.48352433241048	126.407983063578	-57.5515516786444	114.077340068937	-57.8894718578877	112.873053271409	-0.955822625393218	-103.521844646442	
1033000000	-8.47239084890752	125.142798813983	-57.5017622147615	113.159547317295	-57.8104737586251	112.335051853487	-0.955484271076741	-104.898273745366	
1033500000	-8.46120078656458	123.871891368961	-57.7679318252748	110.379645934874	-57.836097803261	110.450386060174	-0.955179161829689	-106.280923591582	
1034000000	-8.44897704356685	122.619362395028	-57.5534737147477	107.496650632018	-57.9117993454589	108.61909484755	-0.954419475587315	-107.662933648117	
1034500000	-8.43848251415835	121.344018940111	-57.6854578208007	106.857834239771	-57.857632158255	107.804953448933	-0.954157317408719	-109.04618267017	
1035000000	-8.4285184463206	120.086908334268	-57.5995060573388	105.827576940845	-57.9736348651583	105.713648174176	-0.954215572738977	-110.441835142988	
1035500000	-8.4158444281867	118.830217216613	-57.5827757167068	102.95440815466	-57.8150950837882	104.829222181027	-0.954271591533206	-111.804479963367	
1036000000	-8.40377369518949	117.56265312385	-57.3741016858839	102.184547197025	-57.754635691041	100.734747250526	-0.953639436366762	-113.199668499461	
1036500000	-8.39379013774661	116.30601349344	-57.4198697119864	99.7216111475141	-57.7617669144709	100.098497634057	-0.952351242651328	-114.591861843616	
1037000000	-8.38188649291977	115.044190093171	-57.810222025698	97.9045106677478	-57.9304774324187	96.5365439621076	-0.952467589299874	-115.971099937589	
1037500000	-8.37027279856823	113.786607253533	-57.7332933340074	96.428711719184	-57.8068257571765	96.4516559597075	-0.951595100762179	-117.348482943178	
1038000000	-8.36049749790475	112.520402904165	-57.7080846379933	97.0102520965315	-57.8898407853313	93.8035202834432	-0.949672707112937	-118.740526295407	
1038500000	-8.35093089914551	111.267687333668	-57.866834135479	93.1449688744112	-58.0219158946798	94.7241917734886	-0.948869777257051	-120.124062783227	
1039000000	-8.34040565928977	109.989805143518	-58.0138564409981	92.7928335819483	-58.0646719193539	90.543543070496	-0.947928560238856	-121.511849471443	
1039500000	-8.32916562254697	108.731760762228	-58.1693942700139	90.6449572759283	-58.1825785927826	90.3704503425705	-0.946279552434002	-122.899789893601	
1040000000	-8.32244509181041	107.474852971461	-57.7324607900118	89.2633700662928	-58.1307483510827	88.9585446997743	-0.943603674025252	-124.284091278102	
1040500000	-8.30725647191531	106.217510397913	-57.901759834163	89.200960032745	-58.0925511960713	87.7181361429216	-0.943401746553365	-125.666529198398	
1041000000	-8.29930728173998	104.951119113457	-57.5718614363194	88.1125658590856	-58.1051907665455	85.7101846926606	-0.943043181767468	-127.048963295554	
1041500000	-8.28870399935553	103.694433895927	-57.4800746133258	85.1888584514296	-57.8503006326164	83.4848152309525	-0.941322328166412	-128.4250531754	
1042000000	-8.27877430603922	102.430729691417	-57.9068092586817	85.7574446391892	-58.1475189737861	82.6339708546156	-0.941030448499556	-129.819991090766	
1042500000	-8.26936192479004	101.179812414492	-57.8686878550549	82.1745095330428	-58.1682227000918	82.0745784538027	-0.939694245982273	-131.208394987197	
1043000000	-8.25862312129492	99.9168004399292	-58.0323079227469	80.804088246957	-58.1215154412943	79.7316535860238	-0.936016365357986	-132.5836269212	
1043500000	-8.24981548263335	98.6576167768143	-57.7757740398811	80.8932550410426	-58.0717982126009	77.4662980132977	-0.934956003317447	-133.97458203287	
1044000000	-8.23984182346805	97.3974916094467	-58.2174767645645	77.2063745384268	-58.1177205734816	77.4502234350982	-0.933849444989127	-135.363909833257	
1044500000	-8.22917816602161	96.1425657376565	-57.8743166848449	76.7652725993491	-58.1386690270137	74.5682781100102	-0.930633634068799	-136.753115637826	
1045000000	-8.2220218125459	94.9051041023704	-57.6628259167263	75.2958903526635	-58.2695919090645	73.458208047971	-0.929509859356258	-138.129275179866	
1045500000	-8.21241677148174	93.6326282966347	-58.0100355361124	73.4162514228595	-58.1175870329856	71.8344221674313	-0.926272913022935	-139.516336244497	
1046000000	-8.20157160755621	92.3826827696101	-58.0258751962952	70.3884465936181	-57.9260370250404	69.7624413521294	-0.925622867552086	-140.914505411916	
1046500000	-8.19380547359116	91.1273937512426	-57.9121434715594	69.2502671323188	-58.0197497679553	68.2657947169096	-0.921408242047352	-142.29219393809	
1047000000	-8.18375846618486	89.8620731470472	-57.928247837762	68.0761131303432	-57.966614581336	66.4667892686887	-0.919223252058424	-143.683867164753	
1047500000	-8.17598722964034	88.6058614368215	-57.8914601525415	67.8137553371036	-58.2688101034068	64.3100054246001	-0.918697510446912	-145.07237471695	
1048000000	-8.16782478020069	87.3670625554674	-57.9800155248947	65.7276850067913	-58.1243777856	62.0369418328631	-0.916170780421792	-146.454734899535	
1048500000	-8.15885298148843	86.1039675254547	-57.9880450050302	62.9641666333585	-57.9738360670377	61.5022169719985	-0.913157100429012	-147.845295358626	
1049000000	-8.1488094504768	84.8505493221089	-57.9603854445242	61.4529835133193	-58.3445581257385	60.0220164537433	-0.911862335481636	-149.229898277235	
1049500000	-8.14384226580722	83.5962110591717	-58.1119912827808	59.8848359536148	-57.9071663260573	58.9744305883914	-0.90837581345982	-150.615784958545	
1050000000	-8.13191931049014	82.3246475814144	-57.9472120490225	57.2034172892323	-58.1697810625569	55.8855626838293	-0.905469948283211	-152.005253911543	
1050500000	-8.1243239246088	81.0798758425188	-58.2291308759461	58.3199019402664	-57.9958517764419	54.9903767925558	-0.903320384437305	-153.393509219039	
1051000000	-8.11665493803551	79.8430549326333	-58.1339359359882	55.2910624391395	-58.1151441539731	54.0914597018395	-0.900480323790974	-154.773162760743	
1051500000	-8.10637729421311	78.5769422264811	-58.2055220131613	52.1754355405647	-58.1408427057359	52.5442228469216	-0.898174835864618	-156.162174999407	
1052000000	-8.10014165565785	77.3267759153745	-57.7710228930364	52.3195046221559	-58.2995109309595	51.5360710636204	-0.895165051946748	-157.555919704401	
1052500000	-8.09270824278198	76.0760337002149	-58.0616568841147	50.3031889439169	-57.9691616181627	48.5816308391043	-0.892047373878231	-158.945332672996	
1053000000	-8.08568852186337	74.8230598427945	-58.0368808077931	48.746108161909	-58.2942995818783	46.5746502661916	-0.891021592115239	-160.322519111164	
1053500000	-8.07697870653497	73.5710354749501	-58.005909857217	47.5971654437006	-58.1577151070443	45.3777685856398	-0.888223277078946	-161.709441649973	
1054000000	-8.06901273041978	72.3334407086786	-58.214706838282	47.2944067294711	-58.1763418644675	44.3398851494441	-0.884135810971023	-163.102431604922	
1054500000	-8.06239708295817	71.0770854558764	-58.3590924946546	45.3327814826242	-58.1103889280053	42.7966995547029	-0.882186309767425	-164.484364737668	
1055000000	-8.05353580231816	69.827193024498	-58.2414432703862	42.6234254723273	-58.1063399400897	41.3937738766161	-0.87913338749586	-165.878013701207	
1055500000	-8.04557573827433	68.5809532388885	-58.1922439750085	41.4798428563131	-58.3553092922826	40.6135939893428	-0.875149840595174	-167.255677092012	
1056000000	-8.03839281782857	67.330094790236	-58.1243404734609	40.343253687876	-58.336652065583	38.7134423206801	-0.872353671503875	-168.647171302806	
1056500000	-8.03063219535518	66.0786272455932	-58.1471800908513	39.1689162545685	-58.2910722633703	37.367563128618	-0.869507736089748	-170.033090776185	
1057000000	-8.02543373279162	64.8304932369552	-58.2317274173512	36.5520629448797	-58.2853430663381	36.71157043708	-0.866614422873454	-171.419796018263	
1057500000	-8.01782406723121	63.5750766435898	-58.4664776068614	35.3464055226555	-58.0047509616428	33.696491123541	-0.863494728338184	-172.812752509879	
1058000000	-8.00900792970543	62.3191502027034	-58.4424130900796	34.0703559785556	-58.0436188513452	30.1898165993839	-0.860768273297837	-174.197473124527	
1058500000	-8.00176809793186	61.0796184729269	-58.3509099130783	31.8571962598734	-58.0983143486723	31.7563182431783	-0.857223964379052	-175.588112686508	
1059000000	-7.99510298427263	59.841155924069	-57.9483840267188	30.1731431801676	-58.1605389863578	28.2085693219216	-0.85435953361751	-176.979081373463	
1059500000	-7.98807893039729	58.599092051342	-58.3855268330677	28.015046683172	-58.3867615138826	26.4745596095341	-0.850645503150453	-178.355242156678	
1060000000	-7.98286240438252	57.340046148076	-58.5791544174127	28.8720654076586	-58.5515737003801	26.7555064482139	-0.845937224652523	-179.742817598701	
1060500000	-7.97522531228251	56.094211814094	-58.379531631944	25.3959035092092	-58.1236150241141	23.5260283720246	-0.844165887458501	178.860542591007	
1061000000	-7.96850500268613	54.8443140380639	-58.692991551393	25.9477598595031	-58.1735598320257	22.7880819637352	-0.840498801464591	177.475193332926	
1061500000	-7.96356624547004	53.5911903645724	-58.5543837283117	24.2452047384368	-58.1881592977017	22.3345707556752	-0.83792271080894	176.082773387594	
1062000000	-7.95434816537631	52.3468798317766	-58.3480557187149	22.5776554100324	-58.5450088830833	20.6178518232207	-0.834746757160934	174.707547503867	
1062500000	-7.94849094349449	51.0990463757978	-58.5631865255215	21.0389473356129	-58.1519942978348	17.4275411103579	-0.830945817278383	173.315863420996	
