!Keysight Technologies N9923A: A.08.15
!Date: Wednesday, 14 February 2024 17:42:23
!Timezone: (GMT-05:00) Eastern Time (US & Canada)
!Model: N9923A
!Serial: MY52412730
!GPS Latitude: 
!GPS Longitude: 
!GPS TimeStamp: 0001-01-01 00:00:00Z
!GPS Seconds Since Last Read: 0
!CHECKSUM:1050993248
!Correction: S11(ON Q)S21(ON Q)S12(ON Q)S22(ON Q)
!S2P File: Measurements:S11,S21,S12,S22:
# Hz S DB R 50
1000000000	-9.35531611782325	-150.689395886844	-58.2080941769127	-135.261133791335	-57.4878900441206	-133.87567989726	-0.773509230084388	-14.3241446292423	
1000500000	-9.33856996075492	-151.975893820509	-57.8015168493613	-138.941142564642	-57.6245931156603	-135.621913539902	-0.779710128431962	-15.6881524843979	
1001000000	-9.3231939420398	-153.261074294066	-57.7253871109473	-139.971296529272	-57.4102873336545	-139.635366927963	-0.783251670544999	-17.0498804048446	
1001500000	-9.31093342312422	-154.52934019818	-58.1705530617301	-140.537945686395	-57.5353867895352	-140.394855364256	-0.787895764699213	-18.4187418405659	
1002000000	-9.29683019425077	-155.800058467693	-57.8882169081258	-143.205318249275	-57.3587095438934	-141.983427867086	-0.792833064003915	-19.7804248139075	
1002500000	-9.28166408738718	-157.073645187696	-57.5956394758666	-143.917374230999	-57.5640704097939	-144.034972428256	-0.797779738859636	-21.1476459002904	
1003000000	-9.2680799460687	-158.363155356926	-57.7897936259994	-146.428678307572	-57.5049817559674	-145.538723515052	-0.801293094439122	-22.509801556907	
1003500000	-9.2517647713752	-159.647559311072	-58.040840914609	-146.81065611416	-57.7815975969797	-146.896087742861	-0.805583598920418	-23.8725980683858	
1004000000	-9.24056870369512	-160.901587233591	-58.0533846844264	-149.639261070403	-57.6183923520804	-147.961133977008	-0.810931915024256	-25.2385962427641	
1004500000	-9.22518402577817	-162.19909046902	-57.9999536804939	-151.741271010559	-57.5102826124052	-150.607894964341	-0.814202269667325	-26.6002380864557	
1005000000	-9.20979544109136	-163.477970855472	-57.7139452595466	-154.998429204451	-57.8400776398723	-152.519212741601	-0.819539312779791	-27.9650082999177	
1005500000	-9.19628244254895	-164.768604071397	-58.3761360095665	-153.285561476481	-57.5402384938024	-154.327495301783	-0.822631760057723	-29.3347458862799	
1006000000	-9.18284732640394	-166.023120775945	-57.9465427088165	-157.353946442908	-57.6225760134105	-154.973916128011	-0.827071796060362	-30.6932096780818	
1006500000	-9.16598878725604	-167.317778108789	-57.767438891729	-157.757603885389	-57.5500422535761	-156.25241428275	-0.830690795137625	-32.0632802661801	
1007000000	-9.15292010939467	-168.576380951669	-58.1105061657964	-158.207518696683	-57.5672212027142	-159.425147977552	-0.833961771758295	-33.4279697946174	
1007500000	-9.13823317212464	-169.866477084886	-57.7138198435954	-162.271001450719	-57.8215243999086	-161.636105164431	-0.838433220089352	-34.7965925758741	
1008000000	-9.12568181746263	-171.147737540953	-58.046953470536	-164.415371679624	-57.7796474717748	-162.110688089256	-0.841622348621055	-36.1588208363492	
1008500000	-9.1108107234986	-172.41864892118	-58.1009534128398	-165.133358833714	-57.5290011140497	-163.647386788045	-0.846014683355863	-37.5268355926222	
1009000000	-9.09618773158964	-173.697359131828	-57.9267053696605	-166.430618210176	-57.6919358156156	-164.044109426553	-0.84965416216477	-38.8951940140104	
1009500000	-9.08420195136572	-174.968107144184	-57.9521363987406	-168.426738876926	-58.1002192955945	-166.916739016602	-0.854175427454251	-40.2543919437142	
1010000000	-9.07063685562663	-176.230446561785	-58.1361332383598	-170.186823883647	-57.8363599645013	-169.186227607412	-0.858393114862837	-41.6273756857924	
1010500000	-9.05503123155667	-177.517088563903	-58.1585167532914	-171.383973551629	-57.9016778524118	-171.053940745646	-0.860762694849456	-42.9940787202186	
1011000000	-9.04235092351799	-178.802865186652	-58.1524386452749	-173.722309187457	-57.8367659709693	-171.827458353667	-0.864943396573793	-44.3605736579007	
1011500000	-9.02737172217693	179.929013095295	-58.0169130729025	-176.839257573302	-57.9568723332817	-172.395016597324	-0.867908540442525	-45.7339585833676	
1012000000	-9.01541298818947	178.653871987325	-57.9799189759076	-177.076005674798	-57.6181463121693	-174.60456987747	-0.871712368104864	-47.1036548976827	
1012500000	-9.00181289238766	177.377040535499	-57.9982790304518	-179.248124559546	-58.0299710912073	-177.509935515507	-0.874919308895944	-48.4756759621304	
1013000000	-8.98525288321612	176.111210353451	-57.7754591231564	178.724283012866	-57.6501485938597	179.830827790483	-0.878458015845366	-49.8336714198451	
1013500000	-8.97327779419902	174.847074848043	-58.1019792525468	177.403250084282	-57.7831048047512	178.928264301357	-0.881895600310947	-51.2007653949983	
1014000000	-8.96014146861853	173.577343106376	-58.0511197888318	174.687923111981	-57.9792277166198	177.890751087912	-0.884734833791143	-52.5765118201301	
1014500000	-8.94437165096693	172.299133421697	-58.1492976064534	174.560382764965	-57.9244421526963	175.777978498013	-0.887627228757655	-53.9395148406307	
1015000000	-8.93070750367395	171.029037067609	-57.9971967509376	174.886779010925	-57.8946162332737	174.739039557776	-0.890632063484948	-55.3063645438395	
1015500000	-8.91670860047726	169.763856116188	-57.9686976544396	171.411085243888	-57.9831370485064	172.182864088936	-0.893095647555201	-56.6738252593465	
1016000000	-8.90347580078394	168.492651532035	-58.1662889396939	171.177730030051	-58.0538267066173	170.217205782305	-0.896743799610306	-58.0484055194409	
1016500000	-8.89076783798105	167.211133260569	-58.1178080393737	168.750769627599	-58.078384225939	168.673831369053	-0.898169390131134	-59.4129414464362	
1017000000	-8.87694479786574	165.946298087091	-58.1999252895924	167.379966257371	-58.1887458516794	166.320621369744	-0.901340186232267	-60.784452234709	
1017500000	-8.86229523987964	164.675355418915	-58.196431575867	164.027225494556	-58.1371979080933	164.752762201599	-0.90376505447355	-62.1581834141387	
1018000000	-8.84817748911348	163.400709693049	-58.4157572140015	162.923156910035	-58.0299816529191	164.210212110835	-0.906667612214842	-63.5252742244559	
1018500000	-8.83638125117667	162.131007586994	-57.9435906254962	162.215953325307	-58.0890030487137	162.583400588037	-0.909976883913574	-64.9008325212417	
1019000000	-8.822285008995	160.865223763918	-57.8651695170466	160.19492408183	-57.9471104543799	159.713484399134	-0.912488600596499	-66.2768265355659	
1019500000	-8.80809127186753	159.600570232546	-58.2423710362929	156.02673687377	-58.0159126287471	159.851070719561	-0.913187083106517	-67.6395939017921	
1020000000	-8.79646413129114	158.311552147809	-58.1734443565534	157.463081882513	-57.8539698828018	157.639991075705	-0.913554935783196	-69.0180642425874	
1020500000	-8.782171308242	157.049733565075	-58.0520770791652	156.156843058516	-58.1366862059438	156.081691651246	-0.917771466471931	-70.3841178367197	
1021000000	-8.76709658672659	155.793164943642	-58.3336118162428	153.591282368076	-58.1387248652161	152.378702007041	-0.91980164202568	-71.7632943100321	
1021500000	-8.75704170983941	154.51958940724	-58.1267739572023	151.151456497042	-57.9528162921684	152.961078687399	-0.920901549564652	-73.133983944944	
1022000000	-8.74339494613023	153.248055319245	-58.052428690082	149.072036933753	-58.2137070149821	149.990576020564	-0.923422448882673	-74.5101738563846	
1022500000	-8.73002917977333	151.9845462254	-58.0002520833156	147.865485800308	-58.1920779187664	147.713530196316	-0.925710259425278	-75.8825946338223	
1023000000	-8.7153264390052	150.710956412321	-58.0541580928442	146.260956842592	-58.1880110472853	147.345525327657	-0.927939431495555	-77.2599998845106	
1023500000	-8.70290615767976	149.442074190976	-58.4291979696171	146.028957311948	-58.1981650372074	145.434778014472	-0.928307570128228	-78.6313971031546	
1024000000	-8.69284438217068	148.167192305843	-58.1481051766318	143.222805349537	-58.0934628663022	142.26379148763	-0.92945149275115	-80.0031996467938	
1024500000	-8.67703953454386	146.905902819824	-58.1730826886005	142.172773154609	-58.3524324617299	141.758834377882	-0.93176954175075	-81.3798038339519	
1025000000	-8.66380141104312	145.634582682978	-58.1099621459471	140.169072664947	-58.200575039417	139.034174235359	-0.932937429387069	-82.7549043521173	
1025500000	-8.6515741155965	144.378580788742	-57.9862213305933	139.088014050116	-58.0131736222578	137.738487858094	-0.934464931116943	-84.1303381499548	
1026000000	-8.63947927395904	143.09823019435	-58.2381416280607	136.267344178303	-58.4587456580422	136.332048671912	-0.934434998697462	-85.511576748732	
1026500000	-8.62537452198111	141.841349413066	-58.128095836878	135.495985219131	-58.04094537675	134.614494959731	-0.936692892409308	-86.8889731553166	
1027000000	-8.61368314071239	140.579244897325	-57.944278736377	133.598376749372	-58.295764748154	134.236995476725	-0.937467054179214	-88.256824791212	
1027500000	-8.60312324161146	139.301639966295	-58.0722161675886	133.492852656407	-58.0355282785556	130.594238307668	-0.937151716603404	-89.6358379510586	
1028000000	-8.59036682398753	138.046108050857	-57.9900562640743	131.175948949018	-58.3497161138903	130.8347563037	-0.938120722922223	-91.0159065695069	
1028500000	-8.57478751022101	136.773068149323	-58.0988580336915	129.428506314758	-58.3841427514359	129.259337233808	-0.938899615566938	-92.3901480319605	
1029000000	-8.56427580864748	135.510641671347	-58.2166050055585	127.335998241083	-58.3153140328662	126.820564374823	-0.940516267548477	-93.7668850447811	
1029500000	-8.54991704198812	134.242960592495	-58.0937474448664	125.134731779686	-58.3992940654669	124.669206153797	-0.939759525209735	-95.1370442065462	
1030000000	-8.53545439953591	132.993109394621	-58.231261227724	124.835118162248	-58.5311960054489	123.260560517662	-0.942474767069257	-96.5177886613613	
1030500000	-8.52561081620506	131.707010140841	-58.3053709036735	124.943700381074	-58.2488322748112	122.892324774291	-0.941971660882952	-97.8964218501944	
1031000000	-8.51727835632405	130.443241393064	-57.9730927358021	119.680916635415	-58.4130929494781	120.368160376316	-0.941960126924544	-99.2798884690809	
1031500000	-8.50279241545097	129.184044418177	-58.029751956677	120.863043775042	-58.4082446793016	119.06042591473	-0.941010183953843	-100.653391815783	
1032000000	-8.49242993086539	127.919412097279	-57.8343224291776	117.697451260725	-58.3502379005613	115.945044904631	-0.940646760625972	-102.043254027547	
1032500000	-8.48174624349848	126.655107274742	-57.9098086097845	116.778730060048	-58.4327332555979	116.292707958545	-0.941869028373722	-103.429449630882	
1033000000	-8.46908732509109	125.389422602174	-57.6739547355889	114.94530583684	-58.5154440755836	113.572504236704	-0.941253179979397	-104.798916729681	
1033500000	-8.45776111490785	124.11628413661	-58.1413824698484	113.344235369093	-58.5185751202885	112.783581810566	-0.942092781584482	-106.176990016735	
1034000000	-8.44600744722887	122.867017686314	-58.0533303193323	111.513412420386	-58.5378435970442	111.473353842506	-0.940971870844305	-107.557836207488	
1034500000	-8.43543056972065	121.596918501408	-58.1403428009568	108.742291954709	-58.3804470663101	108.267821379657	-0.941116134357376	-108.93840695566	
1035000000	-8.42370180091189	120.328976412537	-57.8107702063664	107.772659527062	-58.438733839742	107.02385301184	-0.938664163198487	-110.325122534228	
1035500000	-8.41274029832521	119.079050239431	-58.013735522127	105.216305605629	-58.3161928274061	105.88333176101	-0.940679185289033	-111.685158975435	
1036000000	-8.40118737305256	117.81028866191	-58.0831783218119	106.86984473862	-58.3469088660096	103.488683946617	-0.939316650738616	-113.080072416551	
1036500000	-8.39010185671939	116.552688598694	-57.8762095130567	103.596367749266	-58.3900517784093	101.356480895826	-0.938399706191533	-114.465809960641	
1037000000	-8.37922331071382	115.289401767077	-57.7477462726491	101.690606740146	-58.4999875594309	100.739431034129	-0.938349633338008	-115.84186979431	
1037500000	-8.36796110353886	114.027508301623	-58.3086652826225	98.2608188769688	-58.5131735748753	98.8247260904356	-0.938103458519574	-117.217435912161	
1038000000	-8.35838662637619	112.770806182449	-58.0892835591615	98.7133629336804	-58.2998414948618	96.3592752117503	-0.93492214808569	-118.604806223545	
1038500000	-8.34899482445717	111.511379688927	-58.3565299807857	96.1543495524805	-58.54291779068	95.6578786367197	-0.934478245249442	-119.986366972991	
1039000000	-8.33783863357259	110.239241702409	-58.0279308834352	95.0707516500304	-58.7043353061793	93.1865240653803	-0.933266471475463	-121.370602118199	
1039500000	-8.32809696333101	108.975158651863	-57.9470871757711	91.2212481298777	-58.3692833512524	92.8604821450361	-0.932109838713812	-122.753504065359	
1040000000	-8.31968036966036	107.717500328947	-58.2530600257617	89.8674716069141	-58.7046019153818	88.7312324907825	-0.928868071115398	-124.136509065232	
1040500000	-8.3050992171036	106.46386985037	-58.5165873096513	90.8891285873119	-58.4764744504375	88.5560507661798	-0.928593635702424	-125.518457650938	
1041000000	-8.29681873710903	105.1954850844	-58.1479375294727	89.7923598355814	-58.3738852640947	86.1376030609296	-0.926709738786841	-126.900264151372	
1041500000	-8.28590669108159	103.943999458269	-57.9756082145804	86.2998090141714	-58.5943679903642	85.7675929419785	-0.926073955809939	-128.269109143414	
1042000000	-8.27704078229262	102.683594961796	-58.5058165683014	86.4966380409223	-58.7521331239348	84.2057977076074	-0.925311390564064	-129.664928164898	
1042500000	-8.26715503199752	101.416573453168	-58.3027592311812	82.8922485414011	-58.7145202230229	83.3697077473185	-0.92465666101534	-131.04674468511	
1043000000	-8.25707275263851	100.159993225043	-58.2455406391638	80.5208155585413	-58.3306413022878	81.8213214759875	-0.920210270690262	-132.41987231768	
1043500000	-8.24890053937343	98.9014526320056	-57.8684577577294	80.8540364121377	-58.7008574192785	79.9249766751999	-0.919908273124603	-133.809115631169	
1044000000	-8.23872518470175	97.639092644308	-58.405078829536	78.231735753023	-58.6016910971382	77.9487398881816	-0.917491727943977	-135.194385254648	
1044500000	-8.22717493627161	96.3894002991007	-58.1309723490448	78.2242066270138	-58.2457027835613	76.5936459990866	-0.915348658050578	-136.581712532353	
1045000000	-8.2190540412762	95.1411770460902	-58.3251123258118	77.5950418417942	-58.6234529899108	76.2026143462525	-0.913741305159025	-137.956606847516	
1045500000	-8.21121509274585	93.8710669489858	-58.425136218922	74.7650840993268	-58.7310056903546	71.017473827217	-0.911161110585029	-139.341053166101	
1046000000	-8.20199060492534	92.6203998049913	-58.3801827755325	74.2515458726063	-58.4552117278506	70.4045640422087	-0.910257147022814	-140.734315369037	
1046500000	-8.19264388701035	91.3630012844539	-58.2501194219766	72.2008363841904	-58.3240947463044	68.6406454493795	-0.905624832420558	-142.113051661918	
1047000000	-8.18343257170662	90.1121750609437	-58.4486383829288	70.4730378320252	-58.5060693411351	68.0525420864017	-0.903303808558012	-143.500096476506	
1047500000	-8.17555772337286	88.8449802717078	-58.1754629882732	68.837250693665	-58.5300461336331	67.9675763044797	-0.902052455247237	-144.887764966714	
1048000000	-8.16695903824263	87.6090846765353	-58.4448603143061	66.1916478415191	-58.4119432543411	64.3172728663795	-0.900663180501295	-146.27022989977	
1048500000	-8.15755693998777	86.3382990781348	-58.0090872547085	66.0130746767752	-58.6003645867247	64.8237390008429	-0.897213070774718	-147.655165430672	
1049000000	-8.14713100046833	85.0884060801908	-58.5241218099013	62.195191232939	-58.6983854469818	62.1406090386777	-0.895775903231459	-149.037982364573	
1049500000	-8.14258866012413	83.8342931640782	-58.3528527826865	61.4868300959369	-58.6630829870544	59.1632650287836	-0.89167546589731	-150.419731360146	
1050000000	-8.13328891140058	82.5751358786617	-58.4346066411324	59.8707709485607	-58.6482505314905	59.8022957310859	-0.88928773889026	-151.808327019086	
1050500000	-8.12389824213683	81.3280507158863	-58.3226016449142	59.105734162981	-58.7853702813182	56.9916030630732	-0.887024208916344	-153.195191493131	
1051000000	-8.11581197162642	80.0714915499962	-58.4430655569497	56.1136913379472	-58.644110489507	54.8361102677061	-0.884526530392799	-154.576771685039	
1051500000	-8.10701319183343	78.8136757542612	-58.4299432931539	55.2704041712326	-58.8209071238115	53.4505935256193	-0.88149122705599	-155.959955119294	
1052000000	-8.09952555501358	77.5645594282146	-58.0910978564262	55.5700579905573	-58.5033373475279	51.5019513553469	-0.879068327819893	-157.352594814204	
1052500000	-8.09218919130402	76.3125683953368	-58.4044390504211	53.1802575976617	-58.8014127246858	50.378088238379	-0.875416040036674	-158.742153667672	
1053000000	-8.08582769619473	75.0601648718404	-58.5869386343307	50.1188481485394	-58.711349439749	47.2294093196394	-0.874588398516819	-160.121910051085	
1053500000	-8.07639352477286	73.8025705124524	-58.4697184804644	49.7928010555767	-58.8016840094275	48.2806129055205	-0.87063669261778	-161.499836230071	
1054000000	-8.06948213418927	72.5554045589504	-58.5726343878265	47.3307724594458	-58.7703940959469	47.3785496028458	-0.867754582686333	-162.888193243545	
1054500000	-8.0642774820988	71.3022302492173	-58.6115575769086	46.404407193413	-58.8282435728131	43.8646459992501	-0.865349377652626	-164.280362898024	
1055000000	-8.0547286532997	70.0554977206863	-58.5419356250927	44.853396482749	-58.591611619348	41.1628606531494	-0.862139766941509	-165.670127568963	
1055500000	-8.04724276901406	68.8067451406185	-58.8501903926409	43.8269436607664	-58.8431204146487	42.3306566704336	-0.859175003541626	-167.047694663703	
1056000000	-8.04171679236171	67.5614969460149	-58.6161570260103	43.5446207969755	-58.6499197304832	37.7666756498407	-0.855753591907526	-168.433674354866	
1056500000	-8.03353460603312	66.3109056967884	-58.6100794443551	39.0283652841545	-58.8095614240255	38.2797129856766	-0.852725862556751	-169.822598335386	
1057000000	-8.02619402042614	65.0576332343835	-58.6217867977671	37.4819473129966	-58.6908813792339	35.0104147979673	-0.84993007058146	-171.206576164902	
1057500000	-8.0197400135847	63.8001171683633	-58.5401167663828	37.8645450993969	-58.6981610741503	35.4264853048473	-0.846821984086535	-172.597928688495	
1058000000	-8.01263199120748	62.5545289042797	-58.9492092522662	34.8624667542712	-58.6416384662704	33.2740235357683	-0.843465041295979	-173.982928105723	
1058500000	-8.0048858505513	61.3050188568765	-58.8213758364237	31.7469078873538	-58.6326152450251	30.360193162675	-0.840665266775065	-175.377160854462	
1059000000	-7.99746314311902	60.0594929431566	-58.4632283893778	32.0604945848197	-58.8994213385219	31.8921003041966	-0.837926978610819	-176.75813591238	
1059500000	-7.99131304870937	58.813034384164	-58.7823254244769	31.3482308133335	-58.7962274025339	29.928154224634	-0.83469428992102	-178.139495179174	
1060000000	-7.98574633824336	57.5693008162432	-58.7258121864588	26.3539910715552	-58.8553778281346	27.16704687095	-0.829409030068863	-179.520423075679	
1060500000	-7.97908541590763	56.3124340451841	-58.8562082656699	26.6827877353246	-58.5970701970644	27.2624917032052	-0.828164064502835	179.078915101532	
1061000000	-7.97077068811343	55.0692536617905	-58.9281157595846	26.412907946706	-58.5221373637506	24.6119912242992	-0.82431639491447	177.692528947584	
1061500000	-7.96676313109831	53.8195497696545	-59.1868471259399	25.0782700093413	-58.6038048445051	21.7361846487218	-0.821737328144752	176.299454725702	
1062000000	-7.95909724089638	52.5620619247521	-58.6912804488275	23.2664451231413	-58.6140740247354	20.3776448203026	-0.818606237794948	174.922410112529	
1062500000	-7.95291459231864	51.3134599637728	-58.8564338479459	21.7447794349822	-58.5193396312616	19.140853287579	-0.815366473344806	173.535913937533	
