!Keysight Technologies N9923A: A.08.15
!Date: Wednesday, 14 February 2024 17:40:59
!Timezone: (GMT-05:00) Eastern Time (US & Canada)
!Model: N9923A
!Serial: MY52412730
!GPS Latitude: 
!GPS Longitude: 
!GPS TimeStamp: 0001-01-01 00:00:00Z
!GPS Seconds Since Last Read: 0
!CHECKSUM:1905855332
!Correction: S11(ON Q)S21(ON Q)S12(ON Q)S22(ON Q)
!S2P File: Measurements:S11,S21,S12,S22:
# Hz S DB R 50
1000000000	-9.35105070216189	-150.689199453889	-57.555327447964	-135.393483782389	-57.2545314003571	-134.839200219065	-0.770285026989016	-14.3474640025579	
1000500000	-9.33812153409482	-151.970581551227	-57.6742888287446	-137.953185883688	-57.5712894922934	-135.023605201138	-0.77721689146481	-15.7136912222732	
1001000000	-9.32077459779892	-153.245162220655	-57.7836953583094	-138.754732914693	-57.2874215339026	-137.945927026385	-0.780893257116312	-17.0744083582381	
1001500000	-9.308133022893	-154.532805409081	-57.7163531233473	-140.784367107294	-57.2670539701331	-140.181742421138	-0.785691598092999	-18.4423373040356	
1002000000	-9.29414509218269	-155.800320190569	-57.6552551848673	-142.663832944157	-57.7907309522158	-141.94194303731	-0.790250857626507	-19.8091693638733	
1002500000	-9.27944275378938	-157.068265588193	-57.9471039529093	-144.807298296797	-57.4167425686347	-142.767352922355	-0.795842279260387	-21.1696974321566	
1003000000	-9.26481018190431	-158.346859450049	-57.8205830782362	-146.276842898555	-57.254586369988	-146.101368640593	-0.799740919513643	-22.5299106444014	
1003500000	-9.24982050519971	-159.64167890745	-57.9185849595266	-148.457355407715	-57.7202367209821	-148.511892860431	-0.803894284572213	-23.8966651074507	
1004000000	-9.23798160922605	-160.907068899009	-57.695543965121	-150.325814717363	-57.5259950125218	-148.979332714222	-0.80834460751104	-25.2577362826161	
1004500000	-9.22321077991481	-162.201401777816	-57.863933920379	-150.69429781122	-57.4001188007527	-148.847528229482	-0.812444739187804	-26.6238377186048	
1005000000	-9.20784657421605	-163.471575409281	-58.0849448938383	-154.458659306676	-57.360218559039	-151.504951419406	-0.818199267455755	-27.9895494888555	
1005500000	-9.19419367111468	-164.766445019783	-57.9254158558435	-156.124905358327	-57.9051966360997	-154.596777561815	-0.821231853886444	-29.3599487855216	
1006000000	-9.18185543332325	-166.029441129286	-57.5938279981287	-157.900819301389	-57.4748866692736	-155.865995924701	-0.825294783557482	-30.7206852096614	
1006500000	-9.16429676155021	-167.316716474099	-57.7956823540309	-159.984157243298	-57.8238113492378	-157.80621059585	-0.829797223136408	-32.089927292876	
1007000000	-9.15118790760299	-168.586196343398	-58.1251332989438	-160.347622013694	-57.5686425514547	-159.390710449088	-0.832583073057516	-33.4550391146118	
1007500000	-9.1382615910049	-169.871064199707	-57.9930101126469	-163.534898482615	-57.8338938789969	-159.709282059219	-0.837386798160436	-34.8210583948193	
1008000000	-9.12327960246779	-171.145893959384	-58.1619383550044	-162.60817849642	-57.6602159829905	-162.946723806372	-0.84068467497611	-36.187198278363	
1008500000	-9.11059990365556	-172.420614011514	-57.9273028632431	-165.021494118698	-57.611483511382	-164.144255823866	-0.845422664994882	-37.5511122280624	
1009000000	-9.09581628786837	-173.705663204913	-57.7100199760208	-168.039369209599	-57.6580487855581	-165.627506091644	-0.848675252178329	-38.9201728442179	
1009500000	-9.08286204445145	-174.97841034533	-57.6597701434225	-169.735983108987	-57.6141907225578	-167.610287149835	-0.853794234173307	-40.2811834428907	
1010000000	-9.067914644853	-176.249916581548	-57.7791401769247	-170.648528962033	-57.7869691294093	-170.041960568202	-0.857976797919634	-41.6572711410524	
1010500000	-9.05432863053709	-177.528208636508	-57.8850735272694	-173.60346077154	-57.6246383576439	-172.200233295242	-0.859685110403075	-43.0193735328138	
1011000000	-9.03959614841125	-178.816252315507	-57.9242341675419	-174.749869283439	-57.8260632112784	-174.474237907956	-0.864307289619702	-44.3900419393515	
1011500000	-9.02821883236862	179.917452103378	-58.0572365897256	-177.936370999661	-57.7071932991827	-175.340914328687	-0.86717981366564	-45.7597017833151	
1012000000	-9.0118560048294	178.648247146147	-57.8237861404134	-176.911019408148	-57.6346302371638	-175.229793181404	-0.87126268780632	-47.1284173677842	
1012500000	-9.00184068860159	177.369216104113	-57.9452033097817	-179.179316952897	-57.9849900024235	-178.617764046564	-0.87363857786277	-48.50297028418	
1013000000	-8.98282408464992	176.093030097669	-58.0812951138973	177.719226941	-58.0908888655198	179.913915969313	-0.877558315577005	-49.8636630342027	
1013500000	-8.97179241874643	174.837563431264	-57.9152707966973	176.343791736742	-57.8340512861633	177.923146411722	-0.881071600620535	-51.2333135671792	
1014000000	-8.95623680129873	173.546373145066	-58.1031236643236	177.468218783194	-57.867703849858	178.064200882091	-0.884679083776927	-52.606414447187	
1014500000	-8.94260467831457	172.286497943351	-57.8827462990176	174.146082516491	-57.8617576356411	176.20754360431	-0.887960347535334	-53.9665065406625	
1015000000	-8.93091054692203	171.001483420183	-58.0389320985268	171.687415031523	-57.8130150728499	173.001022788227	-0.890647289637824	-55.337575353577	
1015500000	-8.91368178725275	169.733241050845	-57.8997752467077	168.548799993724	-57.8085854806025	171.232681450465	-0.893933240943833	-56.7064116921377	
1016000000	-8.90275273941461	168.461852166456	-57.9254671464319	168.705850911203	-57.7549041534984	169.153056447989	-0.89728475864315	-58.0802407302278	
1016500000	-8.88722003337751	167.192523722341	-57.9933532326841	167.209150408969	-57.9882410542085	168.531178394383	-0.899565671548652	-59.4494931238291	
1017000000	-8.87502867378501	165.920632947338	-57.9049373689282	164.677307693832	-58.3702367435133	166.845627619136	-0.901861440504152	-60.8164316701843	
1017500000	-8.86058016495348	164.645340153959	-57.8629650431365	163.905801028773	-57.8429149906033	165.103317847942	-0.905269072097333	-62.1915378638541	
1018000000	-8.84706412024384	163.380782539579	-57.8044383861227	162.41707018007	-57.91312060662	163.434600308827	-0.907576814878485	-63.5583278145563	
1018500000	-8.8347934029769	162.098307775596	-57.7250281645067	159.710078719972	-58.1316667994191	162.022594471752	-0.910804676330119	-64.934756105386	
1019000000	-8.82064686416437	160.843100222754	-58.0673911076094	158.69214629597	-57.7305388227594	159.577073508958	-0.912686885736399	-66.3124720920696	
1019500000	-8.80756037692906	159.565181464507	-58.147197436083	155.579369697933	-57.9741933716168	158.444631626827	-0.915229330709516	-67.6751506632277	
1020000000	-8.79745635752275	158.267899995487	-58.3264708261517	155.518274417474	-58.1382252824103	156.729000895054	-0.915168497250309	-69.0530331596258	
1020500000	-8.78017249294447	157.023664254152	-58.0008729841061	154.800555186978	-58.1190744827202	154.769715819023	-0.919200734479992	-70.4226183219728	
1021000000	-8.76555724115552	155.759433880135	-58.0599667438746	151.666670870533	-58.235832937753	153.290513906197	-0.921811630045834	-71.8018626656018	
1021500000	-8.75572091611177	154.483239209115	-57.9781368578677	149.662097216037	-58.1871480087423	150.748186319697	-0.922512459745493	-73.1705975382339	
1022000000	-8.74128108449354	153.211919565606	-57.9360430251266	149.966690675952	-58.1444474640421	149.206371869484	-0.925866490790756	-74.544409541725	
1022500000	-8.72826803028714	151.948433510352	-58.147145009319	146.50451366949	-58.3384527514656	148.154181703295	-0.928406532386324	-75.9273155813056	
1023000000	-8.71456001451375	150.66947032407	-58.0620459239131	144.184148795781	-58.1181086893067	146.611518504999	-0.930377473614324	-77.2993525311949	
1023500000	-8.70136573476224	149.407057825883	-58.1220080047907	142.481086347356	-58.1489697604761	146.222411375917	-0.931146789747459	-78.6744178343358	
1024000000	-8.69141609065758	148.127580654111	-57.9994393997127	142.504661190737	-58.3809001530877	142.642236710723	-0.932205311497641	-80.0440544234271	
1024500000	-8.67715651301354	146.868040402523	-58.2338978764285	140.76373273043	-58.1009322404488	141.136054297415	-0.934920016821106	-81.4184557459755	
1025000000	-8.66369650354324	145.580984106741	-58.381306668446	138.645360907892	-58.1044739538987	140.550904747179	-0.936249167001103	-82.7990250181785	
1025500000	-8.64949782529435	144.328208690107	-57.787316202686	137.324841384205	-58.3982049952894	138.439687269083	-0.937455977367558	-84.1740137507182	
1026000000	-8.6378960253093	143.061353912199	-58.1116207567565	135.060512106603	-58.2096444336727	136.693409820075	-0.9379200887176	-85.55274038678	
1026500000	-8.62610265231492	141.807459102358	-58.0953730038012	134.686771267187	-58.2727924099606	134.591920547305	-0.939811130196291	-86.9330614269053	
1027000000	-8.61429704181188	140.532230305209	-58.2534341925769	130.742961658361	-58.3803623730622	133.569963732406	-0.941743427836466	-88.3024723589136	
1027500000	-8.60249155456968	139.253962750784	-58.2968697653145	131.325997428777	-58.3876468280171	131.083776666639	-0.940992308699654	-89.6805846001399	
1028000000	-8.59120488410668	137.995796495981	-57.9782107939804	128.953283746441	-58.2903465897386	129.029110126947	-0.941716006295736	-91.0671251090391	
1028500000	-8.57630947142766	136.732115854186	-58.5681059604402	127.81040846641	-58.4190894223357	129.352039842398	-0.94311134381359	-92.4367428027226	
1029000000	-8.56655163226142	135.467732252659	-58.2468159700147	125.329126572773	-58.4580191376466	127.591902954827	-0.943735814345048	-93.8139493362725	
1029500000	-8.55277609166395	134.193412836265	-58.2203772767516	122.675163810594	-58.3208948242544	123.479634358794	-0.94379784327482	-95.1912992812804	
1030000000	-8.53814955195954	132.939866009719	-58.1934241836541	123.174065164451	-58.4129601669831	124.868578219649	-0.947580171532463	-96.5702669142076	
1030500000	-8.52770232268175	131.654342154283	-58.3264314370605	120.728641400857	-58.1754684222279	122.042991019193	-0.946163101712744	-97.9487898831637	
1031000000	-8.519548518248	130.394725282716	-58.0488961828728	117.843309931093	-58.2413456162462	121.974851328489	-0.946186914808381	-99.3316115457078	
1031500000	-8.5047262494426	129.137818083507	-58.2437922008988	120.022804155668	-58.1507883549617	116.804378347606	-0.945485011696409	-100.713883430454	
1032000000	-8.49523067286275	127.879864645149	-58.3505110054183	117.695873978528	-58.2365685028796	117.256843719221	-0.944441505664223	-102.094685607829	
1032500000	-8.48282351282725	126.610527249755	-58.2582275783614	115.994501873484	-58.6386389531908	113.589795189465	-0.947076724731699	-103.474386890356	
1033000000	-8.47233700813078	125.33784160734	-58.212305343039	116.539942531067	-58.4785411197092	114.175712388317	-0.946908828513289	-104.848884510636	
1033500000	-8.46042130576902	124.073540818156	-58.2993810104249	111.379171782659	-58.5890803933288	111.461259850541	-0.946888786016148	-106.235044070971	
1034000000	-8.44884224355824	122.812172639251	-58.3412129269336	111.13234351445	-58.4434289569776	109.839872156599	-0.94617670454721	-107.616753854567	
1034500000	-8.43756625970849	121.559180877159	-58.542789660694	108.085420285893	-58.3395502867697	108.366046612681	-0.946154784815132	-108.990665824961	
1035000000	-8.42761026544071	120.293475918586	-58.5425685408089	107.050212646009	-58.6992624678174	105.600179341911	-0.943973251528528	-110.380888666568	
1035500000	-8.41554408516514	119.032038520195	-58.1939313913875	106.240681991389	-58.6277744552271	104.816932331531	-0.946180684283634	-111.746767885493	
1036000000	-8.40470122039703	117.764551046398	-58.2059315594369	104.625438953673	-58.2433493722651	102.13561662898	-0.944314860264007	-113.140098148355	
1036500000	-8.39219566800792	116.519721744268	-58.5256183486721	103.60067649769	-58.5778801807675	101.501002065842	-0.944147632872715	-114.520960407864	
1037000000	-8.38236021509534	115.253891861269	-58.2612010830523	101.105003208598	-58.6036639917334	101.269507414152	-0.943982820860385	-115.906373424498	
1037500000	-8.3707586571462	113.987087147643	-58.3101193172738	100.704481888559	-58.6603916814657	98.1575081704746	-0.943564087740795	-117.277049008143	
1038000000	-8.36014664956614	112.722198841924	-58.1175435595732	100.301278830784	-58.6943016304072	97.0515200661224	-0.941002467578051	-118.669558432417	
1038500000	-8.35105117501167	111.466358727965	-58.1928743885881	97.8795573391933	-58.684531055659	96.3069617473338	-0.941195268429413	-120.049711525292	
1039000000	-8.34099657485967	110.200689691201	-58.6637420003139	95.6111607223381	-58.5058850204837	93.2615360409883	-0.940245265776276	-121.432170092393	
1039500000	-8.32892615997564	108.933501494668	-58.4818971351738	94.2665886601842	-58.8570808436655	93.3492026387995	-0.938601066751592	-122.817480724896	
1040000000	-8.32221119282323	107.678952530384	-58.5874567202452	92.7819365981261	-58.6425571728535	90.5339920538385	-0.935548356062038	-124.200033450923	
1040500000	-8.30754393401554	106.421205756237	-58.3357654436674	90.1627794245601	-58.8395773811478	88.4825404999384	-0.935191351823454	-125.583005965414	
1041000000	-8.29886203408872	105.157566394881	-58.6619058248335	89.3991199632145	-58.7401147276436	87.3304771615986	-0.933832357303682	-126.965826952639	
1041500000	-8.28893532448244	103.901676693533	-58.4856415416265	88.2042691897067	-58.5035140547543	86.0149754473925	-0.933649936722243	-128.335970027735	
1042000000	-8.27898515877769	102.643831277174	-58.5637078780002	86.8904566424583	-58.4160985801244	84.1793236777678	-0.931202620786667	-129.728121675202	
1042500000	-8.27065062308811	101.378219494737	-58.3785929949816	86.2409089522943	-58.7074972089296	83.0575731766668	-0.931160870469488	-131.110429413283	
1043000000	-8.25867605436135	100.125569122783	-58.1959509022877	83.1735346414143	-58.727705438955	80.5411514936115	-0.927430513713866	-132.488685481992	
1043500000	-8.25192104519977	98.8607202526974	-58.6325749591754	80.6654612467882	-58.7205053576279	79.2621535261396	-0.92656823323004	-133.880636150012	
1044000000	-8.24084154922934	97.6025998242592	-58.6284404630643	80.4002551376076	-58.619369211302	77.5990065425358	-0.924964353169945	-135.263948821068	
1044500000	-8.23225245518808	96.3394570080438	-58.4171882662859	80.0128050186249	-58.684448532383	78.361990119249	-0.92170940264922	-136.648268466545	
1045000000	-8.22118293835365	95.1053728854433	-58.4199467887495	79.0950298253746	-58.5391595209739	76.1101972852788	-0.920937415032929	-138.026128328803	
1045500000	-8.21182460009374	93.8337108318323	-58.6696342183936	74.1012763852652	-58.4300033520843	75.127268931127	-0.918405673179355	-139.412259865614	
1046000000	-8.20333434780298	92.5701403471495	-58.3463588214811	75.5688479640712	-58.6709624600559	71.4223503092649	-0.917388521314471	-140.804020111982	
1046500000	-8.19515725351562	91.3276260410082	-58.3701920301707	71.8634463721847	-58.8429458463915	70.0967719592185	-0.913461385126796	-142.187385109123	
1047000000	-8.1854637512367	90.0635842828825	-58.3972657315631	70.9639265872998	-58.7937216881528	67.9624751345581	-0.911809605012519	-143.574016999698	
1047500000	-8.17761732601289	88.804460766953	-58.3439972111442	67.597178939321	-58.5912064995851	65.4013876372881	-0.90981416018957	-144.962605468479	
1048000000	-8.17024256428666	87.5599524893095	-58.4128954890628	67.8158127616517	-58.5667476972735	65.6431905674267	-0.908286704534256	-146.345389568834	
1048500000	-8.15933465625895	86.2969580717117	-58.3503774353898	66.3634121277813	-58.8276919952699	64.0710845094092	-0.904608241583417	-147.733503074167	
1049000000	-8.15015640156299	85.0456573048897	-58.2454382704809	63.5109808860689	-58.4094936225469	63.2309745970578	-0.903027393299101	-149.115319878394	
1049500000	-8.14501736694181	83.7903745821595	-58.5303137164615	64.1943453957459	-58.5390068653494	60.8337005717073	-0.900037017637214	-150.499651747895	
1050000000	-8.13448075552568	82.533802140966	-58.7118901455292	62.4550219864048	-58.8355354840119	59.7158470594402	-0.897508736575174	-151.885889361908	
1050500000	-8.12706821820879	81.2889868798367	-58.6747795344378	59.9377754510822	-58.5035026318369	57.0496282057737	-0.895118590935958	-153.274080856498	
1051000000	-8.11871307798928	80.0397356034703	-58.5132946890123	57.5983470350707	-58.8003466314179	55.8819462940032	-0.892896371265476	-154.652511120331	
1051500000	-8.11041754948582	78.7799829998311	-58.5141674367623	56.3734350043323	-58.7650588168506	54.333245414253	-0.889672037003516	-156.039411068614	
1052000000	-8.10297964545188	77.5308156897706	-58.6058736566278	54.9286658040467	-58.9773500291969	53.214721692226	-0.885892987931408	-157.427032795802	
1052500000	-8.09490425765335	76.2755558208219	-58.412020553872	52.6393559047677	-58.739921025502	51.7189402803484	-0.883786372936852	-158.822534047865	
1053000000	-8.08889834510477	75.0253826829404	-58.8116389685854	51.7919086991045	-58.9381233471338	49.4266783180371	-0.88309916991362	-160.19764733966	
1053500000	-8.07991845710483	73.7705161662822	-58.3137223605122	50.705620181827	-58.8367569278446	49.3888394071995	-0.879058584008629	-161.573908119635	
1054000000	-8.07147921250743	72.5266417266269	-58.6471199923105	48.7567089834235	-58.921386906312	47.8493726438827	-0.87602160073879	-162.974548316259	
1054500000	-8.06647998340566	71.2720798534966	-58.8173163835541	47.8167609762454	-58.7177356998766	44.6968989523714	-0.873531353814277	-164.357207079655	
1055000000	-8.05736825266513	70.0225763810885	-58.7083055684411	45.3216825611152	-58.6269417237806	41.8777737499154	-0.872050930108385	-165.742933220085	
1055500000	-8.05009809138398	68.7772350075105	-58.4643383282336	45.0356083912785	-58.879222354499	42.4463387183799	-0.867254910239201	-167.125120734726	
1056000000	-8.04355180534971	67.5274115881981	-59.0320145344778	44.3194228890226	-58.6258826116047	40.6329804522166	-0.864029732141472	-168.515794984471	
1056500000	-8.03512663514251	66.2778048845926	-58.847674631285	39.8479007298717	-58.6584835591912	39.8798117038246	-0.860887459695756	-169.905441079485	
1057000000	-8.02906208251263	65.0245548788256	-59.031947988298	40.8690773329815	-58.9989104743365	38.4916209565553	-0.85880841845209	-171.285357023905	
1057500000	-8.02260595645109	63.767452888879	-59.0097009838432	38.2280860182911	-58.581113784278	37.0604094664143	-0.855121128702752	-172.681318523179	
1058000000	-8.01466553215354	62.5238061146112	-58.8525428814502	35.8860823022514	-58.7717996497592	33.1530797842303	-0.851750998622584	-174.063310445024	
1058500000	-8.00704204107149	61.2691358084686	-58.6811474733036	35.6054924136113	-58.8713278404232	33.390282421368	-0.848852044697268	-175.45755783452	
1059000000	-8.00093294147912	60.0271708678861	-58.5736080644443	33.3357145117446	-58.615380850767	33.1989478088732	-0.846153864093122	-176.844211274691	
1059500000	-7.99359894898122	58.7781342153852	-59.3662916102529	34.9533929802372	-58.5714222937583	31.8314242885589	-0.84331015745782	-178.221671010977	
1060000000	-7.98946266967314	57.5344822082366	-58.8127482582116	31.3340854775942	-58.5293589281415	30.2865495654969	-0.838487558866658	-179.609261349983	
1060500000	-7.98131726647257	56.2797271345236	-58.952181951889	29.8219527803502	-58.8578381221396	27.6949366513573	-0.836159087465451	178.996084480976	
1061000000	-7.97381637960545	55.0330195259705	-58.6043926699082	26.6039385348488	-58.7708965416895	25.8049377713351	-0.832803406868689	177.609511334867	
1061500000	-7.97032860432788	53.7870012569745	-59.127330923538	26.7606149951951	-58.7474563604651	23.0110361345278	-0.829740140364044	176.216893375637	
1062000000	-7.96200938289789	52.5346652145362	-58.7485140397087	25.826664448924	-58.8851504496417	22.2217315208443	-0.827751924704216	174.840698216242	
1062500000	-7.95556050854383	51.282574899668	-58.9667035674955	22.9862272239319	-58.8551822342259	20.222064759889	-0.824391688626037	173.451177212761	
