!Keysight Technologies N9923A: A.08.15
!Date: Wednesday, 14 February 2024 17:41:56
!Timezone: (GMT-05:00) Eastern Time (US & Canada)
!Model: N9923A
!Serial: MY52412730
!GPS Latitude: 
!GPS Longitude: 
!GPS TimeStamp: 0001-01-01 00:00:00Z
!GPS Seconds Since Last Read: 0
!CHECKSUM:1645418596
!Correction: S11(ON Q)S21(ON Q)S12(ON Q)S22(ON Q)
!S2P File: Measurements:S11,S21,S12,S22:
# Hz S DB R 50
1000000000	-9.35007017804388	-150.721111760215	-57.5396283191996	-137.043628250684	-56.9692099356587	-137.099825797963	-0.771640139493114	-14.3400056646211	
1000500000	-9.33626945716498	-151.996621036614	-57.5874236777247	-139.51528015143	-57.3089899561324	-138.286714653146	-0.778653618232273	-15.7129212424294	
1001000000	-9.31912525078242	-153.276497480496	-57.4080532833178	-142.122678852431	-57.3141520179412	-138.724472628578	-0.782251204047916	-17.0730750972735	
1001500000	-9.30659421023253	-154.567723846104	-57.6417446497134	-142.821775127737	-57.6412549372698	-140.476405998825	-0.787045385348819	-18.4399188638996	
1002000000	-9.29259870800743	-155.835609229488	-57.5845136819282	-144.839539172292	-57.4037405304373	-142.285492957576	-0.790908875040166	-19.8068604007416	
1002500000	-9.27811862798526	-157.101712010564	-57.5024232986864	-145.1355298473	-57.391179315314	-146.343180797328	-0.796611813573047	-21.1707138033582	
1003000000	-9.26364517827512	-158.382770562739	-57.6561370378223	-149.276682110049	-57.3702855950852	-146.540784545258	-0.80020534995077	-22.5319380467134	
1003500000	-9.25001119851343	-159.675320178803	-57.7831930470071	-149.142232063268	-57.5533742100539	-146.531015051786	-0.804415968432372	-23.8935869118933	
1004000000	-9.2353415027304	-160.940489167342	-57.4733202350153	-149.27165478263	-57.3195450699355	-149.628889728354	-0.81077141213713	-25.257728918956	
1004500000	-9.22407229611032	-162.236482000672	-57.6904271452767	-154.818851225359	-57.4392654453975	-151.887746476187	-0.812856516502028	-26.6219011259077	
1005000000	-9.20897484631334	-163.495871327612	-57.5810371667409	-154.679505709457	-57.5999249694607	-152.611680125301	-0.818599748515075	-27.9852514928924	
1005500000	-9.19107820824781	-164.801636190946	-57.5267861069919	-155.720084915894	-57.6920089775448	-155.747115957441	-0.821765184041946	-29.3551296388889	
1006000000	-9.17996283439303	-166.062880201444	-57.4538784100827	-157.65189805827	-57.6350258920223	-156.398074604721	-0.826589415551249	-30.7132006656916	
1006500000	-9.16395037542251	-167.344570500531	-57.8281443105448	-158.761885810627	-57.698456092201	-160.593296093085	-0.830400021494664	-32.0873536217071	
1007000000	-9.14968910691133	-168.611818863973	-57.9835561271747	-162.441454147257	-57.6768397590755	-161.627371825778	-0.833103024026983	-33.4548493792182	
1007500000	-9.13508680967738	-169.893111731313	-57.7388234603832	-164.392256530588	-57.6750247454594	-162.329894476901	-0.836970177098958	-34.8152449586908	
1008000000	-9.12204081195662	-171.182379892573	-57.7113846942035	-165.117406698764	-57.5424770750258	-163.142479796404	-0.841355180070279	-36.1846958520885	
1008500000	-9.10789829088615	-172.450750837911	-57.5458388303651	-167.153343643665	-57.8096935629163	-167.584721636409	-0.845544958525747	-37.5482951470796	
1009000000	-9.0949666704999	-173.731253912118	-57.8352983444	-168.956737075606	-57.8381939949952	-167.672468453794	-0.849073265516745	-38.9172980278653	
1009500000	-9.08223050198906	-175.002445232322	-57.7376886687552	-170.378893940518	-57.6744768997198	-167.237703720319	-0.853601201997366	-40.2770930426522	
1010000000	-9.06832756334243	-176.268241956229	-57.6100105017099	-171.722831818307	-57.8792656897234	-169.891019407473	-0.858140520184113	-41.6472979896123	
1010500000	-9.05299483150766	-177.55543113218	-57.4864740637293	-174.910158847061	-57.712976531711	-173.723250376406	-0.859909179527538	-43.0166128118623	
1011000000	-9.04023706808824	-178.837743177427	-57.7202663391751	-175.565539369654	-57.7564512047799	-175.015542847527	-0.864012327121045	-44.3856185835434	
1011500000	-9.02443998315544	179.896704573974	-57.8405626827362	-175.953198678918	-57.8621724250584	-176.608768968129	-0.867775751730301	-45.7543866078829	
1012000000	-9.01258915310189	178.625788474913	-58.0036720691364	-179.04376841408	-57.7005339959164	-177.785516354472	-0.871714112785458	-47.1226681730536	
1012500000	-8.99799744114778	177.34114379352	-57.5504471369846	179.005740577868	-57.9265350207505	-178.752684492339	-0.874148164197188	-48.4982243641081	
1013000000	-8.98311021605029	176.0772431227	-57.9059772392279	177.881083303988	-57.9119842382007	179.588520939614	-0.877634863754897	-49.8559935918522	
1013500000	-8.97235246113563	174.806626070573	-57.7536439423074	175.588395306292	-57.7641921900071	176.821322010257	-0.880960060868024	-51.2250422694391	
1014000000	-8.9554909333335	173.533767364858	-57.724937364388	175.3722850222	-58.0634563605309	174.743026938766	-0.883847847173451	-52.5986760237137	
1014500000	-8.94300697037223	172.268255851849	-57.5875756622239	172.39455832699	-57.9794796590011	174.725355635846	-0.887368467070229	-53.9606458224736	
1015000000	-8.92981586565651	170.997951026337	-58.0686213042235	171.414113652114	-57.7380636715528	171.85522768714	-0.890277426001541	-55.330554628559	
1015500000	-8.91559490039008	169.720438185286	-57.784921201099	168.184510575643	-58.0836650494245	168.800993525275	-0.893001744240971	-56.6986513700592	
1016000000	-8.90069473133988	168.451013658772	-57.862300650341	167.437972450332	-58.0792586580338	168.224415906538	-0.89705888670542	-58.0699926311964	
1016500000	-8.88745190697862	167.170049267546	-57.7350684830421	167.228789332529	-58.1522303225971	165.591670797649	-0.898421195441837	-59.4398902551131	
1017000000	-8.87402473553504	165.907323981033	-58.1330715430817	165.841706693382	-58.1351718307296	166.209072474836	-0.900768248688997	-60.8088778092037	
1017500000	-8.86105252880332	164.640280465152	-57.9750848343836	163.601936134089	-58.0110348437792	162.893570234804	-0.90408762889568	-62.1837506206638	
1018000000	-8.84699354156789	163.366671048597	-57.8896969155391	160.284824866022	-58.0855332761505	160.864524170679	-0.906294950436271	-63.5508061984394	
1018500000	-8.83407408114187	162.096580682484	-58.2327341214266	158.796235257074	-58.154564516119	158.910373764339	-0.909637801374061	-64.9234587407644	
1019000000	-8.82145556487922	160.828804709524	-57.7741556960934	157.81649582817	-57.9776403388082	157.97692877883	-0.911847959113672	-66.2990511841673	
1019500000	-8.80679858148039	159.555153666482	-57.9353309244191	157.589170685718	-58.0843840377031	157.30979654191	-0.91313223865992	-67.6658989159137	
1020000000	-8.79534262475977	158.263841665249	-57.8252319277351	152.748285236282	-58.1704428431714	155.705502777273	-0.91403613896312	-69.0432409592333	
1020500000	-8.78060158279915	157.009689245568	-58.0391134082617	152.693271530693	-58.2942916085758	152.872297734688	-0.917774553693956	-70.4071208282218	
1021000000	-8.76563877333097	155.746268006721	-58.1241834282698	153.126206262965	-58.0651379707242	151.294455514368	-0.919556323325212	-71.790229245135	
1021500000	-8.75450028791438	154.47891585004	-57.9369031720772	148.886565026902	-58.1467030148071	150.619245080908	-0.920947513770882	-73.1608048690204	
1022000000	-8.74064570823275	153.19172700021	-57.8689489340229	147.700811771326	-58.2307104936865	148.15263013252	-0.923695306275039	-74.5317924105031	
1022500000	-8.72635794750495	151.943942476779	-57.9684221121759	146.655568038719	-58.0007997971855	145.716422624185	-0.9260209633975	-75.9121372345677	
1023000000	-8.71505891723462	150.666538146252	-57.8975312262449	144.339651220157	-58.2233135185842	145.037133949461	-0.928547486476631	-77.2847248112632	
1023500000	-8.69983213964558	149.401207836916	-57.6654613028935	144.48909208098	-58.4000041566448	141.38480373091	-0.928749492125531	-78.6581441663618	
1024000000	-8.69010180357503	148.122109773603	-57.9060114190021	142.482378120967	-58.2953436732068	141.8043289074	-0.929908201644926	-80.0268767278156	
1024500000	-8.67591773441167	146.849952476324	-57.5840226590208	140.51854562615	-58.2259208199123	139.030180208102	-0.932175884565985	-81.4035828691036	
1025000000	-8.66196902505525	145.575560500215	-57.8375865474331	137.634058390355	-58.1340060344329	137.967344593249	-0.933227582094859	-82.7858990093572	
1025500000	-8.64812153854548	144.323111698957	-57.870157733254	136.584471532971	-58.1727802202649	137.163713204799	-0.934484465188344	-84.157362750418	
1026000000	-8.63786505833436	143.046066612748	-57.8381454052174	135.251207700869	-58.1967326246662	135.188062407618	-0.934906242060073	-85.534178369848	
1026500000	-8.62508784131824	141.786419818829	-57.8880255854777	132.767292595418	-58.5311384761131	133.285944958081	-0.936714872968356	-86.9145790194193	
1027000000	-8.61241400577797	140.52928482468	-57.914771770443	131.416600090224	-58.1443872021635	130.972991105174	-0.937420424729037	-88.2864499825162	
1027500000	-8.60160814557009	139.248140312698	-58.1192566320236	131.352296333254	-58.3361458990674	128.8980816562	-0.938171756708977	-89.6633035156937	
1028000000	-8.58961191101845	137.994700077447	-58.0947455013695	128.251095310691	-58.1991691559863	129.259554384832	-0.938240795308064	-91.043545602077	
1028500000	-8.57488545325476	136.718370675564	-58.2276766265424	127.63463235924	-58.3730540888008	126.570901200899	-0.939649451729116	-92.416798093578	
1029000000	-8.56358394279361	135.457032014797	-58.0430153724112	123.986390997803	-58.3701057932023	123.720355843384	-0.940325523733954	-93.7935583485139	
1029500000	-8.54986524046081	134.188934954192	-58.2256205975041	124.292033521806	-58.6748897885811	123.55487550917	-0.940498660257729	-95.169731626112	
1030000000	-8.53606032981377	132.923268612806	-58.1804514833438	122.299262459245	-58.1280812349967	121.755773183497	-0.943260451428138	-96.550423346564	
1030500000	-8.52645930916874	131.656451425923	-58.1329586968144	121.130915131919	-58.3445162605566	120.835131932401	-0.942235489638902	-97.9259571562235	
1031000000	-8.5165466798902	130.383764871406	-57.9610515422935	119.91815826261	-58.5507563207919	119.251978815053	-0.942417922934304	-99.3070678838325	
1031500000	-8.50431176556821	129.125540353456	-57.9769422271517	116.580373576606	-58.6153929056193	114.860949295579	-0.941293352224419	-100.684992495556	
1032000000	-8.49228987587152	127.86750301665	-58.1451549662716	113.820023375592	-58.4255787455004	116.161855315763	-0.94116169396609	-102.07265986714	
1032500000	-8.4819651712169	126.59446278182	-58.0591154807614	114.035085755222	-58.4334944041404	113.749862723628	-0.942901736178285	-103.45376849929	
1033000000	-8.47052247818775	125.331924882669	-58.1835433561163	113.796102537115	-58.3395151820209	112.309957694858	-0.942126502156278	-104.827654875642	
1033500000	-8.45865710230895	124.068500697045	-58.2996987981252	109.310450517062	-58.3765178745948	110.781196419669	-0.941887476610866	-106.204501473798	
1034000000	-8.44715437656905	122.800796366712	-58.3037773855132	110.803996314726	-58.4976199595768	108.037720051135	-0.941652178511187	-107.587948358114	
1034500000	-8.43748878567674	121.535810664569	-58.1731399158562	107.47110920879	-58.644105985911	106.797854238763	-0.941387844272334	-108.964866157849	
1035000000	-8.42629469265891	120.275322458912	-58.244831232113	106.249360523072	-58.6647462353037	104.397178425992	-0.940532658896398	-110.3583489343	
1035500000	-8.41387277805553	119.027705091393	-58.1154219241442	103.916182440006	-58.6993034240049	103.980467835313	-0.941342894574754	-111.718623648126	
1036000000	-8.40330757489435	117.758971401482	-58.3982615945862	103.155321981901	-58.370213426686	101.623207451494	-0.939786664673638	-113.111465723102	
1036500000	-8.39239951130536	116.493352117092	-58.1789171936198	101.130632355449	-58.6731108003989	100.033661118228	-0.938538190980278	-114.498229400048	
1037000000	-8.38066753656472	115.238114479335	-58.3176009968164	99.2985107278024	-58.6986891074395	99.958331542295	-0.938616636464018	-115.875370242335	
1037500000	-8.37261849175243	113.972093643081	-58.5126375513499	100.331887703737	-58.7122063388578	97.7272328197254	-0.937936031872241	-117.24967763469	
1038000000	-8.3606905324075	112.713297034424	-58.2777220338364	95.2194779818391	-58.490905801069	96.2547877553321	-0.93530440557582	-118.632669006012	
1038500000	-8.35099398048451	111.452015584089	-58.5588096092435	95.3458316472826	-58.9180769550305	93.039636341621	-0.935342479704371	-120.015991669348	
1039000000	-8.34123783976552	110.19140452126	-58.5108216274281	93.0000930854912	-58.6366372182725	92.6488584142483	-0.93429810655063	-121.397686791849	
1039500000	-8.32974966579518	108.921219028015	-58.2915462278705	92.0054374706196	-58.6127934079231	91.2495289615695	-0.932387032619477	-122.788221090575	
1040000000	-8.32262119241343	107.671091457246	-58.5403832573946	89.8247071048852	-58.6597434768613	91.2872097493258	-0.929434860251561	-124.171764355412	
1040500000	-8.30736637296136	106.413227456662	-58.3445701364503	90.5376390606123	-58.7172714726402	87.9679663193556	-0.929443538000889	-125.547803329167	
1041000000	-8.29939191058882	105.143686993992	-58.5380665234998	90.2680138964746	-58.7561018741899	87.1970871336029	-0.928014578150494	-126.93120640865	
1041500000	-8.28889774220622	103.884609782592	-58.2699714701246	86.6796575135735	-58.873944436971	83.9615121680065	-0.927109957545894	-128.304156358051	
1042000000	-8.27890074987837	102.630961026279	-58.4060118530063	84.9976861130374	-58.6655906424819	83.4583353475272	-0.926969206589899	-129.696027025138	
1042500000	-8.27066320996663	101.358206049775	-58.8470057288437	83.7400949089767	-58.7740833560648	83.0623746602903	-0.92584280845911	-131.080866681313	
1043000000	-8.25947303685997	100.10723165852	-58.4308034962978	81.2101307223596	-58.6135761049494	79.8471445720194	-0.920939507711484	-132.451771716771	
1043500000	-8.25126874546163	98.8496917101495	-58.6806183810071	80.7172671585565	-58.9448235691929	78.403698898586	-0.920437706277028	-133.844173084488	
1044000000	-8.24125075049206	97.5900560360267	-58.4311398871558	79.0649485659542	-58.7218848476903	76.450472670829	-0.918867745905711	-135.227049474526	
1044500000	-8.23215423959933	96.3333797135802	-58.4588275931181	76.036838266506	-58.62195471679	76.3662727950422	-0.916069390644895	-136.613803173622	
1045000000	-8.22168039736562	95.0835186824667	-58.3869636193612	75.4133577241385	-58.7053726606431	74.0195812239207	-0.91478218208923	-137.991147393973	
1045500000	-8.21346551649456	93.8232084993164	-58.7155039309689	71.6705695163931	-58.6778165482484	72.1154887801992	-0.912132484281501	-139.377592761644	
1046000000	-8.20389584312033	92.5640478379578	-58.6027749280804	71.9761573847197	-58.8973943821487	70.6155105255459	-0.91143475644206	-140.768100705621	
1046500000	-8.19660384107585	91.3137519229795	-58.701378707976	71.1244881177666	-58.5712418841225	71.2630117555437	-0.906369000422548	-142.149652837429	
1047000000	-8.18731631117415	90.0552002472149	-58.4556321655116	68.7651577143355	-58.9070273581456	67.4357713871179	-0.904111408882756	-143.535965200881	
1047500000	-8.17832770051639	88.79401780344	-58.8352599574626	67.3317392586025	-58.7164534865321	65.7260249433673	-0.903764886041867	-144.921623180408	
1048000000	-8.17112437501308	87.5517558783751	-58.6594259289515	63.4543250728332	-58.7421840971437	63.5819196287788	-0.901284981063216	-146.302360905094	
1048500000	-8.16128916086817	86.2902119112174	-58.7128022579731	62.5104375860436	-58.7289967020436	63.0183500369547	-0.898131611014919	-147.686508324207	
1049000000	-8.15017052726385	85.0313972362592	-58.6853071459599	64.5285716682252	-58.838124755313	60.195886872848	-0.896794836165172	-149.072597381856	
1049500000	-8.1466261257138	83.7812212663534	-58.5307315919365	62.0821190769919	-58.9712957879057	59.4554931632042	-0.893353528104728	-150.457766952838	
1050000000	-8.13652938992779	82.5234528553663	-59.0680892654464	57.8476971331908	-58.6575541293881	57.6786389980613	-0.889994409847769	-151.842156298643	
1050500000	-8.12810146048349	81.2787340992551	-58.7950290642602	59.0662368276565	-58.8160418151442	57.850317025787	-0.888582264706868	-153.230218923483	
1051000000	-8.1213511071075	80.0250658883233	-58.786811963273	55.2155988424007	-58.8323365829365	56.4287467426019	-0.88506724368119	-154.609663355946	
1051500000	-8.11172604033053	78.7751341597732	-58.7670598178798	55.8459549572937	-58.8870753637167	55.0973324250866	-0.882744247900336	-155.994790870185	
1052000000	-8.10354887124089	77.5191814515085	-58.8864511403408	54.0555165912102	-58.8057267537638	52.5836521254064	-0.879399700671167	-157.388938414287	
1052500000	-8.09661248008169	76.2715839320088	-59.0046886383132	51.965442615506	-58.7329880330249	50.7642895438538	-0.876633360896225	-158.777338599096	
1053000000	-8.08921228098814	75.0204534732583	-58.9974994835595	50.279929181775	-59.0264717651097	48.8071389658948	-0.875903685514638	-160.152386785182	
1053500000	-8.08003737191111	73.758650583473	-58.8929338420237	48.8570006747076	-59.2487129110172	47.0026039519508	-0.872472115962797	-161.534406715858	
1054000000	-8.07254301095741	72.5123272969792	-58.7343625385281	47.7339650419307	-58.6690570457836	45.475762815822	-0.868453669325311	-162.92540142463	
1054500000	-8.06710311520884	71.2704128791981	-58.6136926390994	44.4143317785998	-58.9963615138957	43.929671893697	-0.866227752888782	-164.313052439356	
1055000000	-8.05865684187886	70.0165888767195	-59.1627310782047	44.0973900268468	-58.8841354785525	43.7712403804746	-0.865252234489978	-165.697302168787	
1055500000	-8.05102414887723	68.7768404739265	-58.9429181905231	43.7995497507862	-58.8690970953569	41.201897529012	-0.859975525564143	-167.085502345813	
1056000000	-8.04546776506617	67.5272900113951	-58.9280899645476	39.7742121004419	-59.0116053235313	40.646244706162	-0.856965228046446	-168.468843273552	
1056500000	-8.03734940437504	66.2716644234077	-59.1156662180763	40.9226940207615	-59.2076704785611	39.409431269193	-0.853819257947207	-169.85903658531	
1057000000	-8.03063909043336	65.0280117667242	-59.0697794643025	40.4521770152982	-58.864724125106	37.7562127459306	-0.852016540442287	-171.240848539214	
1057500000	-8.02242443052299	63.7729140787736	-59.3024940541599	35.7652504287624	-59.0574833482471	35.0534400729914	-0.848574109588827	-172.633999791172	
1058000000	-8.01632401876053	62.519143429723	-59.0829375618006	36.1101362999913	-59.014452192601	33.4990378429381	-0.845727627686814	-174.020873305245	
1058500000	-8.00767220926706	61.2669156976746	-58.6096226193003	33.9386116872093	-58.7832905799112	32.6796809466327	-0.842283289766417	-175.412020995565	
1059000000	-8.00182587162208	60.0214362632293	-58.8971835446788	31.5838381282518	-59.120195638174	31.224344565983	-0.839404409696293	-176.796531761705	
1059500000	-7.99452312382542	58.7730077913097	-59.4288569612126	30.7235771496771	-58.9902837920408	27.802650111605	-0.836392262683498	-178.174981644873	
1060000000	-7.98925762866537	57.5284588123798	-58.9038172277807	30.6918544863705	-58.9089342012731	28.235928517964	-0.831049322846965	-179.557453169584	
1060500000	-7.98129248890144	56.2832057602362	-58.9221219425165	31.1102028717328	-58.9582208070772	24.1612659493071	-0.829540763809663	179.041602368356	
1061000000	-7.97511722146606	55.0399184213509	-59.3576508447718	27.4786375576909	-58.845742994151	26.0286231284247	-0.825448543547996	177.655383321565	
1061500000	-7.96978048276113	53.784718113533	-58.9955288800122	24.7028642729783	-59.1352307687613	22.6196563808442	-0.822757949159497	176.261142966533	
1062000000	-7.96344699373293	52.5385683325131	-59.3783616722591	22.7700930905282	-58.9068695742898	22.9829678156111	-0.820269995523347	174.88721378784	
1062500000	-7.95682610156873	51.2872987323713	-58.8065727276584	19.6227475753414	-58.8638311175074	19.8039846457611	-0.816335112761062	173.496782339596	
