# HZ S RI R 50
1000000000 0.1975656896829605 -0.21385712921619415 -0.012729067355394363 -0.018792051821947098 0 0 0 0
1000992063 0.18711785972118378 -0.2224661111831665 -0.013889291323721409 -0.017603879794478416 0 0 0 0
1001984126 0.17855694890022278 -0.2292894423007965 -0.014463107101619244 -0.016183463856577873 0 0 0 0
1002976189 0.17069385945796967 -0.2368336021900177 -0.014681224711239338 -0.01552102155983448 0 0 0 0
1003968252 0.16176581382751465 -0.2452613264322281 -0.015217296779155731 -0.015147199854254723 0 0 0 0
1004960315 0.1521511673927307 -0.25374510884284973 -0.016159571707248688 -0.01453997753560543 0 0 0 0
1005952378 0.14275172352790833 -0.2613096833229065 -0.017062213271856308 -0.013969063758850098 0 0 0 0
1006944441 0.13230016827583313 -0.26937979459762573 -0.017932705581188202 -0.013299673795700073 0 0 0 0
1007936504 0.12193502485752106 -0.2768127918243408 -0.018868109211325645 -0.012633385136723518 0 0 0 0
1008928567 0.1085621789097786 -0.285349577665329 -0.02014698088169098 -0.011758498847484589 0 0 0 0
1009920630 0.09427773207426071 -0.29152020812034607 -0.0211869515478611 -0.010587528347969055 0 0 0 0
1010912693 0.07877195626497269 -0.2971329391002655 -0.022214079275727272 -0.00947886798530817 0 0 0 0
1011904756 0.06484563648700714 -0.3003576695919037 -0.023100923746824265 -0.008359627798199654 0 0 0 0
1012896819 0.04875162988901138 -0.30324244499206543 -0.024470198899507523 -0.007402953691780567 0 0 0 0
1013888882 0.03357607126235962 -0.30383577942848206 -0.02626284770667553 -0.005445308052003384 0 0 0 0
1014880945 0.019639194011688232 -0.30359986424446106 -0.027433356270194054 -0.0026715481653809547 0 0 0 0
1015873008 0.0066937729716300964 -0.3027447462081909 -0.027399905025959015 0.0005021803081035614 0 0 0 0
1016865071 -0.006252400577068329 -0.30117836594581604 -0.026836806908249855 0.002657270058989525 0 0 0 0
1017857134 -0.0199069082736969 -0.30005136132240295 -0.026288585737347603 0.0045768143609166145 0 0 0 0
1018849197 -0.031226225197315216 -0.2985825538635254 -0.025843549519777298 0.006080428138375282 0 0 0 0
1019841260 -0.045284055173397064 -0.2965472638607025 -0.025563078001141548 0.007769960910081863 0 0 0 0
1020833323 -0.05714007467031479 -0.29390814900398254 -0.02525484934449196 0.00992652028799057 0 0 0 0
1021825386 -0.06905931979417801 -0.2914234399795532 -0.024555174633860588 0.011864147149026394 0 0 0 0
1022817449 -0.08316122740507126 -0.2876797318458557 -0.02372688055038452 0.014226739294826984 0 0 0 0
1023809512 -0.09523449093103409 -0.28427010774612427 -0.02244168519973755 0.01625579595565796 0 0 0 0
1024801575 -0.10841824114322662 -0.280452162027359 -0.020553717389702797 0.017657913267612457 0 0 0 0
1025793638 -0.12269673496484756 -0.2743964195251465 -0.018933748826384544 0.01878705620765686 0 0 0 0
1026785701 -0.1333431601524353 -0.26788952946662903 -0.017568619921803474 0.01968693546950817 0 0 0 0
1027777764 -0.1461457759141922 -0.26032906770706177 -0.016200317069888115 0.02041136845946312 0 0 0 0
1028769827 -0.15729275345802307 -0.25210481882095337 -0.015366991981863976 0.021338684484362602 0 0 0 0
1029761890 -0.16836389899253845 -0.24390769004821777 -0.014338920824229717 0.02282833307981491 0 0 0 0
1030753953 -0.1793428361415863 -0.23567375540733337 -0.012815015390515327 0.02460646815598011 0 0 0 0
1031746016 -0.18932192027568817 -0.22655704617500305 -0.010401812382042408 0.02600420080125332 0 0 0 0
1032738079 -0.198380708694458 -0.2169066071510315 -0.007627619430422783 0.026487339287996292 0 0 0 0
1033730142 -0.20881372690200806 -0.20732274651527405 -0.005481208674609661 0.026308024302124977 0 0 0 0
1034722205 -0.21945123374462128 -0.19747687876224518 -0.00419292226433754 0.02639872021973133 0 0 0 0
1035714268 -0.22901251912117004 -0.18620596826076508 -0.0024004224687814713 0.026955556124448776 0 0 0 0
1036706331 -0.23693636059761047 -0.17384129762649536 -0.0002835523337125778 0.026976555585861206 0 0 0 0
1037698394 -0.24446120858192444 -0.16118262708187103 0.001695285551249981 0.02668018452823162 0 0 0 0
1038690457 -0.2518537640571594 -0.14791615307331085 0.003265160135924816 0.02630140446126461 0 0 0 0
1039682520 -0.2579684853553772 -0.13544628024101257 0.0044846972450613976 0.026377573609352112 0 0 0 0
1040674583 -0.2635718584060669 -0.12073399126529694 0.0063759274780750275 0.02668244019150734 0 0 0 0
1041666646 -0.2675281763076782 -0.10607586801052094 0.008853000588715076 0.026541557163000107 0 0 0 0
1042658709 -0.26952290534973145 -0.09184734523296356 0.01112201064825058 0.025813095271587372 0 0 0 0
1043650772 -0.2709011435508728 -0.08043810725212097 0.01326785422861576 0.02520778402686119 0 0 0 0
1044642835 -0.2741140127182007 -0.06851822137832642 0.015913551673293114 0.02399231120944023 0 0 0 0
1045634898 -0.278183251619339 -0.056482233107089996 0.018238186836242676 0.021917331963777542 0 0 0 0
1046626961 -0.2824062407016754 -0.043841633945703506 0.01950911246240139 0.019812174141407013 0 0 0 0
1047619024 -0.28592440485954285 -0.028636835515499115 0.02027641236782074 0.01797505095601082 0 0 0 0
1048611087 -0.2878284752368927 -0.011438179761171341 0.02127016708254814 0.01637374609708786 0 0 0 0
1049603150 -0.28788432478904724 0.005023866891860962 0.02253459021449089 0.015085010789334774 0 0 0 0
1050595213 -0.2867527902126312 0.020180802792310715 0.023803893476724625 0.013051528483629227 0 0 0 0
1051587276 -0.2844434380531311 0.03637117147445679 0.024615082889795303 0.010704310610890388 0 0 0 0
1052579339 -0.2802348732948303 0.05417803302407265 0.02489646151661873 0.007897824048995972 0 0 0 0
1053571402 -0.276297926902771 0.06667494028806686 0.024365026503801346 0.0058300308883190155 0 0 0 0
1054563465 -0.27230560779571533 0.08101913332939148 0.023760635405778885 0.004493691027164459 0 0 0 0
1055555528 -0.2695707678794861 0.09348660707473755 0.02366197109222412 0.0035826051607728004 0 0 0 0
1056547591 -0.2652815878391266 0.10910672694444656 0.02386453188955784 0.0023940522223711014 0 0 0 0
1057539654 -0.25860702991485596 0.12540483474731445 0.02405066415667534 0.0007781889289617538 0 0 0 0
1058531717 -0.2504328787326813 0.14000387489795685 0.024067651480436325 -0.0009335698559880257 0 0 0 0
1059523780 -0.24262167513370514 0.1524728238582611 0.023962361738085747 -0.002606026828289032 0 0 0 0
1060515843 -0.23447635769844055 0.1660030633211136 0.02340715192258358 -0.0044485703110694885 0 0 0 0
1061507906 -0.22513426840305328 0.17894399166107178 0.022861625999212265 -0.005937838926911354 0 0 0 0
1062499969 -0.214019775390625 0.19221100211143494 0.021941060200333595 -0.007778900675475597 0 0 0 0
1063492032 -0.2033650130033493 0.20379692316055298 0.02094624750316143 -0.009245862253010273 0 0 0 0
1064484095 -0.1935795396566391 0.2144344449043274 0.019552405923604965 -0.010450247675180435 0 0 0 0
1065476158 -0.1830558478832245 0.22713829576969147 0.017954206094145775 -0.010956945829093456 0 0 0 0
1066468221 -0.1697024405002594 0.2395572066307068 0.017016805708408356 -0.010705346241593361 0 0 0 0
1067460284 -0.15370599925518036 0.2497972995042801 0.01685270480811596 -0.010538792237639427 0 0 0 0
1068452347 -0.13723166286945343 0.2578921318054199 0.017352767288684845 -0.010829498991370201 0 0 0 0
1069444410 -0.12246578931808472 0.2632187306880951 0.018237458541989326 -0.012196756899356842 0 0 0 0
1070436473 -0.10944028198719025 0.2680248022079468 0.01830373890697956 -0.014377949759364128 0 0 0 0
1071428536 -0.09614977240562439 0.2733825743198395 0.01762373000383377 -0.01668504811823368 0 0 0 0
1072420599 -0.08546220511198044 0.2804583013057709 0.016361910849809647 -0.018929900601506233 0 0 0 0
1073412662 -0.07198523730039597 0.28718116879463196 0.014315253123641014 -0.020737625658512115 0 0 0 0
1074404725 -0.05625802278518677 0.29410794377326965 0.011867246590554714 -0.022091221064329147 0 0 0 0
1075396788 -0.03937434405088425 0.2998615503311157 0.008866571821272373 -0.02261999063193798 0 0 0 0
1076388851 -0.021847955882549286 0.3029337227344513 0.006778618320822716 -0.021839533001184464 0 0 0 0
1077380914 -0.00487065315246582 0.30565541982650757 0.005642106756567955 -0.02136894315481186 0 0 0 0
1078372977 0.011808231472969055 0.30648455023765564 0.0049350205808877945 -0.021407194435596466 0 0 0 0
1079365040 0.0280110165476799 0.3064575493335724 0.004023715853691101 -0.02196519821882248 0 0 0 0
1080357103 0.04162750393152237 0.3058687746524811 0.0025269193574786186 -0.0225050151348114 0 0 0 0
1081349166 0.05883445590734482 0.30637508630752563 0.0008377796038985252 -0.022475047037005424 0 0 0 0
1082341229 0.0743115246295929 0.307207316160202 -0.0003651324659585953 -0.022440291941165924 0 0 0 0
1083333292 0.09034870564937592 0.3070695996284485 -0.0014629717916250229 -0.02274363674223423 0 0 0 0
1084325355 0.1085599735379219 0.30608296394348145 -0.0032904138788580894 -0.02318713068962097 0 0 0 0
1085317418 0.12686514854431152 0.30327847599983215 -0.005204514600336552 -0.02334520034492016 0 0 0 0
1086309481 0.14402125775814056 0.3005549907684326 -0.00737584475427866 -0.023109575733542442 0 0 0 0
1087301544 0.16365674138069153 0.2938908636569977 -0.00984332337975502 -0.022304575890302658 0 0 0 0
1088293607 0.18158867955207825 0.28480425477027893 -0.011918727308511734 -0.021139739081263542 0 0 0 0
1089285670 0.19753043353557587 0.27623939514160156 -0.013618838973343372 -0.019725963473320007 0 0 0 0
1090277733 0.21196715533733368 0.2683320641517639 -0.015003897249698639 -0.01815842092037201 0 0 0 0
1091269796 0.2250789850950241 0.26039618253707886 -0.016122162342071533 -0.01662815548479557 0 0 0 0
1092261859 0.24036622047424316 0.25122538208961487 -0.017376620322465897 -0.014878197573125362 0 0 0 0
1093253922 0.25400182604789734 0.24276942014694214 -0.01810566708445549 -0.012846807017922401 0 0 0 0
1094245985 0.27017614245414734 0.23215530812740326 -0.018568439409136772 -0.011035621166229248 0 0 0 0
1095238048 0.285450279712677 0.22152069211006165 -0.01887965388596058 -0.009374957531690598 0 0 0 0
1096230111 0.3010251522064209 0.2085065245628357 -0.01900375634431839 -0.007258964702486992 0 0 0 0
1097222174 0.3142078220844269 0.19465363025665283 -0.01834925450384617 -0.005308423191308975 0 0 0 0
1098214237 0.32750511169433594 0.1786007434129715 -0.017095431685447693 -0.00436229445040226 0 0 0 0
1099206300 0.33820125460624695 0.16253823041915894 -0.01655665412545204 -0.004245137795805931 0 0 0 0
1100198363 0.3487793803215027 0.14570873975753784 -0.016668545082211494 -0.003952985629439354 0 0 0 0
1101190426 0.3584669828414917 0.12664943933486938 -0.01708490401506424 -0.0033322367817163467 0 0 0 0
1102182489 0.36600711941719055 0.10805162787437439 -0.017359035089612007 -0.0021579619497060776 0 0 0 0
1103174552 0.3721860647201538 0.09147824347019196 -0.017168452963232994 -0.0009248768910765648 0 0 0 0
1104166615 0.37739068269729614 0.07283155620098114 -0.0165602657943964 -0.0003665117546916008 0 0 0 0
1105158678 0.38172972202301025 0.05587861314415932 -0.016579050570726395 -0.000408112071454525 0 0 0 0
1106150741 0.38539403676986694 0.03958532214164734 -0.017164161428809166 -0.0002913475036621094 0 0 0 0
1107142804 0.38824328780174255 0.022775355726480484 -0.018462635576725006 0.00032124388962984085 0 0 0 0
1108134867 0.3907696604728699 0.0041929371654987335 -0.019650612026453018 0.002140931785106659 0 0 0 0
1109126930 0.39386191964149475 -0.010648395866155624 -0.020164817571640015 0.004443526268005371 0 0 0 0
1110118993 0.39726823568344116 -0.029101036489009857 -0.01978319138288498 0.006831679493188858 0 0 0 0
1111111056 0.3986350893974304 -0.04738913103938103 -0.01916174776852131 0.00890528503805399 0 0 0 0
1112103119 0.3987415134906769 -0.06764115393161774 -0.01786646991968155 0.011214748956263065 0 0 0 0
1113095182 0.3991681933403015 -0.0845126360654831 -0.015968700870871544 0.012755358591675758 0 0 0 0
1114087245 0.3973521590232849 -0.106078140437603 -0.014037980698049068 0.013693209737539291 0 0 0 0
1115079308 0.39346209168434143 -0.12563252449035645 -0.012393629178404808 0.01395856961607933 0 0 0 0
1116071371 0.3893488645553589 -0.1438271403312683 -0.010923623107373714 0.014038773253560066 0 0 0 0
1117063434 0.38434046506881714 -0.16278088092803955 -0.009770527482032776 0.013996990397572517 0 0 0 0
1118055497 0.37702852487564087 -0.18105269968509674 -0.00903412327170372 0.014085441827774048 0 0 0 0
1119047560 0.36852067708969116 -0.1978728175163269 -0.008634780533611774 0.01420335192233324 0 0 0 0
1120039623 0.3606151342391968 -0.21327456831932068 -0.007853175513446331 0.014809360727667809 0 0 0 0
1121031686 0.35210517048835754 -0.2304052859544754 -0.006660853512585163 0.0153895802795887 0 0 0 0
1122023749 0.34444212913513184 -0.2465817928314209 -0.005568766035139561 0.015418831259012222 0 0 0 0
1123015812 0.33295273780822754 -0.2620293200016022 -0.00489046610891819 0.015314146876335144 0 0 0 0
1124007875 0.32118871808052063 -0.2774519920349121 -0.004225156269967556 0.015447346493601799 0 0 0 0
1124999938 0.31008046865463257 -0.29054057598114014 -0.0036673331633210182 0.015741117298603058 0 0 0 0
1125992001 0.30039751529693604 -0.3057132065296173 -0.0030053099617362022 0.016353584825992584 0 0 0 0
1126984064 0.28882065415382385 -0.3191039264202118 -0.0019380059093236923 0.016893818974494934 0 0 0 0
1127976127 0.2760986089706421 -0.34412866830825806 -0.00036647357046604156 0.017649557441473007 0 0 0 0
1128968190 0.2627854347229004 -0.3463602066040039 0.0006915880367159843 0.016782589256763458 0 0 0 0
1129960253 0.2464599758386612 -0.36063310503959656 0.0011284761130809784 0.016767967492341995 0 0 0 0
1130952316 0.22960016131401062 -0.3714544475078583 0.0019969353452324867 0.017380647361278534 0 0 0 0
1131944379 0.21402955055236816 -0.3805289566516876 0.0034728487953543663 0.018114982172846794 0 0 0 0
1132936442 0.1953526735305786 -0.3900650441646576 0.005790038965642452 0.018423356115818024 0 0 0 0
1133928505 0.17646431922912598 -0.39793264865875244 0.00828411616384983 0.01775791496038437 0 0 0 0
1134920568 0.1616559624671936 -0.40488365292549133 0.010172070935368538 0.016302578151226044 0 0 0 0
1135912631 0.1434108465909958 -0.4122532606124878 0.01153472252190113 0.014594812877476215 0 0 0 0
1136904694 0.12949344515800476 -0.4158360958099365 0.012439493089914322 0.013092964887619019 0 0 0 0
1137896757 0.11211460083723068 -0.4232342839241028 0.01334691233932972 0.011414284817874432 0 0 0 0
1138888820 0.09291040897369385 -0.430145263671875 0.013745099306106567 0.00923076830804348 0 0 0 0
1139880883 0.07253763824701309 -0.43622705340385437 0.013218437321484089 0.007466710172593594 0 0 0 0
1140872946 0.05208452045917511 -0.4372285306453705 0.012460688129067421 0.006644833832979202 0 0 0 0
1141865009 0.03072432428598404 -0.440263032913208 0.0119257103651762 0.0060562798753380775 0 0 0 0
1142857072 0.010448433458805084 -0.43966224789619446 0.011910012923181057 0.0059153251349925995 0 0 0 0
1143849135 -0.0076477304100990295 -0.43899884819984436 0.012335944920778275 0.005604526959359646 0 0 0 0
1144841198 -0.027112390846014023 -0.4369181990623474 0.012751903384923935 0.004708154127001762 0 0 0 0
1145833261 -0.04790300875902176 -0.4338039457798004 0.01265018805861473 0.0035232873633503914 0 0 0 0
1146825324 -0.06440920382738113 -0.4280621111392975 0.012135414406657219 0.0028809616342186928 0 0 0 0
1147817387 -0.08268923312425613 -0.42382603883743286 0.011924083344638348 0.002720240503549576 0 0 0 0
1148809450 -0.10088886320590973 -0.41950851678848267 0.012186981737613678 0.0022665653377771378 0 0 0 0
1149801513 -0.11554023623466492 -0.41291043162345886 0.012194446288049221 0.0017253626137971878 0 0 0 0
1150793576 -0.13358716666698456 -0.4074670374393463 0.012353857979178429 0.0010086921975016594 0 0 0 0
1151785639 -0.14942365884780884 -0.4024956226348877 0.012172450311481953 0.0005348967388272285 0 0 0 0
1152777702 -0.16601529717445374 -0.3964686393737793 0.012282658368349075 0.0003414880484342575 0 0 0 0
1153769765 -0.1847783327102661 -0.38786858320236206 0.01265626773238182 -0.000295187346637249 0 0 0 0
1154761828 -0.20406627655029297 -0.37814316153526306 0.01278734765946865 -0.0015072748064994812 0 0 0 0
1155753891 -0.2218080759048462 -0.36780139803886414 0.012287471443414688 -0.0022969068959355354 0 0 0 0
1156745954 -0.23753133416175842 -0.35423213243484497 0.01193386223167181 -0.002594897523522377 0 0 0 0
1157738017 -0.2525739371776581 -0.33918729424476624 0.012101827189326286 -0.002991178072988987 0 0 0 0
1158730080 -0.26650792360305786 -0.3259499669075012 0.01230776496231556 -0.003950170241296291 0 0 0 0
1159722143 -0.2772350311279297 -0.31323713064193726 0.011986547149717808 -0.004779386334121227 0 0 0 0
1160714206 -0.2889941334724426 -0.2981145977973938 0.011803898960351944 -0.005652653053402901 0 0 0 0
1161706269 -0.30007749795913696 -0.28403612971305847 0.011337518692016602 -0.006590048782527447 0 0 0 0
1162698332 -0.3122214078903198 -0.267568439245224 0.01053547766059637 -0.00735301710665226 0 0 0 0
1163690395 -0.319229394197464 -0.2538560628890991 0.0098826689645648 -0.0076897032558918 0 0 0 0
1164682458 -0.3293268382549286 -0.2392469346523285 0.009408318437635899 -0.008180884644389153 0 0 0 0
1165674521 -0.33902010321617126 -0.2247326672077179 0.008784689009189606 -0.008365973830223083 0 0 0 0
1166666584 -0.3477850556373596 -0.2094559371471405 0.008648909628391266 -0.00855966191738844 0 0 0 0
1167658647 -0.3561323583126068 -0.19180254638195038 0.008574207313358784 -0.009243308566510677 0 0 0 0
1168650710 -0.36367368698120117 -0.17404167354106903 0.00806836411356926 -0.009837794117629528 0 0 0 0
1169642773 -0.36923205852508545 -0.1569097936153412 0.007859562523663044 -0.010515792295336723 0 0 0 0
1170634836 -0.3730471134185791 -0.14037929475307465 0.007438434287905693 -0.011529704555869102 0 0 0 0
1171626899 -0.3794957399368286 -0.12165485322475433 0.006362570449709892 -0.012762791477143764 0 0 0 0
1172618962 -0.38468408584594727 -0.10289719700813293 0.0047903889790177345 -0.01365414448082447 0 0 0 0
1173611025 -0.38816604018211365 -0.08688084781169891 0.0032635945826768875 -0.014020844362676144 0 0 0 0
1174603088 -0.39274072647094727 -0.06786054372787476 0.0017352569848299026 -0.013937566429376602 0 0 0 0
1175595151 -0.3954070210456848 -0.04555939882993698 0.00028307270258665085 -0.013418695889413357 0 0 0 0
1176587214 -0.39483436942100525 -0.024980703368782997 -0.000853206031024456 -0.012770694680511951 0 0 0 0
1177579277 -0.3933906555175781 -0.004045629873871803 -0.001684705726802349 -0.01214182935655117 0 0 0 0
1178571340 -0.3899407982826233 0.01639714278280735 -0.002474752254784107 -0.011210311204195023 0 0 0 0
1179563403 -0.38660764694213867 0.03552982956171036 -0.0027538249269127846 -0.010199320502579212 0 0 0 0
1180555466 -0.3816069960594177 0.05392763018608093 -0.002354167401790619 -0.009713408537209034 0 0 0 0
1181547529 -0.37673676013946533 0.07055697590112686 -0.0021249083802103996 -0.010084942914545536 0 0 0 0
1182539592 -0.37087011337280273 0.08985041081905365 -0.0028771571815013885 -0.010541154071688652 0 0 0 0
1183531655 -0.3644121289253235 0.1068950966000557 -0.004011395387351513 -0.010391226038336754 0 0 0 0
1184523718 -0.3566419780254364 0.1243547573685646 -0.004898574203252792 -0.009626498445868492 0 0 0 0
1185515781 -0.3503182828426361 0.13935206830501556 -0.005134721286594868 -0.008581900969147682 0 0 0 0
1186507844 -0.341335654258728 0.15759733319282532 -0.005013355053961277 -0.008013099431991577 0 0 0 0
1187499907 -0.3333370089530945 0.17314837872982025 -0.004777897149324417 -0.007743910886347294 0 0 0 0
1188491970 -0.32287922501564026 0.19198767840862274 -0.004800164140760899 -0.007945619523525238 0 0 0 0
1189484033 -0.31136584281921387 0.20648108422756195 -0.005245400592684746 -0.00815962441265583 0 0 0 0
1190476096 -0.2992228865623474 0.22200776636600494 -0.005836471915245056 -0.007954558357596397 0 0 0 0
1191468159 -0.2858673930168152 0.2360926866531372 -0.006355490535497665 -0.0076833367347717285 0 0 0 0
1192460222 -0.2736009359359741 0.2488686442375183 -0.006669887341558933 -0.0075022391974925995 0 0 0 0
