# HZ S RI R 50
1000000000 0.21669334173202515 -0.2104552686214447 -0.016746878623962402 -0.02025117166340351 0 0 0 0
1000992063 0.20737987756729126 -0.22049400210380554 -0.018495259806513786 -0.018892521038651466 0 0 0 0
1001984126 0.19903436303138733 -0.23148110508918762 -0.019309895113110542 -0.017345283180475235 0 0 0 0
1002976189 0.19020691514015198 -0.2409648597240448 -0.019946616142988205 -0.016276132315397263 0 0 0 0
1003968252 0.17880193889141083 -0.2522292137145996 -0.021156471222639084 -0.015537507832050323 0 0 0 0
1004960315 0.16835781931877136 -0.2604767978191376 -0.022749576717615128 -0.01437870878726244 0 0 0 0
1005952378 0.15671975910663605 -0.26930585503578186 -0.0237696822732687 -0.012525913305580616 0 0 0 0
1006944441 0.14574161171913147 -0.2767939269542694 -0.024316824972629547 -0.010946409776806831 0 0 0 0
1007936504 0.1324109435081482 -0.2850410044193268 -0.025126643478870392 -0.009890938177704811 0 0 0 0
1008928567 0.1209690198302269 -0.2909490764141083 -0.02643083781003952 -0.008557025343179703 0 0 0 0
1009920630 0.10783375799655914 -0.2973696291446686 -0.027533303946256638 -0.006400228478014469 0 0 0 0
1010912693 0.09539707005023956 -0.3035678565502167 -0.02797684073448181 -0.003986184485256672 0 0 0 0
1011904756 0.08010069280862808 -0.30992135405540466 -0.027982164174318314 -0.0018870169296860695 0 0 0 0
1012896819 0.06366145610809326 -0.3145025372505188 -0.028065303340554237 -0.00018943846225738525 0 0 0 0
1013888882 0.04844962805509567 -0.31649988889694214 -0.02848677895963192 0.001432337798178196 0 0 0 0
1014880945 0.033254578709602356 -0.3171769082546234 -0.02896631509065628 0.004004865884780884 0 0 0 0
1015873008 0.01868334412574768 -0.31668972969055176 -0.02875475026667118 0.006859008222818375 0 0 0 0
1016865071 0.007171668112277985 -0.31724900007247925 -0.027775051072239876 0.009252564050257206 0 0 0 0
1017857134 -0.005893908441066742 -0.3180805742740631 -0.026591381058096886 0.011474177241325378 0 0 0 0
1018849197 -0.02057521790266037 -0.3200572431087494 -0.02536991611123085 0.01310749351978302 0 0 0 0
1019841260 -0.03584892302751541 -0.3196888566017151 -0.024591144174337387 0.01467762142419815 0 0 0 0
1020833323 -0.05050923675298691 -0.318693608045578 -0.0238305926322937 0.016578134149312973 0 0 0 0
1021825386 -0.06418607383966446 -0.31765827536582947 -0.0224467720836401 0.018676938489079475 0 0 0 0
1022817449 -0.08305008709430695 -0.3145550787448883 -0.02063589356839657 0.02071375772356987 0 0 0 0
1023809512 -0.0986606627702713 -0.3103773593902588 -0.018246013671159744 0.022254345938563347 0 0 0 0
1024801575 -0.11256598681211472 -0.30475524067878723 -0.015967359766364098 0.02299467660486698 0 0 0 0
1025793638 -0.12780284881591797 -0.29750892519950867 -0.014243611134588718 0.02341022528707981 0 0 0 0
1026785701 -0.14177820086479187 -0.29107531905174255 -0.012745236977934837 0.023855512961745262 0 0 0 0
1027777764 -0.15663769841194153 -0.2833847105503082 -0.011361589655280113 0.02451837807893753 0 0 0 0
1028769827 -0.16992217302322388 -0.27538010478019714 -0.010076658800244331 0.025647860020399094 0 0 0 0
1029761890 -0.18438617885112762 -0.2658937871456146 -0.007983221672475338 0.02692295052111149 0 0 0 0
1030753953 -0.19771745800971985 -0.2560829222202301 -0.005350875668227673 0.027802849188447 0 0 0 0
1031746016 -0.21130996942520142 -0.2445904016494751 -0.002232256345450878 0.027933135628700256 0 0 0 0
1032738079 -0.22310391068458557 -0.23160645365715027 0.0004606936126947403 0.026864347979426384 0 0 0 0
1033730142 -0.233340322971344 -0.2184016853570938 0.0021485844627022743 0.02541257068514824 0 0 0 0
1034722205 -0.24304094910621643 -0.20440511405467987 0.003225604072213173 0.024657530710101128 0 0 0 0
1035714268 -0.2507123351097107 -0.19071455299854279 0.00444010179489851 0.02428864687681198 0 0 0 0
1036706331 -0.2577861249446869 -0.17658206820487976 0.005853490903973579 0.023832784965634346 0 0 0 0
1037698394 -0.26510703563690186 -0.16229745745658875 0.007235104218125343 0.023119106888771057 0 0 0 0
1038690457 -0.27171310782432556 -0.14827919006347656 0.008185021579265594 0.0224981140345335 0 0 0 0
1039682520 -0.27700623869895935 -0.1359400600194931 0.00915030762553215 0.02246570587158203 0 0 0 0
1040674583 -0.2823667526245117 -0.12082052230834961 0.010962730273604393 0.02222733572125435 0 0 0 0
1041666646 -0.28648075461387634 -0.10471528023481369 0.012725282460451126 0.02141498029232025 0 0 0 0
1042658709 -0.2888404130935669 -0.09033188223838806 0.014081958681344986 0.020497817546129227 0 0 0 0
1043650772 -0.2905319035053253 -0.07668600231409073 0.015814868733286858 0.019836537539958954 0 0 0 0
1044642835 -0.2936357855796814 -0.06440189480781555 0.01787659153342247 0.0183215644210577 0 0 0 0
1045634898 -0.29811370372772217 -0.05089007690548897 0.01917348988354206 0.016165293753147125 0 0 0 0
1046626961 -0.3025082051753998 -0.03494470566511154 0.019790593534708023 0.014391879551112652 0 0 0 0
1047619024 -0.30497121810913086 -0.017412327229976654 0.020143328234553337 0.01317561510950327 0 0 0 0
1048611087 -0.3051164150238037 -4.460662603378296e-05 0.021038971841335297 0.011938333511352539 0 0 0 0
1049603150 -0.30402159690856934 0.017878323793411255 0.02209761179983616 0.010323037393391132 0 0 0 0
1050595213 -0.3012789487838745 0.03484932333230972 0.022848524153232574 0.008095739409327507 0 0 0 0
1051587276 -0.29835546016693115 0.051933418959379196 0.02301492914557457 0.005711103789508343 0 0 0 0
1052579339 -0.2937179505825043 0.0673975795507431 0.022495325654745102 0.003606516867876053 0 0 0 0
1053571402 -0.28881537914276123 0.08281645178794861 0.021384436637163162 0.0019221222028136253 0 0 0 0
1054563465 -0.28456613421440125 0.09708048403263092 0.020552033558487892 0.0013194316998124123 0 0 0 0
1055555528 -0.2794026732444763 0.11293630301952362 0.02045166864991188 0.0008857650682330132 0 0 0 0
1056547591 -0.2734675407409668 0.12843537330627441 0.020596884191036224 -0.00020804814994335175 0 0 0 0
1057539654 -0.26557084918022156 0.14425186812877655 0.02049154043197632 -0.0013965005055069923 0 0 0 0
1058531717 -0.25737202167510986 0.15940120816230774 0.020397957414388657 -0.002424054779112339 0 0 0 0
1059523780 -0.2474014014005661 0.17442822456359863 0.020331507548689842 -0.003996315412223339 0 0 0 0
1060515843 -0.23685917258262634 0.18879130482673645 0.01967478170990944 -0.005573294125497341 0 0 0 0
1061507906 -0.22468234598636627 0.20198772847652435 0.018790941685438156 -0.006465100683271885 0 0 0 0
1062499969 -0.2119206041097641 0.21556052565574646 0.01803559996187687 -0.007246173918247223 0 0 0 0
1063492032 -0.19992606341838837 0.22616440057754517 0.017894992604851723 -0.0080348439514637 0 0 0 0
1064484095 -0.18614864349365234 0.23728390038013458 0.01723582111299038 -0.009394938126206398 0 0 0 0
1065476158 -0.1725240796804428 0.24750247597694397 0.016210660338401794 -0.010306664742529392 0 0 0 0
1066468221 -0.15936169028282166 0.2575680911540985 0.01527345273643732 -0.010582716204226017 0 0 0 0
1067460284 -0.14342442154884338 0.2660906910896301 0.014907799661159515 -0.010684233158826828 0 0 0 0
1068452347 -0.1283462941646576 0.2730901837348938 0.014938414096832275 -0.01110035553574562 0 0 0 0
1069444410 -0.11122098565101624 0.28014907240867615 0.01498888898640871 -0.012162042781710625 0 0 0 0
1070436473 -0.09659051895141602 0.2847920060157776 0.014919036999344826 -0.013596441596746445 0 0 0 0
1071428536 -0.0831112340092659 0.2892361283302307 0.014199287630617619 -0.015074606984853745 0 0 0 0
1072420599 -0.06943363696336746 0.2944602966308594 0.013374023139476776 -0.016667522490024567 0 0 0 0
1073412662 -0.054426878690719604 0.3003091812133789 0.011768504045903683 -0.01815616711974144 0 0 0 0
1074404725 -0.03779684379696846 0.3054502308368683 0.009691355749964714 -0.01922919787466526 0 0 0 0
1075396788 -0.02130063623189926 0.30936527252197266 0.00735709723085165 -0.019174477085471153 0 0 0 0
1076388851 -0.003012940287590027 0.3124341070652008 0.006097378209233284 -0.01845575124025345 0 0 0 0
1077380914 0.0134940966963768 0.31375235319137573 0.0059163374826312065 -0.018078584223985672 0 0 0 0
1078372977 0.031373463571071625 0.31394997239112854 0.0057112667709589005 -0.01866329275071621 0 0 0 0
1079365040 0.04858029633760452 0.3133552670478821 0.00520405825227499 -0.019664719700813293 0 0 0 0
1080357103 0.06637538969516754 0.31146305799484253 0.003698953427374363 -0.020829539746046066 0 0 0 0
1081349166 0.08298962563276291 0.30920732021331787 0.0021387962624430656 -0.02132219262421131 0 0 0 0
1082341229 0.09927868098020554 0.3074808716773987 0.0006080176681280136 -0.021788302809000015 0 0 0 0
1083333292 0.11506789922714233 0.30438685417175293 -0.0006938138976693153 -0.02233460173010826 0 0 0 0
1084325355 0.13261647522449493 0.3001548945903778 -0.0026755109429359436 -0.023023702204227448 0 0 0 0
1085317418 0.1499522626399994 0.29586830735206604 -0.005113705992698669 -0.02325141802430153 0 0 0 0
1086309481 0.16950565576553345 0.2892104983329773 -0.007921401411294937 -0.022818557918071747 0 0 0 0
1087301544 0.18617786467075348 0.27989462018013 -0.010270326398313046 -0.021734589710831642 0 0 0 0
1088293607 0.20177477598190308 0.26969364285469055 -0.012291294522583485 -0.020528025925159454 0 0 0 0
1089285670 0.21529066562652588 0.2594963312149048 -0.014318237081170082 -0.018856313079595566 0 0 0 0
1090277733 0.22788727283477783 0.2498898208141327 -0.015839852392673492 -0.01698068529367447 0 0 0 0
1091269796 0.240248903632164 0.24076783657073975 -0.017095420509576797 -0.01502499170601368 0 0 0 0
1092261859 0.2545928359031677 0.23133380711078644 -0.018072117120027542 -0.012717762030661106 0 0 0 0
1093253922 0.26579585671424866 0.21991783380508423 -0.018475767225027084 -0.010469184257090092 0 0 0 0
1094245985 0.2780209481716156 0.2089773714542389 -0.018676187843084335 -0.008223865181207657 0 0 0 0
1095238048 0.29148250818252563 0.19706584513187408 -0.018222710117697716 -0.005896103568375111 0 0 0 0
1096230111 0.30373087525367737 0.18478994071483612 -0.01700665056705475 -0.0043237945064902306 0 0 0 0
1097222174 0.31624627113342285 0.17217811942100525 -0.015968220308423042 -0.003321843221783638 0 0 0 0
1098214237 0.3275538682937622 0.15487626194953918 -0.01470683142542839 -0.002827088348567486 0 0 0 0
1099206300 0.33643653988838196 0.13820840418338776 -0.014208356849849224 -0.0031370194628834724 0 0 0 0
1100198363 0.34315234422683716 0.12167048454284668 -0.014503490179777145 -0.0032966388389468193 0 0 0 0
1101190426 0.3491823375225067 0.10593629628419876 -0.014875775203108788 -0.0027914363890886307 0 0 0 0
1102182489 0.35414883494377136 0.08913484215736389 -0.01494767889380455 -0.00221958477050066 0 0 0 0
1103174552 0.35822397470474243 0.07492615282535553 -0.0151631198823452 -0.001690971665084362 0 0 0 0
1104166615 0.3636384606361389 0.05908527597784996 -0.015435425564646721 -0.0011494355276226997 0 0 0 0
1105158678 0.3687349855899811 0.044713497161865234 -0.016076866537332535 -0.0005068816244602203 0 0 0 0
1106150741 0.372822642326355 0.028439808636903763 -0.01641792804002762 0.0005888203158974648 0 0 0 0
1107142804 0.3763723373413086 0.009892910718917847 -0.016704684123396873 0.0017785318195819855 0 0 0 0
1108134867 0.3786020278930664 -0.006132941693067551 -0.01691894233226776 0.0030584828928112984 0 0 0 0
1109126930 0.3806421160697937 -0.019679348915815353 -0.016969142481684685 0.004479316063225269 0 0 0 0
1110118993 0.3831331133842468 -0.03564666956663132 -0.016517022624611855 0.005936894565820694 0 0 0 0
1111111056 0.38401421904563904 -0.0542784258723259 -0.015955131500959396 0.0075151352211833 0 0 0 0
1112103119 0.3835744857788086 -0.07190588861703873 -0.014983132481575012 0.009065790101885796 0 0 0 0
1113095182 0.3835717439651489 -0.09009896218776703 -0.0136833805590868 0.01018408965319395 0 0 0 0
1114087245 0.3825610280036926 -0.10726986825466156 -0.012267249636352062 0.010602971538901329 0 0 0 0
1115079308 0.37840354442596436 -0.12687009572982788 -0.011337717063724995 0.010971120558679104 0 0 0 0
1116071371 0.3753747344017029 -0.14188262820243835 -0.010495604947209358 0.011331146582961082 0 0 0 0
1117063434 0.36980682611465454 -0.16059312224388123 -0.009600597433745861 0.011564395390450954 0 0 0 0
1118055497 0.36312851309776306 -0.17720317840576172 -0.008778007701039314 0.01166941225528717 0 0 0 0
1119047560 0.3577696979045868 -0.19344666600227356 -0.008232896216213703 0.011855260469019413 0 0 0 0
1120039623 0.35125279426574707 -0.20942534506320953 -0.007626977749168873 0.012358935549855232 0 0 0 0
1121031686 0.3441240191459656 -0.22543329000473022 -0.0067122094333171844 0.012605992145836353 0 0 0 0
1122023749 0.3332767188549042 -0.2444557100534439 -0.0059531014412641525 0.012479905039072037 0 0 0 0
1123015812 0.32578176259994507 -0.2580699324607849 -0.005526237189769745 0.012264765799045563 0 0 0 0
1124007875 0.31381094455718994 -0.2738215923309326 -0.005276637151837349 0.012390493415296078 0 0 0 0
1124999938 0.301702618598938 -0.28716063499450684 -0.005036195740103722 0.0127269197255373 0 0 0 0
1125992001 0.2912955582141876 -0.3005712330341339 -0.004744954407215118 0.013191534206271172 0 0 0 0
1126984064 0.2778123617172241 -0.3145272731781006 -0.004124264232814312 0.014040982350707054 0 0 0 0
1127976127 0.2707290053367615 -0.3352055549621582 -0.00310329906642437 0.014811663888394833 0 0 0 0
1128968190 0.25337696075439453 -0.3405895233154297 -0.0022272439673542976 0.014335544779896736 0 0 0 0
1129960253 0.2402176558971405 -0.35127881169319153 -0.0019115693867206573 0.0143338143825531 0 0 0 0
1130952316 0.22439084947109222 -0.3620348870754242 -0.0017778510227799416 0.014995644800364971 0 0 0 0
1131944379 0.20797154307365417 -0.3721504509449005 -0.0010866736993193626 0.01604699343442917 0 0 0 0
1132936442 0.1919366717338562 -0.3816649913787842 0.0003635752946138382 0.01716328039765358 0 0 0 0
1133928505 0.1740693747997284 -0.3906637728214264 0.0024719620123505592 0.017737416550517082 0 0 0 0
1134920568 0.1583257019519806 -0.3973081111907959 0.004413103684782982 0.01739952154457569 0 0 0 0
1135912631 0.14124608039855957 -0.4048958420753479 0.0059945667162537575 0.016861245036125183 0 0 0 0
1136904694 0.12321857362985611 -0.41018709540367126 0.007543028332293034 0.016298672184348106 0 0 0 0
1137896757 0.1071978360414505 -0.41417551040649414 0.00928851030766964 0.015287213958799839 0 0 0 0
1138888820 0.09089162945747375 -0.4185168743133545 0.010398687794804573 0.013543007895350456 0 0 0 0
1139880883 0.07370033115148544 -0.424664705991745 0.010536515153944492 0.011905078776180744 0 0 0 0
1140872946 0.05080527812242508 -0.4287746250629425 0.010288188233971596 0.011045427992939949 0 0 0 0
1141865009 0.03385215997695923 -0.4299478530883789 0.010185925289988518 0.010962049476802349 0 0 0 0
1142857072 0.01587849110364914 -0.4302245080471039 0.01093463134020567 0.010975408367812634 0 0 0 0
1143849135 -0.002796180546283722 -0.4307635426521301 0.012357133440673351 0.010365752503275871 0 0 0 0
1144841198 -0.024349354207515717 -0.4303971529006958 0.01321127824485302 0.008851783350110054 0 0 0 0
1145833261 -0.04235368221998215 -0.426602840423584 0.01329981442540884 0.007469198666512966 0 0 0 0
1146825324 -0.061123937368392944 -0.4230915904045105 0.012820661999285221 0.006456373259425163 0 0 0 0
1147817387 -0.07785795629024506 -0.4193631410598755 0.012387599796056747 0.006391974166035652 0 0 0 0
1148809450 -0.09507658332586288 -0.4138510823249817 0.012692266143858433 0.006512334570288658 0 0 0 0
1149801513 -0.11417777091264725 -0.408577024936676 0.0135991545394063 0.0062550874426960945 0 0 0 0
1150793576 -0.12988215684890747 -0.4031864106655121 0.014423663727939129 0.0053276177495718 0 0 0 0
1151785639 -0.14751183986663818 -0.3964293599128723 0.014636521227657795 0.004495827481150627 0 0 0 0
1152777702 -0.1620837301015854 -0.38997000455856323 0.014911429956555367 0.004244481213390827 0 0 0 0
1153769765 -0.18018153309822083 -0.38204556703567505 0.01588153839111328 0.003738447092473507 0 0 0 0
1154761828 -0.19899682700634003 -0.37268805503845215 0.0168459415435791 0.0024329014122486115 0 0 0 0
1155753891 -0.21341782808303833 -0.3642197847366333 0.017361773177981377 0.0010764999315142632 0 0 0 0
1156745954 -0.2323201447725296 -0.3506675064563751 0.017589136958122253 -0.000340338796377182 0 0 0 0
1157738017 -0.24492627382278442 -0.33774563670158386 0.01787629723548889 -0.0017230361700057983 0 0 0 0
1158730080 -0.2601306438446045 -0.32338663935661316 0.017860718071460724 -0.003554457798600197 0 0 0 0
1159722143 -0.273027241230011 -0.31014710664749146 0.017584603279829025 -0.0051282597705721855 0 0 0 0
1160714206 -0.2837761342525482 -0.297152042388916 0.01694190502166748 -0.00688802357763052 0 0 0 0
1161706269 -0.2954292893409729 -0.2819054424762726 0.015799853950738907 -0.008210105821490288 0 0 0 0
1162698332 -0.30443018674850464 -0.2676284611225128 0.014681977219879627 -0.009178537875413895 0 0 0 0
1163690395 -0.3142489194869995 -0.25207945704460144 0.013827362097799778 -0.009743749164044857 0 0 0 0
1164682458 -0.3229575753211975 -0.23949958384037018 0.013063902035355568 -0.010446770116686821 0 0 0 0
1165674521 -0.3333885669708252 -0.22231151163578033 0.01215122640132904 -0.010950293391942978 0 0 0 0
1166666584 -0.3413239121437073 -0.20899724960327148 0.011778213083744049 -0.01127539575099945 0 0 0 0
1167658647 -0.34895649552345276 -0.19218868017196655 0.011249586939811707 -0.012240411713719368 0 0 0 0
1168650710 -0.35739439725875854 -0.17453064024448395 0.010355587117373943 -0.012912802398204803 0 0 0 0
1169642773 -0.3635607361793518 -0.15804867446422577 0.009772496297955513 -0.013227580115199089 0 0 0 0
1170634836 -0.3695116341114044 -0.1390128880739212 0.009350921027362347 -0.014277683570981026 0 0 0 0
1171626899 -0.3727450966835022 -0.12048273533582687 0.008377378806471825 -0.01550627313554287 0 0 0 0
1172618962 -0.3767465054988861 -0.10268283635377884 0.006732161156833172 -0.016486607491970062 0 0 0 0
1173611025 -0.3793538808822632 -0.08737596869468689 0.005227629095315933 -0.016814731061458588 0 0 0 0
1174603088 -0.382358193397522 -0.06990846991539001 0.003672545775771141 -0.01700201816856861 0 0 0 0
1175595151 -0.3851258456707001 -0.05052988603711128 0.0019289599731564522 -0.016773182898759842 0 0 0 0
1176587214 -0.3857916593551636 -0.031833335757255554 0.0006962260231375694 -0.016252506524324417 0 0 0 0
1177579277 -0.38592401146888733 -0.013066019862890244 -0.0002506496384739876 -0.015597863122820854 0 0 0 0
1178571340 -0.38543635606765747 0.006423037499189377 -0.0005639120936393738 -0.015328913927078247 0 0 0 0
1179563403 -0.3837411403656006 0.02514238841831684 -0.001268967054784298 -0.01525396853685379 0 0 0 0
1180555466 -0.3805696368217468 0.04466830566525459 -0.0020083822309970856 -0.015324045903980732 0 0 0 0
1181547529 -0.3766690492630005 0.06387027353048325 -0.002984953112900257 -0.015172839164733887 0 0 0 0
1182539592 -0.37150245904922485 0.08142127096652985 -0.003908166661858559 -0.01490187831223011 0 0 0 0
1183531655 -0.3652556240558624 0.09963688254356384 -0.004627659916877747 -0.014578469097614288 0 0 0 0
1184523718 -0.35841670632362366 0.11781871318817139 -0.005400658585131168 -0.01412018109112978 0 0 0 0
1185515781 -0.3525397777557373 0.13404279947280884 -0.005562799051403999 -0.013698924332857132 0 0 0 0
1186507844 -0.34462592005729675 0.15310294926166534 -0.005747051909565926 -0.014174828305840492 0 0 0 0
1187499907 -0.33643367886543274 0.17005783319473267 -0.0067563410848379135 -0.01500745676457882 0 0 0 0
1188491970 -0.3264726400375366 0.18833060562610626 -0.008468536660075188 -0.015402110293507576 0 0 0 0
1189484033 -0.31276652216911316 0.2057945728302002 -0.010485735721886158 -0.015033850446343422 0 0 0 0
1190476096 -0.30080243945121765 0.21901728212833405 -0.012125808745622635 -0.014229084365069866 0 0 0 0
1191468159 -0.2864433825016022 0.23342961072921753 -0.01363276969641447 -0.013398773968219757 0 0 0 0
1192460222 -0.27353742718696594 0.2459067702293396 -0.015392950735986233 -0.012318314984440804 0 0 0 0
