# HZ S RI R 50
1000000000 0.2118360698223114 -0.22529982030391693 -0.013835450634360313 -0.019969260320067406 0 0 0 0
1000992063 0.2031199336051941 -0.2356795072555542 -0.015948880463838577 -0.018826305866241455 0 0 0 0
1001984126 0.19385120272636414 -0.24749375879764557 -0.01717217266559601 -0.01741710864007473 0 0 0 0
1002976189 0.18352752923965454 -0.2574719190597534 -0.01798008382320404 -0.01612027734518051 0 0 0 0
1003968252 0.17021982371807098 -0.26767995953559875 -0.0188243817538023 -0.01538866013288498 0 0 0 0
1004960315 0.15663272142410278 -0.276335746049881 -0.020075881853699684 -0.014326674863696098 0 0 0 0
1005952378 0.1450859010219574 -0.2828484773635864 -0.021302858367562294 -0.012865847907960415 0 0 0 0
1006944441 0.13233235478401184 -0.2902383506298065 -0.021861575543880463 -0.011368571780622005 0 0 0 0
1007936504 0.11961701512336731 -0.2970638573169708 -0.02254224382340908 -0.01013651117682457 0 0 0 0
1008928567 0.10605277866125107 -0.30388811230659485 -0.023605911061167717 -0.008916642516851425 0 0 0 0
1009920630 0.0916423425078392 -0.3097044825553894 -0.024441814050078392 -0.006818043999373913 0 0 0 0
1010912693 0.07581757009029388 -0.3147982954978943 -0.02455020695924759 -0.005007388070225716 0 0 0 0
1011904756 0.05992918461561203 -0.3175995945930481 -0.024495596066117287 -0.003676006570458412 0 0 0 0
1012896819 0.04231765866279602 -0.31789666414260864 -0.0247497521340847 -0.0026748329401016235 0 0 0 0
1013888882 0.026680007576942444 -0.31744980812072754 -0.025842199102044106 -0.0013782866299152374 0 0 0 0
1014880945 0.014451287686824799 -0.31675809621810913 -0.026796314865350723 0.0006029242649674416 0 0 0 0
1015873008 0.0010967478156089783 -0.31592023372650146 -0.027335774153470993 0.003213229589164257 0 0 0 0
1016865071 -0.011061444878578186 -0.3158130645751953 -0.027368467301130295 0.005899839103221893 0 0 0 0
1017857134 -0.02469932660460472 -0.315929114818573 -0.026659272611141205 0.008775376714766026 0 0 0 0
1018849197 -0.038783155381679535 -0.31542736291885376 -0.025182174518704414 0.011407914571464062 0 0 0 0
1019841260 -0.05285929888486862 -0.31411173939704895 -0.023770203813910484 0.012994097545742989 0 0 0 0
1020833323 -0.06671586632728577 -0.31092870235443115 -0.022313911467790604 0.014857164584100246 0 0 0 0
1021825386 -0.0818345844745636 -0.30846792459487915 -0.02056092768907547 0.01629037968814373 0 0 0 0
1022817449 -0.09668686240911484 -0.30551356077194214 -0.019059181213378906 0.01743868924677372 0 0 0 0
1023809512 -0.11121801286935806 -0.30172452330589294 -0.017325205728411674 0.01862698420882225 0 0 0 0
1024801575 -0.1264466941356659 -0.2963865101337433 -0.015587911941111088 0.019178593531250954 0 0 0 0
1025793638 -0.14165502786636353 -0.2883414030075073 -0.014176386408507824 0.019631654024124146 0 0 0 0
1026785701 -0.15599679946899414 -0.2795739769935608 -0.013024583458900452 0.02011091448366642 0 0 0 0
1027777764 -0.16907253861427307 -0.2703135013580322 -0.011874900199472904 0.02072736993432045 0 0 0 0
1028769827 -0.18190640211105347 -0.2606307864189148 -0.010825129225850105 0.021453745663166046 0 0 0 0
1029761890 -0.19391949474811554 -0.25022202730178833 -0.009687010198831558 0.022776924073696136 0 0 0 0
1030753953 -0.2054193913936615 -0.2405310571193695 -0.007618367671966553 0.024293450638651848 0 0 0 0
1031746016 -0.2169744074344635 -0.22793756425380707 -0.0046579428017139435 0.02488609030842781 0 0 0 0
1032738079 -0.2263476550579071 -0.21428750455379486 -0.0017342781648039818 0.024034112691879272 0 0 0 0
1033730142 -0.23335309326648712 -0.2030065655708313 -0.00017303787171840668 0.022707443684339523 0 0 0 0
1034722205 -0.24295589327812195 -0.19066864252090454 0.0007119793444871902 0.02175217494368553 0 0 0 0
1035714268 -0.2516022324562073 -0.17732276022434235 0.0017972318455576897 0.021097760647535324 0 0 0 0
1036706331 -0.2589311897754669 -0.16343076527118683 0.002453484572470188 0.020326606929302216 0 0 0 0
1037698394 -0.265503853559494 -0.1485821008682251 0.0029006265103816986 0.01988154649734497 0 0 0 0
1038690457 -0.27165764570236206 -0.13358411192893982 0.0030770674347877502 0.02001379057765007 0 0 0 0
1039682520 -0.274859219789505 -0.12116226553916931 0.003482128493487835 0.02067062258720398 0 0 0 0
1040674583 -0.27875858545303345 -0.10581769794225693 0.005179179832339287 0.02163086086511612 0 0 0 0
1041666646 -0.281033456325531 -0.09320935606956482 0.00728372298181057 0.021865880116820335 0 0 0 0
1042658709 -0.28336960077285767 -0.07991426438093185 0.00936191901564598 0.02145080268383026 0 0 0 0
1043650772 -0.2861703336238861 -0.06695078313350677 0.011573832482099533 0.020675010979175568 0 0 0 0
1044642835 -0.2894219160079956 -0.05436123162508011 0.013593025505542755 0.01935732178390026 0 0 0 0
1045634898 -0.2939545512199402 -0.041387252509593964 0.015076309442520142 0.01763605698943138 0 0 0 0
1046626961 -0.29768651723861694 -0.0260692797601223 0.016053149476647377 0.015807941555976868 0 0 0 0
1047619024 -0.3001726269721985 -0.00787370651960373 0.016589786857366562 0.014254104346036911 0 0 0 0
1048611087 -0.3002780079841614 0.010258380323648453 0.01695004105567932 0.012897304259240627 0 0 0 0
1049603150 -0.29861342906951904 0.02784106880426407 0.01747531071305275 0.011853879317641258 0 0 0 0
1050595213 -0.29465463757514954 0.04541189596056938 0.0182778500020504 0.01043938659131527 0 0 0 0
1051587276 -0.2893199920654297 0.06282229721546173 0.01863132044672966 0.008318695239722729 0 0 0 0
1052579339 -0.28341954946517944 0.07823260128498077 0.018133429810404778 0.006551777943968773 0 0 0 0
1053571402 -0.2767457664012909 0.0913497805595398 0.017077285796403885 0.005467638373374939 0 0 0 0
1054563465 -0.27051782608032227 0.1051783338189125 0.01612059399485588 0.005644829943776131 0 0 0 0
1055555528 -0.2644232511520386 0.11820545792579651 0.01640211045742035 0.006153923459351063 0 0 0 0
1056547591 -0.2590334713459015 0.13204818964004517 0.017340485006570816 0.006002794951200485 0 0 0 0
1057539654 -0.2529265284538269 0.14550980925559998 0.01827082969248295 0.00564337894320488 0 0 0 0
1058531717 -0.24322062730789185 0.1603645384311676 0.019451113417744637 0.004586300812661648 0 0 0 0
1059523780 -0.23391951620578766 0.17310918867588043 0.020632844418287277 0.0028594722971320152 0 0 0 0
1060515843 -0.22305984795093536 0.1873241662979126 0.02068634144961834 0.000815756618976593 0 0 0 0
1061507906 -0.21213826537132263 0.1985982358455658 0.020524412393569946 -0.0007138773798942566 0 0 0 0
1062499969 -0.20055052638053894 0.2096681147813797 0.020258653908967972 -0.0022431062534451485 0 0 0 0
1063492032 -0.18902918696403503 0.22013267874717712 0.01977173611521721 -0.003401325084269047 0 0 0 0
1064484095 -0.1783895492553711 0.23016491532325745 0.019015468657016754 -0.004406481049954891 0 0 0 0
1065476158 -0.16763272881507874 0.2408788651227951 0.01830432564020157 -0.005027326755225658 0 0 0 0
1066468221 -0.1541551947593689 0.2521389424800873 0.01808427833020687 -0.005140676163136959 0 0 0 0
1067460284 -0.13750004768371582 0.2623121440410614 0.018428940325975418 -0.0056295739486813545 0 0 0 0
1068452347 -0.12287978082895279 0.2694135010242462 0.019218388944864273 -0.006530732847750187 0 0 0 0
1069444410 -0.1067206859588623 0.2759877145290375 0.01982300356030464 -0.0081479512155056 0 0 0 0
1070436473 -0.09016192704439163 0.2803705930709839 0.01986461505293846 -0.0101203927770257 0 0 0 0
1071428536 -0.07642616331577301 0.28438276052474976 0.01950054243206978 -0.012063020840287209 0 0 0 0
1072420599 -0.06244935095310211 0.2891158163547516 0.018794720992445946 -0.014300711452960968 0 0 0 0
1073412662 -0.04829420894384384 0.2941085696220398 0.017292248085141182 -0.01645161770284176 0 0 0 0
1074404725 -0.031100153923034668 0.2984911799430847 0.014913277700543404 -0.01799565553665161 0 0 0 0
1075396788 -0.015096873044967651 0.3007558286190033 0.012824507430195808 -0.018136557191610336 0 0 0 0
1076388851 0.0007025972008705139 0.3021100163459778 0.01183808408677578 -0.01777033880352974 0 0 0 0
1077380914 0.016219697892665863 0.3032648265361786 0.011627797037363052 -0.018047155812382698 0 0 0 0
1078372977 0.03162743151187897 0.3044869303703308 0.011212017387151718 -0.019355176016688347 0 0 0 0
1079365040 0.04859495162963867 0.30433470010757446 0.009999392554163933 -0.02072978764772415 0 0 0 0
1080357103 0.06534791737794876 0.304071843624115 0.008336333557963371 -0.021784424781799316 0 0 0 0
1081349166 0.08072861284017563 0.30232828855514526 0.006860444322228432 -0.022223271429538727 0 0 0 0
1082341229 0.0967082753777504 0.30035996437072754 0.005851980298757553 -0.022844091057777405 0 0 0 0
1083333292 0.11392151564359665 0.29782891273498535 0.004264739342033863 -0.024000460281968117 0 0 0 0
1084325355 0.13082300126552582 0.29400643706321716 0.0021094614639878273 -0.02490244060754776 0 0 0 0
1085317418 0.14898157119750977 0.2882269620895386 -8.764304220676422e-05 -0.025305746123194695 0 0 0 0
1086309481 0.16600105166435242 0.28176504373550415 -0.002448822371661663 -0.025487329810857773 0 0 0 0
1087301544 0.1820385754108429 0.27321502566337585 -0.004826945252716541 -0.025162633508443832 0 0 0 0
1088293607 0.19712212681770325 0.26459866762161255 -0.007031803019344807 -0.02457621693611145 0 0 0 0
1089285670 0.21048089861869812 0.2559482157230377 -0.009036297909915447 -0.023766374215483665 0 0 0 0
1090277733 0.22415100038051605 0.24661484360694885 -0.011201764456927776 -0.02265937067568302 0 0 0 0
1091269796 0.23676776885986328 0.23759910464286804 -0.013076234608888626 -0.021380620077252388 0 0 0 0
1092261859 0.2496674805879593 0.2269895225763321 -0.014856263995170593 -0.019554544240236282 0 0 0 0
1093253922 0.26133620738983154 0.21742218732833862 -0.015929685905575752 -0.01761363446712494 0 0 0 0
1094245985 0.2749570608139038 0.20618416368961334 -0.0168612077832222 -0.015830621123313904 0 0 0 0
1095238048 0.28765198588371277 0.1963641345500946 -0.017258211970329285 -0.014080425724387169 0 0 0 0
1096230111 0.30168992280960083 0.18124006688594818 -0.017410648986697197 -0.012664329260587692 0 0 0 0
1097222174 0.31285345554351807 0.1685423105955124 -0.017445208504796028 -0.011452369391918182 0 0 0 0
1098214237 0.3247790038585663 0.15161824226379395 -0.01735744997859001 -0.010668505914509296 0 0 0 0
1099206300 0.33354753255844116 0.1369730532169342 -0.017785698175430298 -0.010362131521105766 0 0 0 0
1100198363 0.34179648756980896 0.1222679391503334 -0.01879975199699402 -0.009583498351275921 0 0 0 0
1101190426 0.3486647605895996 0.10336495190858841 -0.019485175609588623 -0.008218852803111076 0 0 0 0
1102182489 0.3546975255012512 0.08631142973899841 -0.01967504993081093 -0.0068834759294986725 0 0 0 0
1103174552 0.36002016067504883 0.06958473473787308 -0.019708937034010887 -0.006047027185559273 0 0 0 0
1104166615 0.3641725480556488 0.05193391814827919 -0.0199875608086586 -0.005529039539396763 0 0 0 0
1105158678 0.36666327714920044 0.03523257002234459 -0.021055303514003754 -0.004938256926834583 0 0 0 0
1106150741 0.36885684728622437 0.019184213131666183 -0.02207797020673752 -0.003673260100185871 0 0 0 0
1107142804 0.36969879269599915 0.0024130120873451233 -0.023055223748087883 -0.0021912967786192894 0 0 0 0
1108134867 0.3712891936302185 -0.011343780905008316 -0.02380714938044548 -0.00014555733650922775 0 0 0 0
1109126930 0.37288278341293335 -0.02623232826590538 -0.024161597713828087 0.0021867528557777405 0 0 0 0
1110118993 0.3749847710132599 -0.04131792485713959 -0.02435370534658432 0.004402002319693565 0 0 0 0
1111111056 0.3756023645401001 -0.05892902985215187 -0.024137843400239944 0.0069747790694236755 0 0 0 0
1112103119 0.3746584951877594 -0.07459652423858643 -0.023127513006329536 0.009588509798049927 0 0 0 0
1113095182 0.37473413348197937 -0.09206373989582062 -0.0214918851852417 0.011704867705702782 0 0 0 0
1114087245 0.37302500009536743 -0.10847204923629761 -0.01977916993200779 0.01316087506711483 0 0 0 0
1115079308 0.37002336978912354 -0.1292060911655426 -0.018382422626018524 0.014086676761507988 0 0 0 0
1116071371 0.36602938175201416 -0.14625491201877594 -0.016928836703300476 0.015242977067828178 0 0 0 0
1117063434 0.3607192635536194 -0.1644369214773178 -0.015435971319675446 0.016166480258107185 0 0 0 0
1118055497 0.35286590456962585 -0.18135309219360352 -0.013981475494801998 0.01677161082625389 0 0 0 0
1119047560 0.3443542420864105 -0.19729983806610107 -0.012658226303756237 0.017138000577688217 0 0 0 0
1120039623 0.3376089036464691 -0.21149292588233948 -0.011548852548003197 0.01764082722365856 0 0 0 0
1121031686 0.32926255464553833 -0.22678735852241516 -0.010427745059132576 0.018093740567564964 0 0 0 0
1122023749 0.3188571333885193 -0.24181190133094788 -0.009511735290288925 0.01841808296740055 0 0 0 0
1123015812 0.3097269833087921 -0.2549906373023987 -0.00856111291795969 0.019017992541193962 0 0 0 0
1124007875 0.2987562119960785 -0.2686963677406311 -0.007192862220108509 0.019749967381358147 0 0 0 0
1124999938 0.28812509775161743 -0.28167831897735596 -0.005847985856235027 0.020131710916757584 0 0 0 0
1125992001 0.2778148651123047 -0.2937695384025574 -0.004503995180130005 0.020608581602573395 0 0 0 0
1126984064 0.2658897340297699 -0.30637800693511963 -0.0028091231361031532 0.020851029083132744 0 0 0 0
1127976127 0.25262749195098877 -0.32746559381484985 -0.0008991723880171776 0.021108616143465042 0 0 0 0
1128968190 0.24047666788101196 -0.3311910033226013 7.774028927087784e-05 0.019925424829125404 0 0 0 0
1129960253 0.22655066847801208 -0.34127485752105713 0.0006322534754872322 0.019580060616135597 0 0 0 0
1130952316 0.2133108377456665 -0.3505960702896118 0.0009472910314798355 0.019988052546977997 0 0 0 0
1131944379 0.1994563639163971 -0.3604179918766022 0.0018983157351613045 0.02097669243812561 0 0 0 0
1132936442 0.18292462825775146 -0.3675999045372009 0.0039444053545594215 0.021876581013202667 0 0 0 0
1133928505 0.16975636780261993 -0.3751834034919739 0.006541687995195389 0.021958133205771446 0 0 0 0
1134920568 0.15183137357234955 -0.3836604058742523 0.009008070454001427 0.021097732707858086 0 0 0 0
1135912631 0.13814868032932281 -0.38979899883270264 0.010979137383401394 0.01975499466061592 0 0 0 0
1136904694 0.1203436404466629 -0.39454641938209534 0.01261371374130249 0.018262570723891258 0 0 0 0
1137896757 0.10469165444374084 -0.39965203404426575 0.014008024707436562 0.016390234231948853 0 0 0 0
1138888820 0.08883451670408249 -0.4049222469329834 0.014733169227838516 0.014331948943436146 0 0 0 0
1139880883 0.0735386461019516 -0.4100813567638397 0.014742093160748482 0.01263666432350874 0 0 0 0
1140872946 0.049487873911857605 -0.4143008589744568 0.014592068269848824 0.011281810700893402 0 0 0 0
1141865009 0.03223519027233124 -0.4150123596191406 0.014336081221699715 0.010797000490128994 0 0 0 0
1142857072 0.01597794145345688 -0.4155530333518982 0.01474844478070736 0.010348486714065075 0 0 0 0
1143849135 0.0005428120493888855 -0.41578245162963867 0.015278864651918411 0.009770842269062996 0 0 0 0
1144841198 -0.0183773934841156 -0.4154829978942871 0.015705524012446404 0.00866486132144928 0 0 0 0
1145833261 -0.03855389356613159 -0.4141479730606079 0.01589285023510456 0.007847984321415424 0 0 0 0
1146825324 -0.05657808482646942 -0.4105258882045746 0.015836356207728386 0.007383403368294239 0 0 0 0
1147817387 -0.07148527354001999 -0.40621739625930786 0.0162702277302742 0.007307128980755806 0 0 0 0
1148809450 -0.09050095081329346 -0.400820791721344 0.017241274937987328 0.007209513336420059 0 0 0 0
1149801513 -0.10478667169809341 -0.396503210067749 0.018868030980229378 0.006226859986782074 0 0 0 0
1150793576 -0.12024545669555664 -0.3912354111671448 0.020031852647662163 0.0046364301815629005 0 0 0 0
1151785639 -0.137771338224411 -0.3860763609409332 0.020646119490265846 0.0028477925807237625 0 0 0 0
1152777702 -0.15098807215690613 -0.3805679380893707 0.021325241774320602 0.001266959123313427 0 0 0 0
1153769765 -0.16919752955436707 -0.37314966320991516 0.02181057259440422 -0.000969182699918747 0 0 0 0
1154761828 -0.187803715467453 -0.36396244168281555 0.02134651690721512 -0.0034973109140992165 0 0 0 0
1155753891 -0.20363947749137878 -0.35516035556793213 0.020284801721572876 -0.005329561419785023 0 0 0 0
1156745954 -0.2191157042980194 -0.3438001573085785 0.019327353686094284 -0.006483685225248337 0 0 0 0
1157738017 -0.2341686636209488 -0.3315437436103821 0.018644370138645172 -0.00765162892639637 0 0 0 0
1158730080 -0.2462158501148224 -0.31776008009910583 0.018016012385487556 -0.008840491995215416 0 0 0 0
1159722143 -0.2575359642505646 -0.30599328875541687 0.017289413139224052 -0.010151208378374577 0 0 0 0
1160714206 -0.2702435553073883 -0.29433804750442505 0.01619650237262249 -0.01154096145182848 0 0 0 0
1161706269 -0.28102758526802063 -0.28186872601509094 0.015060540288686752 -0.012201976962387562 0 0 0 0
1162698332 -0.2933776080608368 -0.267801433801651 0.014001252129673958 -0.013076646253466606 0 0 0 0
1163690395 -0.3021734952926636 -0.2525674104690552 0.01311273779720068 -0.013821709901094437 0 0 0 0
1164682458 -0.31290626525878906 -0.238324373960495 0.012081119231879711 -0.014737648889422417 0 0 0 0
1165674521 -0.32189834117889404 -0.22428977489471436 0.010587343946099281 -0.015131224878132343 0 0 0 0
1166666584 -0.3307163119316101 -0.20853742957115173 0.009595117531716824 -0.01526455394923687 0 0 0 0
1167658647 -0.33838769793510437 -0.1926603764295578 0.008716191165149212 -0.015558714047074318 0 0 0 0
1168650710 -0.3453880846500397 -0.1777053028345108 0.008187373168766499 -0.015729721635580063 0 0 0 0
1169642773 -0.3523997664451599 -0.1593737006187439 0.008041298016905785 -0.01634698361158371 0 0 0 0
1170634836 -0.35675516724586487 -0.14317145943641663 0.007565534673631191 -0.017649494111537933 0 0 0 0
1171626899 -0.36075663566589355 -0.1254722774028778 0.00609822291880846 -0.019167397171258926 0 0 0 0
1172618962 -0.365325003862381 -0.10909140110015869 0.004241686314344406 -0.0201453547924757 0 0 0 0
1173611025 -0.36860090494155884 -0.09277605265378952 0.0021985117346048355 -0.020863590762019157 0 0 0 0
1174603088 -0.37174105644226074 -0.076850526034832 -0.00017499923706054688 -0.02125954069197178 0 0 0 0
1175595151 -0.37447062134742737 -0.05722414702177048 -0.00295126810669899 -0.02085958421230316 0 0 0 0
1176587214 -0.3755987286567688 -0.03997171297669411 -0.005133447237312794 -0.019774088636040688 0 0 0 0
1177579277 -0.3753180503845215 -0.021275294944643974 -0.006838698871433735 -0.0183406975120306 0 0 0 0
1178571340 -0.3749142289161682 -0.003738595172762871 -0.008125519379973412 -0.01688077300786972 0 0 0 0
1179563403 -0.37401914596557617 0.014344613999128342 -0.008871093392372131 -0.015341338701546192 0 0 0 0
1180555466 -0.3721042573451996 0.032749421894550323 -0.009165549650788307 -0.01419770810753107 0 0 0 0
1181547529 -0.3687404990196228 0.04993366822600365 -0.00955270603299141 -0.01343577541410923 0 0 0 0
1182539592 -0.3648058772087097 0.06973204761743546 -0.010470742359757423 -0.012919113971292973 0 0 0 0
1183531655 -0.3598090708255768 0.08617828041315079 -0.011611778289079666 -0.011612623929977417 0 0 0 0
1184523718 -0.35411253571510315 0.10229317843914032 -0.012050691060721874 -0.009722087532281876 0 0 0 0
1185515781 -0.34945201873779297 0.12013772130012512 -0.011478970758616924 -0.008133480325341225 0 0 0 0
1186507844 -0.3428281247615814 0.1374594122171402 -0.010408177971839905 -0.0074762580916285515 0 0 0 0
1187499907 -0.334896445274353 0.156704381108284 -0.010099178180098534 -0.007737275213003159 0 0 0 0
1188491970 -0.32573217153549194 0.17409394681453705 -0.010451150126755238 -0.008186133578419685 0 0 0 0
1189484033 -0.31214970350265503 0.1906975507736206 -0.011390360072255135 -0.007981165312230587 0 0 0 0
1190476096 -0.29959890246391296 0.20523732900619507 -0.01211839821189642 -0.007363409735262394 0 0 0 0
1191468159 -0.28801172971725464 0.21741259098052979 -0.012337762862443924 -0.007017434574663639 0 0 0 0
1192460222 -0.2770056426525116 0.230194091796875 -0.013168028555810452 -0.006784306839108467 0 0 0 0
