!Keysight Technologies N9923A: A.08.15
!Date: Friday, 16 February 2024 22:11:50
!Timezone: (GMT-05:00) Eastern Time (US & Canada)
!Model: N9923A
!Serial: MY52412730
!GPS Latitude: 
!GPS Longitude: 
!GPS TimeStamp: 0001-01-01 00:00:00Z
!GPS Seconds Since Last Read: 0
!CHECKSUM:1203548411
!Correction: S11(ON Q)S21(ON Q)S12(ON Q)S22(ON Q)
!S2P File: Measurements:S11,S21,S12,S22:
# Hz S DB R 50
1000000000	-0.830908438201529	-12.4887338434661	-62.405376805013	-178.405446501399	-58.83444136378	174.904458198097	-9.20664331170009	80.1474159814188	
1000050000	-0.833254960478981	-12.5990749316489	-60.6871538587289	161.693576220267	-59.6021120386583	174.607357550406	-9.19857992119711	80.0368834639893	
1000100000	-0.833577248882369	-12.7552152332559	-62.3127743888618	168.112370132174	-59.7466163817603	-171.134848147077	-9.20608258089698	79.8795085280103	
1000150000	-0.835521274625136	-12.8634450693957	-62.7947191826475	-175.879584019504	-62.9280466936549	171.251429071434	-9.2017636553162	79.6771021210899	
1000200000	-0.829804214166766	-13.0158633146391	-63.8945026644573	-175.983774105004	-62.6852096389552	179.722727001403	-9.20693251364784	79.595138006756	
1000250000	-0.834616128616261	-13.1547155754018	-62.0833800278571	170.557011212124	-58.4815639923053	-177.084099561621	-9.1914776544109	79.3898794155718	
1000300000	-0.832024291643568	-13.2616711115176	-59.3794850924844	172.492681282069	-61.6550892605039	175.519124575478	-9.19267413646759	79.2842826754081	
1000350000	-0.831352941821919	-13.413697301683	-59.583611447592	166.023898455903	-60.4820369019749	173.451061906241	-9.19664770217992	79.1478840490084	
1000400000	-0.82866604603416	-13.5364059763686	-59.4445931280986	164.51494279162	-60.8349208402885	177.595389183706	-9.19538370684937	78.9851442306762	
1000450000	-0.838636597266341	-13.6999398341542	-60.0736447083841	170.804405902459	-60.7362726574105	162.28596314222	-9.19337320707855	78.874975799274	
1000500000	-0.828130147404431	-13.838563103182	-59.297455135253	166.32214272319	-59.1156645717669	-163.304088239966	-9.19356423208388	78.6745073132891	
1000550000	-0.833786077019	-14.0008670667925	-60.4967011642785	-174.762371464308	-61.4583162889348	170.204559211531	-9.19323129504604	78.5666478168502	
1000600000	-0.83353887154556	-14.0955097571262	-60.8929160084302	-178.564423619353	-60.5801154102152	-176.405687586247	-9.18057417795075	78.4143379058321	
1000650000	-0.830142948598222	-14.2114405131243	-59.3164842836952	158.093224536376	-58.276998367762	176.531965079788	-9.17618191368086	78.2741836655372	
1000700000	-0.83320517564533	-14.3580823209419	-59.5391359224778	-177.297684089578	-60.4005548234694	169.546599935977	-9.19190910615348	78.2144163752272	
1000750000	-0.834366860613407	-14.5327393659789	-59.966167991986	171.662321314381	-61.5773336266249	164.679876748318	-9.18502044663294	78.0002904689708	
1000800000	-0.837239612600609	-14.6415739467527	-63.658915991506	161.561452246087	-60.0450555578075	-172.538549956538	-9.18785214067885	77.8781197387545	
1000850000	-0.829277335568281	-14.7688842228427	-63.2022733053883	168.501709752963	-60.2340473764244	175.842486800358	-9.1816910046521	77.7626773968036	
1000900000	-0.834211359525065	-14.9007762776673	-60.8022225561925	161.108841613099	-59.2082349756798	167.274874025071	-9.19448728478616	77.5829251472174	
1000950000	-0.834572283700716	-15.0402031627648	-59.7119050403919	160.777414825331	-59.7186195926415	161.502305496892	-9.18492190904519	77.4281893670266	
1001000000	-0.829761574369536	-15.1770963180286	-61.2790788724865	168.872794074732	-61.1941817518384	-179.08601225236	-9.19124441607275	77.3250049687008	
1001050000	-0.834116400704577	-15.3442460170703	-59.5582783147107	153.23784032505	-59.0420898536908	173.565856212377	-9.1763931086367	77.1341751696414	
1001100000	-0.836797207145108	-15.4865549155726	-59.2517149278903	170.506308536616	-59.0422628082695	156.664275876882	-9.17383880788861	77.0484702413359	
1001150000	-0.834169866695938	-15.5754366659832	-58.7553309711601	174.620540664529	-59.066277184077	177.831885658549	-9.18250603511253	76.8613148881655	
1001200000	-0.836133619499517	-15.7547103982944	-64.5582118644503	172.542777013144	-60.9358346878351	159.462269058561	-9.16970496830698	76.6790374610484	
1001250000	-0.831223196328843	-15.9018902122935	-59.4987190951946	168.613477216828	-58.5495699177404	178.427556395227	-9.18497395737021	76.5541086865244	
1001300000	-0.829642719933142	-16.017841655162	-59.915928905994	-176.466771521431	-60.5314878880309	171.213440785773	-9.17568053448519	76.4297783920091	
1001350000	-0.836107256191968	-16.1776757518855	-60.7429624213828	158.430193396498	-60.192090041845	166.134972617336	-9.18521306848659	76.3142427124576	
1001400000	-0.834044277574117	-16.2581858064519	-60.2621505792056	155.413059895276	-63.5238577280939	172.574009104373	-9.17413096083218	76.1678964069755	
1001450000	-0.830183466817593	-16.447635147278	-58.5608114062133	159.17272782473	-60.4973483292559	170.666611750852	-9.17744949125173	76.0352625777486	
1001500000	-0.831211463346729	-16.5802967212127	-58.3909237707297	163.693009364274	-60.2153107113904	168.328306467219	-9.17625358749848	75.8795965370711	
1001550000	-0.83474495949059	-16.6893275357382	-59.8183022481902	166.547686417134	-60.1469652945342	172.095563914442	-9.17230390795685	75.8061716029921	
1001600000	-0.831355023645224	-16.8399671378039	-61.4311427758949	149.417146152245	-60.1893084560331	-170.397387168962	-9.17051898934466	75.6902960891397	
1001650000	-0.827574884412458	-16.9473105650294	-58.9595702782536	156.737724837449	-60.8704138544634	177.592699997555	-9.17283355572308	75.5015923143895	
1001700000	-0.827272017120396	-17.1066259257862	-59.5689531981475	-171.185837960648	-62.9061556793509	165.27307602997	-9.17160540015729	75.3566663006495	
1001750000	-0.833734506338637	-17.2280180229199	-59.4924182353974	-176.067798563483	-61.0229848104196	177.303728780969	-9.16668084699284	75.2139822832201	
1001800000	-0.831118240753467	-17.3809423813394	-61.3996803807646	168.055934733167	-59.4338699128114	150.372639615109	-9.17785765724562	75.0126776590883	
1001850000	-0.828003970528405	-17.5174167884923	-60.3128042635624	164.190965366556	-61.3024721850253	179.354380680499	-9.17493756054095	74.8556265239009	
1001900000	-0.834758687884739	-17.6318898915614	-61.1067307714335	151.237662134716	-61.7735426325297	162.906578821	-9.17483435051901	74.7785057563255	
1001950000	-0.83241770833196	-17.7998090043128	-60.362448413497	171.220645984885	-61.6884355448919	174.055913725476	-9.17020511458817	74.6664553554357	
1002000000	-0.83407094108237	-17.9028772459883	-59.9526537777658	157.609111131932	-61.3578937291339	159.341759793625	-9.17780679887222	74.4827757267157	
1002050000	-0.830938286497789	-18.0737813552433	-59.263148571766	161.199738963402	-60.9085520556495	166.533080865462	-9.1646059576116	74.3422971763339	
1002100000	-0.827183592649958	-18.1801568794322	-63.6759551785334	148.099129815475	-59.5852717533584	150.98392088636	-9.16711559735567	74.1918361429676	
1002150000	-0.830943177540188	-18.3502948183855	-64.4140511460337	159.135889833818	-60.1667146346236	166.067967383905	-9.16748858414572	74.1175647683996	
1002200000	-0.821128712504426	-18.4536794914513	-59.2229644666669	158.565174448246	-61.90495926761	168.567933954541	-9.16811516425969	73.8981003163983	
1002250000	-0.829730957278316	-18.6101607728112	-61.3113055391794	153.15506632401	-59.9846407003732	168.980059019449	-9.15896769509007	73.765748649132	
1002300000	-0.824404622892643	-18.7559440423573	-59.7219419441608	149.679613415081	-57.9958575480257	164.747517090989	-9.16552212513677	73.6516905012001	
1002350000	-0.826421166132608	-18.8747347955713	-59.5543373660572	140.595057641107	-61.2483131352636	158.716470598117	-9.16034206003538	73.4537673180272	
1002400000	-0.829731395434907	-19.0219503941147	-60.4057054615697	171.662353834131	-61.2986129877189	154.951209211666	-9.16428458638455	73.3340400149584	
1002450000	-0.829197229008011	-19.1495520147224	-58.9504698743397	163.755769788435	-60.6611154218929	146.219947290727	-9.15657359372918	73.1965445865575	
1002500000	-0.829248349223363	-19.2527739240719	-60.1401129575551	161.530562514607	-61.3722252816027	150.805936502657	-9.15849729230322	73.0658597730862	
1002550000	-0.825563650972869	-19.4305999583268	-60.4748028347693	162.445774213453	-59.275060495459	160.143571135784	-9.15639995219762	72.9390416241263	
1002600000	-0.832522879453824	-19.574954603219	-60.2186033031352	174.047579251875	-60.9429294087859	156.538631975404	-9.15488945648559	72.7123686004954	
1002650000	-0.832181189663497	-19.6996996886117	-58.3796784633487	164.724316189164	-61.5593812063182	152.917371500232	-9.15917107626045	72.5998311649118	
1002700000	-0.830683226359288	-19.8421373540542	-62.4416169001604	142.826467638679	-61.0065274793468	170.104516298881	-9.15377041035052	72.565243821858	
1002750000	-0.8306810551092	-19.9742387091899	-58.6515655363672	153.025968613338	-61.7652579693581	150.020818178692	-9.16191980826122	72.3709769034554	
1002800000	-0.836529897365145	-20.08230911463	-60.7924396059295	141.534684019402	-61.1728792927545	165.684225804866	-9.15585389682518	72.2129448587912	
1002850000	-0.830770449662506	-20.2557989231887	-59.6106203701026	163.029219597904	-59.348628604066	156.449791318627	-9.15493135249537	72.09614336547	
1002900000	-0.829114834112239	-20.3879373409161	-61.7708023483249	147.227829825565	-59.8106934570984	165.438335255091	-9.1623864347314	71.8868373617909	
1002950000	-0.830399873655833	-20.4958207827811	-59.6665885957095	143.646371915743	-61.6052594379189	153.843831773085	-9.15114956146532	71.7621761045576	
1003000000	-0.830853521176396	-20.6558605581834	-59.4772087619672	154.986188280547	-61.6425496444988	150.593837818164	-9.15759445445655	71.6558992365146	
1003050000	-0.833121406956094	-20.7966172152535	-60.2636007520282	155.808119665897	-60.5691162869438	157.6048846719	-9.15655727319791	71.4801603273912	
1003100000	-0.831143582737692	-20.946835728822	-60.6157450322493	139.059504420554	-59.409800312226	154.236695999104	-9.14727173161644	71.3228287754618	
1003150000	-0.829200097135116	-21.0717931374729	-59.6053967655247	152.930459655815	-63.7063058486799	136.396564088039	-9.14487991478899	71.2069397361993	
1003200000	-0.826148681696916	-21.203431419595	-61.6958768025172	145.118408493236	-60.1563560018106	157.61756402337	-9.14819903609005	71.0447333571561	
1003250000	-0.830221902625296	-21.3475508186241	-60.2174798961887	146.617529882366	-62.9639125171063	143.104697220543	-9.15139320405511	70.9051607610195	
1003300000	-0.829291452261399	-21.463770993564	-61.605903309925	161.692856029413	-60.5172491865296	154.751201554688	-9.14488077912971	70.7759703450229	
1003350000	-0.826212652469	-21.6030434705242	-61.0925276193452	163.597913921619	-60.514999762221	158.95750403828	-9.14577702469849	70.62848769477	
1003400000	-0.830449943760571	-21.7401724973601	-58.9561341302589	143.885431430789	-62.429225061496	155.656907818703	-9.15209527394781	70.4599631975586	
1003450000	-0.831750664026396	-21.8906085557833	-60.1551866004711	127.299224678907	-61.2194830519499	166.846430594936	-9.14139142848972	70.3643148689044	
1003500000	-0.830935158374052	-22.0270349174236	-62.15425046989	143.325376485514	-59.1975092498013	145.271654895799	-9.15482483918152	70.1702520439398	
1003550000	-0.827282327726606	-22.1468928269833	-62.5138845914763	158.890007934959	-60.2345803404616	146.690355651522	-9.15051194354256	70.1040941873551	
1003600000	-0.829729727867061	-22.2913184714602	-61.6065245156652	161.456413870144	-62.5752570220826	144.478646390097	-9.13960624759021	69.8787519143595	
1003650000	-0.829726627502362	-22.4419723215454	-62.1965152886167	167.233446685874	-61.0416313432511	152.38975532304	-9.14905020820708	69.8084669561121	
1003700000	-0.832508734572008	-22.5497318295335	-62.2700288647419	159.028234877584	-60.5071817729616	157.875259227125	-9.15392600433761	69.6817442836143	
1003750000	-0.826220595459352	-22.6897064015516	-59.2827507916651	155.178082587776	-61.469360042502	160.481068133297	-9.14662074496441	69.5452460906943	
1003800000	-0.831369803272014	-22.825608553481	-59.7683266869633	150.072494174792	-61.137287213178	158.882753893624	-9.14195571592743	69.3708435612587	
1003850000	-0.827397003898751	-22.9654771996482	-59.2782380083991	162.175403438032	-60.327804898867	143.411428682554	-9.14981470430599	69.2650451758572	
1003900000	-0.827296874387174	-23.0965974889833	-61.235896613726	143.872446962553	-60.0979175235137	152.843321716409	-9.14617673254386	69.1213769367764	
1003950000	-0.824139771288273	-23.2611398354269	-61.1028494937488	158.230131365213	-63.429703150333	168.568489863427	-9.14390918653378	68.9504296390514	
1004000000	-0.826575068252198	-23.3750807860547	-59.4604521459256	145.376374296029	-61.0293775165347	148.985620939451	-9.14361222247304	68.7516523010507	
1004050000	-0.827233715394591	-23.5407152297109	-61.7623614544465	151.274285769299	-62.5298951646002	146.867496512627	-9.14051719355388	68.7112069893551	
1004100000	-0.823255181876308	-23.6115456054834	-60.3317952535812	145.47700880155	-59.1949885152162	157.033120889392	-9.13906688352976	68.5128830739176	
1004150000	-0.830177639408	-23.7863531089617	-62.1816058701928	132.300637569508	-64.2581229201728	168.653269543227	-9.15556782977495	68.3784496791057	
1004200000	-0.827634887430525	-23.9327127281802	-61.4843950935755	164.436625019357	-61.3724713920202	152.348240010083	-9.14572791986591	68.2239401987566	
1004250000	-0.825101919724159	-24.0480805021383	-61.4803504196724	169.100191298612	-62.8320291722663	153.81890372706	-9.14544908058465	68.1412650766206	
1004300000	-0.834536932244623	-24.2323156661356	-60.9878029604954	162.326983083974	-63.7683902705858	148.630434856716	-9.13892259792655	67.9847251071321	
1004350000	-0.82404722805181	-24.3426445302746	-62.483555081773	142.184699812042	-61.3659769864881	161.783640019798	-9.13380366562151	67.8388525495239	
1004400000	-0.828116388648431	-24.4745055561384	-60.6356568396178	157.633117186924	-62.6405115677917	155.855140093196	-9.14143976669415	67.6846527232017	
1004450000	-0.829627167650319	-24.5934137302331	-59.1314028509587	133.741223272297	-63.165160022222	-179.90792690892	-9.14024471307125	67.5641869897572	
1004500000	-0.82647651768503	-24.7524545090504	-61.8507666803129	125.53965526143	-60.2391152111648	139.819927198232	-9.14354582980136	67.399257445967	
1004550000	-0.820955041500546	-24.8636428508922	-60.0533206560901	168.694835436574	-59.3321259823155	159.715537928182	-9.14491345146548	67.3543430407774	
1004600000	-0.827893298911712	-25.0221249844975	-61.8869645468034	143.226547332321	-60.479504800731	137.867134410344	-9.1409083296523	67.1538877537157	
1004650000	-0.829891508186179	-25.1469226656782	-60.7408901389604	140.016803761262	-61.1646256479153	153.210222241233	-9.13805823875734	66.9917859084485	
1004700000	-0.828322217707361	-25.3200125741287	-61.8852240236919	157.177019486731	-61.4357912448046	162.041112683683	-9.13419136371811	66.8755314809802	
1004750000	-0.82123607731672	-25.4384705182923	-61.1753517603073	156.837645374816	-61.8377287063024	147.342327005928	-9.13669260461071	66.7395034845092	
1004800000	-0.824118841977024	-25.5749180346648	-62.2362947746282	131.169322547535	-59.3750544325563	158.00446863428	-9.14707893059201	66.6567791421471	
1004850000	-0.824395148113794	-25.6747083660669	-59.176604805788	167.02166908954	-62.9367993742528	145.45517050994	-9.1365020868212	66.4969685922638	
1004900000	-0.821585770484325	-25.8442189103689	-61.7743366694806	138.449600184266	-61.8557784586957	129.122107622956	-9.14221941093389	66.3503798596199	
1004950000	-0.824120772086495	-25.9896459948128	-64.9588947544324	143.641950977535	-61.7711660251712	149.480414333859	-9.1436088346876	66.2502132790899	
1005000000	-0.825101331391523	-26.0664445949988	-61.4593382580669	152.687081710656	-63.2639311191762	158.698826884462	-9.14087333781371	66.0968514346107	
1005050000	-0.823218199817169	-26.2278452487443	-61.6087072721496	147.504848908888	-62.0893286590818	166.861259273113	-9.12880337841815	66.0050672079973	
1005100000	-0.827121819358164	-26.368807247197	-61.3713496607774	160.028975729793	-60.0175846814471	154.60313463288	-9.13425109335065	65.8674800621272	
1005150000	-0.827337057506667	-26.5138093598775	-62.6951149249701	168.84153360551	-60.4871611312422	153.072295582032	-9.13590149024415	65.6593485788068	
1005200000	-0.820224725874052	-26.631947271675	-61.4952139384867	152.058951457829	-61.4954257472596	136.750895527937	-9.13203386976704	65.5525217156087	
1005250000	-0.824723936840508	-26.7902852356426	-58.9551052091769	140.023869133242	-61.9031519181884	149.999496552716	-9.13517540289915	65.4467175645858	
1005300000	-0.822793202897873	-26.9000220682149	-59.6612554375917	135.470215345468	-59.4548082248598	153.124306897402	-9.13860935329582	65.3429853023256	
1005350000	-0.824724920263526	-27.0559999105288	-61.1673151791718	141.724379187372	-61.1256341791543	137.558245398048	-9.14197042305997	65.2287539031504	
1005400000	-0.824313389307115	-27.1905256255656	-58.854537528236	144.93473041442	-61.0316192045145	160.016277443973	-9.12893387577836	65.0572036792984	
1005450000	-0.822728471554565	-27.287060190407	-59.7422716419102	135.890823075517	-62.8874750880719	149.130482594291	-9.12596956495223	64.8343478801892	
1005500000	-0.822306251485767	-27.4639140461098	-61.2732204770513	147.542103251776	-62.5802368796962	175.733436828399	-9.13584993300941	64.7776482160819	
1005550000	-0.822461807088428	-27.605234817665	-62.1964744806204	147.215994923405	-64.3387420098128	166.026588907775	-9.12803213738338	64.5834321099473	
1005600000	-0.824628392908917	-27.7359372830433	-62.8164096573122	154.206115073602	-62.8270405958761	136.779045531201	-9.13594958318551	64.4141314634986	
1005650000	-0.820196479895214	-27.8682444200625	-60.0040630308475	136.511453650654	-63.2727645794797	159.786484766663	-9.12356672965689	64.3125485778527	
1005700000	-0.825952960578328	-28.0109189061478	-62.9644175916766	139.680071659357	-62.5942250414942	164.600850369677	-9.126033716293	64.2005110972013	
1005750000	-0.819351343180392	-28.1575496001114	-60.7817777762627	150.21607666372	-61.1423879401541	148.944467583904	-9.12823248237375	64.0993315872391	
1005800000	-0.822431524293097	-28.283476138323	-60.7342138446634	155.435504792507	-58.5415434090986	143.288069788592	-9.12570237861228	63.8975665239446	
1005850000	-0.823928705416574	-28.4267845607815	-61.2473492192691	136.675703760948	-59.90469927263	161.204095088127	-9.13139787020302	63.8846266706732	
1005900000	-0.825763944072574	-28.5603448713256	-62.0367498730966	124.287597816052	-59.2573274453078	134.842422307528	-9.12245028817892	63.6616087390215	
1005950000	-0.824357436938736	-28.7079897927091	-65.0282593986665	133.486619139492	-61.254100726883	149.081320236876	-9.11382007654669	63.4822608409125	
1006000000	-0.821525904074393	-28.8398743242056	-63.3578694263002	136.942797157886	-60.9381114463251	130.415002650322	-9.1174922260647	63.3599918579947	
1006050000	-0.823740606297453	-28.9551757014673	-64.9823459939493	148.617033651757	-61.8406662423754	136.479025922257	-9.11217762947026	63.3004865307123	
1006100000	-0.824587187695045	-29.1009670492535	-66.4367852490064	142.700566825884	-64.0790050455875	148.382491227151	-9.12067088099342	63.1113009297512	
1006150000	-0.825087900737653	-29.2192518001304	-59.0583162833325	159.53690271545	-63.6121805271989	153.237873028742	-9.12159425464272	62.9381166144268	
1006200000	-0.822744290342765	-29.3678924789903	-62.3614860819362	146.307305744604	-61.9899740342156	147.99185212013	-9.11012885110552	62.877401356119	
1006250000	-0.822107273971759	-29.4950051730923	-61.6219510902485	142.56477594831	-61.2189898363748	147.611930590499	-9.11879033956841	62.6787766026699	
1006300000	-0.824173692522039	-29.6141307855798	-63.5872088223137	142.991733744256	-61.3375963781614	149.581195008802	-9.11879314293949	62.556247972724	
