!Keysight Technologies N9923A: A.08.15
!Date: Friday, 16 February 2024 21:14:03
!Timezone: (GMT-05:00) Eastern Time (US & Canada)
!Model: N9923A
!Serial: MY52412730
!GPS Latitude: 
!GPS Longitude: 
!GPS TimeStamp: 0001-01-01 00:00:00Z
!GPS Seconds Since Last Read: 0
!CHECKSUM:0926650154
!Correction: S11(ON Q)S21(ON Q)S12(ON Q)S22(ON Q)
!S2P File: Measurements:S11,S21,S12,S22:
# Hz S DB R 50
1000000000	-0.728546733394539	-12.170346841666	-64.4971690634215	40.7830600798038	-68.1180617990513	41.5046122365681	-9.95018814600323	75.6917425798499	
1000050000	-0.729958128401896	-12.2441766610859	-66.7848575988606	61.4358343066878	-62.1905959499055	45.8614867529386	-9.94838370596992	75.4932661125239	
1000100000	-0.738551944526623	-12.416301943999	-70.5236957915688	31.7673327731387	-68.30200510527	28.7549067401804	-9.94704339143791	75.4060268282765	
1000150000	-0.730844798236951	-12.555695076495	-72.7791108797022	43.8331854590092	-66.3729959294328	26.2120294483036	-9.946533729177	75.2007748462019	
1000200000	-0.729235153929945	-12.7010498977833	-63.6256244175227	60.1604887506653	-64.02647357542	37.856176092887	-9.95709335188617	75.09696677268	
1000250000	-0.735483878192007	-12.7977059036041	-65.5380050573146	33.2183100043876	-66.7656295854199	65.4767738026144	-9.94269860341604	74.9578222292108	
1000300000	-0.732488269183703	-12.9324403453884	-68.3117096603082	40.2324968627465	-64.5196288851489	41.0469948676391	-9.95174617377184	74.8361851395586	
1000350000	-0.731867768259883	-13.0516594188116	-62.0606139597607	58.3949962910367	-64.564005226088	27.8269880496428	-9.94252771215363	74.7568668869298	
1000400000	-0.730214925338883	-13.2168370719089	-65.1391146634941	36.7516541897754	-63.3886073286224	44.5276763264576	-9.94416246857374	74.5956227299432	
1000450000	-0.736919512800184	-13.3720122273688	-63.628881768787	88.0570499389951	-63.3684646251348	24.4784409757647	-9.93939541458381	74.4548389079949	
1000500000	-0.730604240193914	-13.4814820944223	-64.0308808961901	67.74668439181	-64.7752484330522	23.9713384095363	-9.94750650897177	74.321045980401	
1000550000	-0.737562662388673	-13.6695906094194	-68.8549232102512	44.0000350142834	-62.8644990880692	38.9020458660146	-9.94741002304772	74.1730904535428	
1000600000	-0.735183832792813	-13.7815831734627	-67.8944255803211	39.9290334149146	-63.998972752176	39.3977689460655	-9.9327327840301	74.0514547535827	
1000650000	-0.73249286615906	-13.8815321383795	-64.5042167419125	60.0463134769555	-64.0649281692739	25.698874622162	-9.93404587153856	73.909849118192	
1000700000	-0.728429735377758	-14.0339545348935	-64.4870414252957	36.6223683186786	-65.0220307475026	32.0378621744527	-9.93962166161226	73.7727039836367	
1000750000	-0.736000229498264	-14.1555568531455	-69.1462604818445	25.8417898117772	-63.9185974476079	41.0177677838932	-9.93823532529265	73.5774952107917	
1000800000	-0.738365498689239	-14.3200423649011	-73.6322856460807	50.8928795554731	-66.1362332455773	41.1099021343823	-9.9444268222522	73.5591718422589	
1000850000	-0.728508232231553	-14.4401581402669	-65.3982711205516	68.456859943648	-65.9166060039603	45.1891494136085	-9.93467859151133	73.3464029727603	
1000900000	-0.731410177384626	-14.5673971034584	-68.4544194921817	28.3064407652309	-67.7595669634051	17.7236669581705	-9.94279277153639	73.2354434571376	
1000950000	-0.732730125351123	-14.7092304576489	-66.5191685900993	36.1461067940081	-61.9435715614963	22.0732742504157	-9.93719272700331	73.1007174149911	
1001000000	-0.736651350064327	-14.8514131375124	-65.2415606337039	28.0107925890417	-61.5137536991538	20.5671804665558	-9.93745104049108	72.9835524885884	
1001050000	-0.731316192092405	-15.0155384985582	-66.932270439376	1.1015435174652	-63.0218263604221	50.472124618329	-9.9325162338015	72.8365524093891	
1001100000	-0.735739308220963	-15.1229895686629	-68.8753560658596	55.1845958744815	-65.565883561771	26.36851774699	-9.92531011106209	72.7153849883812	
1001150000	-0.732694129766717	-15.2592053295446	-64.5239368294798	35.1531866038963	-63.0593839163811	15.6515665782626	-9.92927909396994	72.5815850143181	
1001200000	-0.735858640542345	-15.417488326991	-65.152520045823	29.0046450081549	-64.7122535998973	33.9990693827311	-9.91914459168745	72.395717161446	
1001250000	-0.73468910374033	-15.5507076378295	-67.0332683562381	38.0658480633511	-63.5189990940846	18.588008399425	-9.93671561275174	72.2829067251087	
1001300000	-0.732104868517953	-15.6934476606181	-65.3408479583775	30.3578406061617	-63.2733175017816	27.3827229429713	-9.93038614119339	72.1863411453075	
1001350000	-0.735406177506801	-15.8319736557552	-64.4387645804206	32.9562256684027	-63.2652739306044	37.5418598209205	-9.93226531591043	72.089414764333	
1001400000	-0.73005533512527	-15.9183931969249	-65.7070273692549	33.8775672681054	-63.3372014743276	34.9399823244675	-9.92896213109117	71.9174313326036	
1001450000	-0.733729531017209	-16.0840216360861	-64.2660138779748	68.7708134647733	-62.8347323630142	27.6134728849041	-9.92501475264085	71.7820265049831	
1001500000	-0.736010421003528	-16.2424135055602	-66.6247484789278	32.77268257774	-61.9376322902287	36.9631346061953	-9.92467480795394	71.5917319450081	
1001550000	-0.732997996175369	-16.3394047717615	-67.5503322350223	38.1232160864366	-62.8753554024051	42.3206863181767	-9.92148731853723	71.530711821109	
1001600000	-0.732971992085299	-16.4814338023862	-68.1842370697768	67.1549119128473	-63.5418860009224	28.7207436981303	-9.92481128401078	71.4054908555952	
1001650000	-0.728876621142163	-16.6087779695599	-66.5172009241928	25.8351579622638	-60.82797567159	31.3633308611356	-9.91618686776462	71.2328514201406	
1001700000	-0.73295038246117	-16.749520676842	-65.5948014166257	11.6270352650191	-61.5718611170175	22.9700873435975	-9.92408884965539	71.1282421989415	
1001750000	-0.735652843466191	-16.8817666356511	-61.719241488114	35.5816154841378	-63.0231805399846	17.5084758732918	-9.91336633262184	70.9706580049239	
1001800000	-0.732628218263682	-17.0494009259831	-65.8905265501792	15.6258448303511	-65.5682034748588	17.1091996719332	-9.92143946161514	70.7698144603178	
1001850000	-0.731706428720244	-17.1590904743443	-65.7716956931859	40.6076237669658	-65.519099880012	20.1606913149942	-9.92682752867955	70.6471606288205	
1001900000	-0.733541164658821	-17.2700021658367	-65.0811616207551	38.2619032167296	-63.7599546344191	23.4480711692731	-9.93869160962541	70.5684946432602	
1001950000	-0.734463549336025	-17.4415349731327	-66.9363231598199	26.6137298359302	-65.936450840333	9.12305021639944	-9.92037571447234	70.3993978842586	
1002000000	-0.731544795742382	-17.581987988609	-66.4026486475772	28.5928655674488	-63.1335170055425	26.2222274853685	-9.93122996692726	70.2829833001485	
1002050000	-0.733102092854732	-17.7320471199011	-62.7314600028698	28.6901057834305	-65.0359785723387	22.3590405340064	-9.90420131947575	70.1252272698503	
1002100000	-0.732213027197626	-17.8030301610078	-63.6029066185938	28.5856464298921	-64.5583450448455	27.5462984533836	-9.924524352635	69.9556954158692	
1002150000	-0.730247442056999	-17.9773109380646	-66.093191962528	37.1968189202065	-65.5938627752274	38.5788431933929	-9.91757494383087	69.8622492301875	
1002200000	-0.729512774683165	-18.1078983265418	-65.9822522367914	49.3876530607828	-65.0926673866417	39.1617403112703	-9.9275233267143	69.7732264898276	
1002250000	-0.729871548414141	-18.250007314075	-68.3298939677718	23.3516944627636	-65.0687057660452	16.5311638943437	-9.91307275585134	69.594809120617	
1002300000	-0.728784948897218	-18.3919527369346	-66.1974645587058	64.5938046698499	-67.0632377535306	18.2554193539436	-9.913174151935	69.4850563372026	
1002350000	-0.732585966974249	-18.53156353627	-63.0690939097574	26.650088208284	-62.9689662822325	14.4955807969944	-9.92020200844664	69.3346289902526	
1002400000	-0.73351202246806	-18.6698179702283	-64.4753706893581	17.4763639256336	-64.7395962490511	22.8606333341707	-9.91035833973039	69.2193386673941	
1002450000	-0.730521898071545	-18.7642286891498	-68.0612277297042	48.1306537188763	-63.1408569176945	31.0141275570862	-9.90733717079357	69.0742506234361	
1002500000	-0.732039961475509	-18.9048524290227	-65.1684997619027	20.0888156361291	-64.7392191637936	18.503039470568	-9.91342569170499	68.9684157152833	
1002550000	-0.734560659137692	-19.0879059091159	-70.4749782944197	29.6093577124282	-61.8629605359756	18.0838775816185	-9.90705365619083	68.8267951258578	
1002600000	-0.733632691596813	-19.1994002563123	-66.01472585206	33.8703988095523	-64.5046788522758	26.3634988220891	-9.91054864680795	68.662041078107	
1002650000	-0.729672948405591	-19.3329947355808	-64.831903314016	25.1693853441091	-63.7166900363346	19.5630624553564	-9.91619033990151	68.4811653732735	
1002700000	-0.730214177767362	-19.4858246823037	-67.9179036803432	16.5547618913965	-62.3276646068604	5.02659461906777	-9.91962435197356	68.4607981379516	
1002750000	-0.731898643260909	-19.6164339849167	-63.8777463379921	40.2136504002279	-64.8344329003491	33.3084809345784	-9.91895796580047	68.3714889019573	
1002800000	-0.731123039932787	-19.7590814251647	-64.0387432200353	26.2851844122989	-65.3153806140167	20.8680980080798	-9.90773284316816	68.1946229278519	
1002850000	-0.732517651771978	-19.8644005029785	-65.5831594857881	25.1252080679553	-62.7043495554678	16.3070031105375	-9.92260439628981	68.0585373272368	
1002900000	-0.734655809612956	-20.0260548961303	-64.9830058461677	57.3524866633746	-64.0916143003474	35.2748519468489	-9.91349642674192	67.888115537316	
1002950000	-0.72797187648018	-20.1217547997973	-67.7514052371791	3.80135304924455	-62.6305732168532	30.7091612741588	-9.90284763885671	67.7813443989926	
1003000000	-0.728589486090551	-20.2797021788393	-67.7570933883934	40.8802153712647	-62.5894852789392	-0.138741218366226	-9.91706764204782	67.6579658817884	
1003050000	-0.73290667531416	-20.4501349870631	-67.7126594715082	35.5392748137277	-64.3900253149284	27.8634800620941	-9.91562824834732	67.558765015876	
1003100000	-0.731959500833279	-20.5569284807354	-65.9180609988684	31.8358455213006	-62.3699942766031	23.6046089130588	-9.90456208053099	67.3873606824994	
1003150000	-0.731528329263909	-20.6736261426985	-63.8556075847676	22.6522775157489	-64.0442349544842	12.7961873145788	-9.9048212634039	67.2586780659887	
1003200000	-0.7277951597676	-20.8428202583534	-68.1224766626907	26.2702806569124	-63.0668360610618	11.4889008524131	-9.90755268801879	67.1855476046981	
1003250000	-0.73048937256806	-20.9636831351174	-65.9798610650627	3.33405839033177	-63.179193182893	28.6533275383685	-9.9054060515984	67.0407806748534	
1003300000	-0.734046374194202	-21.0882376537585	-64.4729673125029	7.50076234619374	-64.9712624073764	18.7813293793703	-9.8995950114341	66.9196257480094	
1003350000	-0.72627123282757	-21.2273618095415	-66.773221815593	3.69621422848562	-63.0118076471625	12.490611957898	-9.90457324180869	66.8040916754708	
1003400000	-0.726036908124603	-21.3793134074925	-62.8822564654262	21.5595934004538	-64.9070764472277	14.9884058933444	-9.91003300336767	66.5980224602754	
1003450000	-0.732580796173862	-21.5103858270445	-63.2950607633521	13.8832490655934	-64.3918130017036	26.6462985808652	-9.89945902948636	66.5503932311989	
1003500000	-0.730335345670253	-21.6374330239118	-66.1833561555012	21.325152816421	-62.4319452261701	14.094411305384	-9.90692504969927	66.3898857660604	
1003550000	-0.730176593408736	-21.778980254085	-73.548311659242	93.1993435955143	-63.376008852023	24.9049991985564	-9.89914200167865	66.3282966309704	
1003600000	-0.729069095848419	-21.9082951029209	-64.477980575867	38.20537606077	-64.7540502160118	4.66735109237642	-9.89963707338403	66.1639149090967	
1003650000	-0.730114545487782	-22.0633283574306	-65.7473327782098	40.5727411363551	-65.5414136029356	25.3787488416418	-9.90295598826814	66.0246833315979	
1003700000	-0.729171806552702	-22.1889090623996	-64.0661819118769	-6.59536557813239	-66.2920913717299	15.4479359654425	-9.90771225828509	65.9316079221397	
1003750000	-0.728375032250193	-22.322962560262	-67.6052804215207	33.7005656932744	-64.7769205733136	14.2040155450728	-9.89189111186947	65.8177088041011	
1003800000	-0.728520511548429	-22.4490163888169	-65.8890480658114	21.5129410433912	-63.5057944043153	23.3271622445105	-9.88669410562565	65.6972409559624	
1003850000	-0.728498567926995	-22.6055040257607	-67.0535966690849	24.4934288433934	-63.2903280126052	3.87431245804479	-9.89490893627583	65.6027856504302	
1003900000	-0.727601518297463	-22.7348060689367	-67.683818753022	37.1231989414421	-63.7958847827549	24.3280919474879	-9.89670944553747	65.4566882074448	
1003950000	-0.730997537625116	-22.8692525885683	-64.5584635612996	16.8846884187827	-66.4573949175242	26.8270966108416	-9.88952903160143	65.3083549034027	
1004000000	-0.72789020681102	-22.9865280085835	-65.2096105906995	23.0091437501548	-67.6654202084357	27.255939959691	-9.88882101321186	65.1685685592608	
1004050000	-0.726797770793438	-23.1231378299863	-67.4585008724766	11.2309701537555	-64.0961582443591	5.52058110829594	-9.89175193479561	65.0985896375837	
1004100000	-0.7288504173319	-23.2881716015362	-62.6943385503152	10.9682173395864	-65.1451749446598	14.8002838020917	-9.86924683294469	64.942627230429	
1004150000	-0.732555056136404	-23.401753591981	-63.5794947984928	2.07003071860455	-61.4237377983246	25.4669275330645	-9.87721874723816	64.7574092259797	
1004200000	-0.730758329724598	-23.5522862575986	-66.3212299120662	-0.235972207696755	-64.3965432833942	-10.1481768307471	-9.86793249536738	64.6958935640361	
1004250000	-0.727705679696955	-23.6689374775208	-68.2587439069262	-2.96590847799622	-63.7131736205986	21.4457784091801	-9.88067097688639	64.6308309066588	
1004300000	-0.734185899218485	-23.8081139473545	-65.975674274715	0.974039098192462	-65.4800210117632	16.4953394122187	-9.86657005680891	64.4734312404098	
1004350000	-0.730383047966951	-23.9772434560867	-66.306469205138	25.9037983235653	-65.2857688408709	15.0472138161817	-9.86968523008567	64.3509775767989	
1004400000	-0.727192380305602	-24.091240499349	-66.5060481228361	57.5565103088792	-68.3874288662851	14.9529722201087	-9.86757827386916	64.2469620787	
1004450000	-0.729248507997497	-24.1982260774201	-66.3536737695346	6.20776608783239	-64.6047667110816	3.28880534845028	-9.86878222219695	64.1013361976691	
1004500000	-0.731875629115843	-24.3539962242595	-65.8158715655721	17.4073533002763	-62.6151503182898	14.2203069716737	-9.86960338750236	63.9288398458262	
1004550000	-0.727308725218048	-24.4911942944013	-68.994441293989	60.0946133612577	-61.8161513640363	14.7868283506847	-9.86419682831839	63.8651082441065	
1004600000	-0.729866611564033	-24.6292039562031	-62.4740184979737	52.0399706283208	-63.2616864856901	16.2972903510608	-9.84597793112389	63.7511117705197	
1004650000	-0.727936488865461	-24.7533775609247	-67.0025107911564	15.3139384870808	-63.4876734629319	8.66686782625493	-9.84906341774352	63.5672862561361	
1004700000	-0.729816679958394	-24.9130979770257	-68.4272575751201	24.3982793637444	-66.5677477696285	11.5626695883687	-9.85356150598232	63.4911142670987	
1004750000	-0.733979664093036	-25.0612551736019	-64.9379156313274	40.6707850227043	-68.1400662707262	11.9804807849808	-9.85071128876739	63.2861886851338	
1004800000	-0.72653721449421	-25.1871778941213	-63.6693749075652	19.7970650082515	-62.368812173875	36.1005136152856	-9.85484226638876	63.2107398146804	
1004850000	-0.727097903268385	-25.309570866389	-63.9461253129938	29.5571207442636	-65.7753248169348	7.30337641606643	-9.83921287031695	63.0840846059559	
1004900000	-0.726570360736315	-25.442338375454	-69.2967273780665	30.2992869143394	-63.651666540377	19.4008022342199	-9.84072007166624	62.9503166095734	
1004950000	-0.723835989961162	-25.5970202059525	-63.1025504224675	29.7004799542274	-67.0212544218511	15.0243997077304	-9.83112061806599	62.8727793106787	
1005000000	-0.727001156093988	-25.7039758876503	-66.9307969463409	7.47559865430053	-62.5246176468906	32.5411139390446	-9.84260922775863	62.6990695708836	
1005050000	-0.731582652856937	-25.8530765494483	-67.4433321472285	32.6853796054861	-62.6164261912351	8.82477836688105	-9.82470177429888	62.6287205698323	
1005100000	-0.73012030079531	-25.9811380665158	-67.1744572731959	2.07728225738646	-63.8259549874473	-6.83087493923025	-9.83727039648227	62.4457529391781	
1005150000	-0.733281319567496	-26.1069655691927	-66.540247942529	33.3290375914996	-63.2004417495454	16.9589681628407	-9.82725057874767	62.3107003869766	
1005200000	-0.72798832972607	-26.2640949488002	-67.6973601381164	28.7839482317597	-63.7390989104513	11.2270049161245	-9.82783867473514	62.2130280604396	
1005250000	-0.731807225339109	-26.395709406908	-69.3425398581229	3.31249439337055	-64.3174392653783	16.7334360690806	-9.83127561019945	62.0842452832833	
1005300000	-0.729827965974956	-26.5375735195755	-65.5031157902573	20.1422441129934	-63.0350746765489	24.4596862399553	-9.82528509191077	61.9987387481183	
1005350000	-0.728291565278399	-26.6534738755377	-66.1750233331559	25.4127355544683	-61.8641656286771	21.9241647657443	-9.82448467624536	61.797611386395	
1005400000	-0.729692865747195	-26.7900507502467	-64.3748865330912	5.21109534958904	-64.0870761348206	-10.3298949215513	-9.81008894972865	61.7143704257583	
1005450000	-0.730785669068312	-26.9218657675189	-66.7234002960433	17.557374654472	-66.0667495167506	-1.93278035819928	-9.80759180101767	61.4871765785461	
1005500000	-0.729467007260173	-27.059867296655	-64.2090782425164	11.2434707435173	-62.4059775548278	19.4682337370768	-9.80641647175505	61.4484111285582	
1005550000	-0.727548916332946	-27.2082883266172	-63.095819389838	21.6379348799759	-61.8761687712061	13.2125733101918	-9.7911883876538	61.3193829048697	
1005600000	-0.726853545073617	-27.331110933323	-67.1239810630355	15.1938607682876	-63.6951027368968	16.2924669105886	-9.80878191504612	61.128168719429	
1005650000	-0.726836948018077	-27.4633353707625	-62.9742969149872	10.9862130308778	-62.7308670069845	7.89181387697237	-9.79131990298973	60.9967546665	
1005700000	-0.728259546336847	-27.6012131564709	-65.3397324452639	18.3740112935521	-62.2290776421074	23.8866943940054	-9.79415284977207	60.925957628219	
1005750000	-0.72569192290197	-27.7652955905179	-69.1214192914756	10.4771500261716	-63.6291393689283	14.028380366955	-9.78788032725676	60.8579611895851	
1005800000	-0.726882956163017	-27.8707204516002	-64.4483794230596	33.7541991197395	-63.9531868122034	24.9606161100437	-9.77698215418906	60.6267633619301	
1005850000	-0.727388478141794	-28.0398685066563	-65.114247351708	25.2158834223507	-63.8180461856341	26.2144370183488	-9.785763075784	60.5374007611135	
1005900000	-0.728882313945925	-28.1515752725661	-65.6152736703472	40.6816255413529	-62.5694670591386	11.8982530596171	-9.7863768940199	60.430446696263	
1005950000	-0.731150235094891	-28.2995255642635	-67.7208015550125	16.6383518616114	-62.427795069381	7.96176351779136	-9.76740083323618	60.2975878647142	
1006000000	-0.726900866891654	-28.4282957999105	-65.0371716697886	10.7821911763937	-62.8006153906969	16.4809196283568	-9.7787007410483	60.1358151736519	
1006050000	-0.728678222983397	-28.5547307363925	-69.1500087654673	41.0156981184591	-62.9672479675822	17.2867518854166	-9.76733319716051	60.0040924223801	
1006100000	-0.730092052905788	-28.6805661488924	-66.4188218525559	19.4404118024697	-64.838633962365	-0.721540763653367	-9.75892027619968	59.812258532091	
1006150000	-0.730389025456651	-28.8341751721534	-66.6560588891057	40.6454482801589	-64.4309976426281	15.854004348964	-9.7692729616603	59.7379439084637	
1006200000	-0.729398889922643	-29.0038778636793	-62.8592447133874	19.2840256072368	-63.8065748681599	5.61233332179925	-9.75414392808183	59.6946652892621	
1006250000	-0.72485072030827	-29.0971247131559	-61.0110942218314	34.9611535043402	-62.7553161820956	16.1377071113831	-9.75149008839548	59.4802776333312	
1006300000	-0.729117198508891	-29.2464047977603	-61.9944811379542	0.313426435744856	-65.4662981779449	13.7923003830312	-9.74973718863413	59.3722729197483	
