!Keysight Technologies N9923A: A.08.15
!Date: Friday, 16 February 2024 21:12:10
!Timezone: (GMT-05:00) Eastern Time (US & Canada)
!Model: N9923A
!Serial: MY52412730
!GPS Latitude: 
!GPS Longitude: 
!GPS TimeStamp: 0001-01-01 00:00:00Z
!GPS Seconds Since Last Read: 0
!CHECKSUM:0122803140
!Correction: S11(ON Q)S21(ON Q)S12(ON Q)S22(ON Q)
!S2P File: Measurements:S11,S21,S12,S22:
# Hz S DB R 50
1000000000	-0.721335263653505	-12.2120923705191	-65.4145745577261	42.2958505301155	-72.3231452536913	25.9741562596728	-9.91875737054188	75.5674610568473	
1000050000	-0.721132474660077	-12.2970032288939	-67.0990712898028	27.5250535989673	-65.923331920985	27.1980338444823	-9.91793562425073	75.4667173353118	
1000100000	-0.727695309910294	-12.4378126882761	-72.9666292634537	39.6508490959193	-71.0604592026123	7.61980124190347	-9.92048882977384	75.3514539579789	
1000150000	-0.728030744517088	-12.5829208626118	-69.2011899762394	75.2569784394575	-65.9824862118884	6.15096296284559	-9.91391095099176	75.161600142302	
1000200000	-0.724906732236632	-12.7225268856728	-68.6354695117754	29.2923865415039	-71.2586637732364	0.55667336670523	-9.92521615004116	75.029865305467	
1000250000	-0.725163754622157	-12.8430574882277	-68.4436170352453	47.1898993555245	-67.9649355767712	34.4148361057014	-9.91874626664003	74.8398264386499	
1000300000	-0.724685086423963	-12.9623498693584	-64.7686743920244	54.5486721356194	-67.6157344014528	41.0224756163948	-9.91114779258144	74.7427472119263	
1000350000	-0.725897493171822	-13.0989706028871	-70.5748302028104	50.6148853014202	-69.5743227174653	-0.063677780056517	-9.91747850998216	74.695663768164	
1000400000	-0.724105826870426	-13.2801402065141	-62.5592089426865	21.1703315675342	-66.7927325070862	15.2891544503086	-9.92341807844316	74.5356603477596	
1000450000	-0.727904245647132	-13.3862230994658	-63.9047801534629	34.7491498102559	-71.3440956689579	31.6725542112034	-9.91140509285326	74.4186019168947	
1000500000	-0.721651802032187	-13.5197311619764	-65.1468949518732	34.7487421196478	-64.5113979104963	76.0647643433118	-9.90948248419265	74.2524193593681	
1000550000	-0.729099571635562	-13.6822625276751	-74.310414341765	-1.37599324437959	-69.2728963459691	-9.39047201741451	-9.90938396593716	74.1174697382654	
1000600000	-0.724349803555841	-13.7948045969505	-69.9505956763564	44.6929449526832	-65.8832756018106	19.3651723363109	-9.90497866635327	73.9782773137368	
1000650000	-0.723708510565541	-13.9225966190842	-67.8694133287938	27.4416928670817	-66.2051930183264	29.4694645417953	-9.90121735470535	73.8573360774657	
1000700000	-0.722205408776595	-14.0530921799227	-65.4639953948895	61.8096056160353	-68.8398230277293	31.1992692006065	-9.91099339921426	73.7486695813774	
1000750000	-0.726544445277556	-14.2384324507606	-65.6790900752966	58.4192025459147	-66.5199172513362	33.8425783410057	-9.90234577835554	73.637459393537	
1000800000	-0.727116815476579	-14.334846759239	-63.2575343734627	46.1942166595879	-65.2065002121219	26.5024528254867	-9.91294274040996	73.5535644723491	
1000850000	-0.722815667626365	-14.4664259566376	-66.8069744196058	24.9981095531921	-64.8305706795765	18.0672103361641	-9.89795793280289	73.3596079943853	
1000900000	-0.724732216329178	-14.5942019469982	-64.6374818415496	57.8719341955202	-67.8110175288784	43.0178413563005	-9.90739908686733	73.2114813837952	
1000950000	-0.725401712410912	-14.7316276634989	-65.6435261233358	16.4744597696147	-67.1780312135969	24.8429665920292	-9.90146850868681	73.0465210055745	
1001000000	-0.726030300941683	-14.8806244572007	-66.3267652120685	33.7895857031822	-64.8209332193578	34.5401501152798	-9.90609013238616	72.9841835466641	
1001050000	-0.724673407699502	-15.0524032201291	-68.3663894796143	10.8223057730853	-64.8760857750149	4.54500724522938	-9.90178147260835	72.817616435443	
1001100000	-0.7268894605765	-15.1617496907399	-66.6896271800312	36.290601764103	-64.9669149695648	16.4251170379309	-9.8911464238765	72.6764266025829	
1001150000	-0.721213180521661	-15.2641709868659	-67.6962618480168	34.3433861725645	-73.740489775316	49.9345286925768	-9.90288814424164	72.5157208148326	
1001200000	-0.724904006315891	-15.4689237154859	-70.508810641951	46.8232886654648	-66.486090501267	27.1890915437538	-9.88453682115086	72.403609879537	
1001250000	-0.722475541196673	-15.5800105228358	-64.8161557240481	50.9193755314845	-72.1708035481046	35.5010313615475	-9.89936119056722	72.2562001900592	
1001300000	-0.723131286765517	-15.6968977110371	-62.2348733441118	41.7737563161674	-66.3011604489159	40.0607218632316	-9.88961059554025	72.1611298693754	
1001350000	-0.724514208550731	-15.863806011047	-65.6318521086111	40.9139814395301	-65.3660728147972	22.141771665257	-9.89517357306374	72.0689911500376	
1001400000	-0.722930798118886	-15.9391104792323	-64.2236313081497	42.0649962140119	-69.0243057549648	46.1578047043361	-9.89930931758115	71.8661639628201	
1001450000	-0.726592637514589	-16.1196239055558	-65.8150447059287	52.8464007019679	-66.9553320820442	52.7890718669574	-9.88867218565751	71.7419354316923	
1001500000	-0.726303355700996	-16.2443284320513	-67.1594906474642	34.0797499151622	-66.171366228264	23.2708808582662	-9.89011819752079	71.5871400640143	
1001550000	-0.723904938003009	-16.3749408748241	-68.9078760300834	64.6071974954766	-68.8363147155958	16.354318557583	-9.88656017995575	71.5786227541581	
1001600000	-0.722269481646629	-16.4791029897652	-63.7843587434512	24.1881019674421	-67.3618206927561	-3.14962782402122	-9.89210441283887	71.3910004811949	
1001650000	-0.722355388655116	-16.6386040427671	-65.4366199446363	32.4716874519052	-64.6311894592375	15.1236527770467	-9.873899050997	71.2510336915828	
1001700000	-0.719905022834699	-16.7875555735741	-66.0081533958436	36.9074113203137	-69.924172140403	24.5532401939367	-9.88886275764286	71.0799758350358	
1001750000	-0.727555031704206	-16.9239798575338	-64.9302443810192	44.4916117913299	-65.6866331418672	25.3950231460482	-9.87885255755833	70.9497616178825	
1001800000	-0.722620759528344	-17.0681959005861	-66.6726783564928	45.7191867611648	-64.7048459191839	26.0802917814117	-9.87789481095509	70.8278331679155	
1001850000	-0.722885203372517	-17.1809987660738	-70.6079843798165	53.5312194769836	-65.264418365432	46.5524298240346	-9.88672778367602	70.609357370532	
1001900000	-0.721906500985743	-17.3067285337966	-70.3310377184319	55.9004373831419	-68.4531231797461	54.2852276795811	-9.88244251628686	70.5810552092211	
1001950000	-0.721221756001706	-17.5002954986215	-65.7183289349025	53.9114151260884	-66.9251779718875	35.3265051140989	-9.87607268157698	70.3975167771722	
1002000000	-0.723557092928785	-17.6014331963571	-65.3293850826954	36.8231379763225	-65.8861585357469	29.9117151143832	-9.88555553406208	70.2490287473607	
1002050000	-0.722204980642732	-17.7448858593069	-69.3239995385867	80.7717074618456	-65.1701105788468	51.9997160234513	-9.86896745561074	70.1259174296301	
1002100000	-0.718480567640926	-17.8413702414413	-73.145741058437	70.7336882319598	-65.6447194397341	11.1264826141465	-9.88113528075163	70.0086426403049	
1002150000	-0.719251712405311	-18.0192852989491	-65.9340530605964	15.4640932809598	-66.8617036507178	38.7996614810082	-9.87326610107641	69.9140170761537	
1002200000	-0.718417136755724	-18.1381494250296	-69.2623917683706	34.9753327314376	-67.8266995458547	10.4486539004864	-9.88150914468715	69.7473113829595	
1002250000	-0.723988073334997	-18.2622116482528	-65.0129867731679	9.05456492324841	-63.7801468985878	16.6335253800435	-9.86525705645223	69.5769832200972	
1002300000	-0.719923051871141	-18.4253198979724	-72.6315020980031	14.8185108530279	-64.2531209178992	25.5638600284532	-9.86960165173169	69.4460849322772	
1002350000	-0.721782395889638	-18.5333131672748	-63.5888673883281	37.838269129128	-68.2855975421627	1.13668238071762	-9.87069277097174	69.3131388041514	
1002400000	-0.72358701601035	-18.6925182625166	-64.2391273579564	33.0632532078313	-67.933856604658	50.4234880253602	-9.86992941206119	69.2205198724057	
1002450000	-0.726061793108495	-18.8128317942852	-69.4867960279043	27.4794944746878	-66.2144955234016	23.9749348743282	-9.87150042816769	69.0770384243602	
1002500000	-0.723624332083291	-18.9388932596752	-67.8053198160308	14.6623123046021	-65.6258502533341	29.1665943717563	-9.86505778787968	68.9281877823651	
1002550000	-0.719873259108756	-19.1149022995153	-63.0515154826705	18.9875333934558	-69.3778325467102	49.4097128611859	-9.86047003521534	68.8221411814259	
1002600000	-0.724832972014647	-19.2138097402717	-70.3247909996146	43.0075249175851	-64.4701639039528	18.8290640471261	-9.8577967022086	68.6035702980193	
1002650000	-0.720389917112038	-19.3589552047665	-64.7063539391581	15.8526792493182	-64.9949564414336	35.3210944089803	-9.86383918603681	68.5161229179186	
1002700000	-0.721004691383326	-19.5048003573866	-67.659116100479	7.32699741971594	-66.0563222448272	32.2821994298798	-9.85940252703839	68.4187807550553	
1002750000	-0.72259602351461	-19.647767763973	-64.1553645732577	25.0659420231951	-64.0682975009183	51.3683510315541	-9.86041617623598	68.3510541770968	
1002800000	-0.725305431333099	-19.7735917588206	-63.747148898231	32.6830003990788	-64.1385898540098	19.8752880509549	-9.86516387958514	68.1739922544966	
1002850000	-0.721279932149841	-19.8843672026726	-72.212066959892	34.9760055142932	-66.6886407316867	39.3572028215826	-9.85980987718466	68.0228577314735	
1002900000	-0.722638014984806	-20.0446139292763	-66.423790343707	65.2995196547235	-62.4519344812116	25.118813100664	-9.86352726171707	67.9182114257195	
1002950000	-0.71746901729193	-20.1879575135914	-67.4875578777956	35.9924267156204	-68.2069596046764	-2.48255427544928	-9.8520653277238	67.7568868733601	
1003000000	-0.719358411289175	-20.3169132699418	-65.0405487626807	21.4809701034563	-68.3649687190084	48.8841082449601	-9.85731530894455	67.6430073125072	
1003050000	-0.72791050958121	-20.4792184665124	-61.185899163573	35.7158045679882	-64.3898369951388	9.0177490268572	-9.85911794274795	67.5152738691108	
1003100000	-0.722888620401221	-20.5892724075143	-64.9471617125129	38.8361211938788	-65.0242432641865	27.4149024115849	-9.85728316582378	67.3778186276578	
1003150000	-0.718960821784995	-20.704936429882	-69.9053141798703	35.5106742364018	-66.0509590130973	11.6292091993191	-9.8584411917615	67.2601106825758	
1003200000	-0.720487239823151	-20.8510241363882	-66.8105781466537	54.5015292522939	-64.3412250901164	16.403016221046	-9.85062271637145	67.1458761020292	
1003250000	-0.724515616969553	-20.9903543371627	-67.3777328708658	39.7659265204294	-68.2196213141488	29.9050795926192	-9.85375195915431	67.0173412326458	
1003300000	-0.725299731169516	-21.1032305844384	-67.5677787172462	31.633494212948	-65.3197565888401	29.2669930119814	-9.85714320434062	66.8806108072867	
1003350000	-0.719840010176637	-21.2573753170398	-66.1519428487772	36.2867342520827	-66.6684192180802	33.7943608780395	-9.84379591789804	66.7188909180516	
1003400000	-0.72026297317962	-21.4139479307315	-70.4091181492622	34.9704112677752	-67.6398740086814	21.926646779862	-9.85850015402857	66.5309649872719	
1003450000	-0.722326428918247	-21.5425903294562	-67.2915998758525	9.94682828794772	-66.582293478623	38.4297817728739	-9.83861522535365	66.4650309477551	
1003500000	-0.721094296709216	-21.6808653188353	-68.8902236219131	29.4068294000361	-64.5015951424349	26.3373963832813	-9.84779123965043	66.3460152907931	
1003550000	-0.722300892152134	-21.8129629651329	-65.4993273646915	-3.76632828306552	-67.0621523601616	4.58019514895979	-9.84538805191112	66.2710683173991	
1003600000	-0.721994063233683	-21.9465105928592	-65.2508257064421	69.8539271381976	-61.9147835136648	12.1762227693393	-9.83711618666485	66.0674202135066	
1003650000	-0.721725543813002	-22.0931215410091	-65.6482327486949	51.9394258135538	-65.2297562436436	27.7685586748901	-9.84039623649335	65.9338784107713	
1003700000	-0.72298460242021	-22.2145951726949	-65.1381953119346	27.1517709676722	-66.1099673558454	12.8889306802737	-9.84512115070311	65.8759381969802	
1003750000	-0.722437562128315	-22.3491247528536	-63.6181378787798	26.4499030188335	-66.0233065817317	27.2349180789869	-9.83774123893442	65.7473758221453	
1003800000	-0.720549142569934	-22.4812810914311	-61.8833267224154	35.2810516808504	-68.7000066005738	1.29634928224797	-9.83275193976103	65.6316394826367	
1003850000	-0.720835202191819	-22.6205089774266	-64.8017788964219	3.05818589068304	-67.9737890897914	-16.3483008402625	-9.83590876959087	65.541026492744	
1003900000	-0.721534365067823	-22.757599276207	-65.408082455327	17.2246027124546	-64.2115451201014	9.46414674274344	-9.82751691894289	65.3508105924813	
1003950000	-0.724613270340823	-22.9143985258286	-63.367661417142	44.2406459327601	-64.0859462334884	21.7941895322102	-9.8359819405938	65.1938243910113	
1004000000	-0.72428898600599	-23.0292225847611	-63.6009338010361	18.6182327988589	-62.61932634988	30.139853868981	-9.82868783607256	65.0969144596796	
1004050000	-0.719641847992799	-23.1651770843906	-66.510450673405	49.341822056249	-70.8025192929634	5.42184721759286	-9.83357229189625	64.9622807540271	
1004100000	-0.71601102578377	-23.2905950283773	-65.8462900726989	30.3755350225415	-69.1458747892453	38.1070324067483	-9.81983154165144	64.8259541390793	
1004150000	-0.721858832139549	-23.4156144028178	-64.4614328478998	22.2815928404115	-63.7533700273799	30.7743537708063	-9.82478191738307	64.6550697690258	
1004200000	-0.725036758798304	-23.5958448585064	-68.2065437541763	17.9458579980614	-63.1595041487832	22.2219050153467	-9.81805172233966	64.5541985766062	
1004250000	-0.721045351241931	-23.7015995277256	-67.004935282668	22.6628547511791	-64.1149963305739	17.2085744205861	-9.82845128546191	64.4351617289413	
1004300000	-0.726558461189875	-23.835948722738	-65.9513671327441	16.5734762486278	-63.1625307307145	37.2615138932886	-9.81406832190201	64.3337365728825	
1004350000	-0.718954633393746	-23.971758911256	-66.1311797210015	39.1195314881059	-68.1976930304052	20.8354013088955	-9.80450190915832	64.1547987348383	
1004400000	-0.721821132704108	-24.13239175236	-62.85991374432	17.3499572167392	-63.9910566289532	19.5243755440853	-9.81490628718556	64.1243792440244	
1004450000	-0.722108079678267	-24.2424077979387	-63.1471566910232	38.5108247716716	-68.1573697621937	12.7759634001563	-9.81602254155779	64.038193538211	
1004500000	-0.724169961640791	-24.393793371201	-61.7957056007348	35.8465549670756	-68.8105698078612	-26.8643479420367	-9.82338946150976	63.7605585322424	
1004550000	-0.71954575686378	-24.4989494329525	-65.3998587230063	9.62945463363003	-69.3734245254008	54.8460495623697	-9.80278584215636	63.6660101659111	
1004600000	-0.720693083549475	-24.6377596540204	-64.4122895050553	43.4786706486529	-63.9416250310141	32.3639698590368	-9.79367462172227	63.588303991042	
1004650000	-0.719203299521314	-24.7751345447966	-69.6737075970584	23.8840438213476	-74.1383136873453	32.9100130328148	-9.80294599140631	63.3881509849534	
1004700000	-0.724650789413177	-24.9423207175844	-64.9736517960391	43.5054406829278	-67.7274300716132	9.9003842297006	-9.8005128947713	63.2812494872348	
1004750000	-0.718778644379125	-25.079770152452	-67.0383489267634	28.2078566133034	-65.6880518562991	17.5147523495269	-9.79682595540784	63.1364571739108	
1004800000	-0.721280250628502	-25.2026283527911	-65.2203064678678	28.3650293451032	-62.9727673587581	19.0497675722129	-9.79840853522893	63.0877479948673	
1004850000	-0.720621596257568	-25.3060863948569	-66.9735622326361	12.1844154429318	-67.0313642881282	14.162290579496	-9.79029233358597	62.9310803853052	
1004900000	-0.717816999233341	-25.4703770361228	-69.979086060312	12.2561040957805	-67.8877377931588	41.2319312691002	-9.8006610444516	62.837678005278	
1004950000	-0.723543232859809	-25.6388896337217	-73.6433479759962	54.7339779143464	-65.2451906822103	15.8182907342519	-9.78678643168638	62.6858640990471	
1005000000	-0.716729366212511	-25.7410673086148	-73.5722524717995	51.5870134942623	-62.1212951614728	15.5087098113255	-9.78802241332079	62.5677576488923	
1005050000	-0.718772280778982	-25.8886631235889	-64.1816772088526	35.4384343836566	-70.0137682360249	-7.61159306067492	-9.77894851204419	62.4510521419628	
1005100000	-0.721771078114718	-26.01700531714	-69.0193718967283	32.3069724518259	-67.7410044785423	29.4904443408676	-9.78306587568476	62.2904948837702	
1005150000	-0.72118026899449	-26.1662934138882	-64.6124497179048	1.33893414860258	-69.4548777289026	34.71913247257	-9.77716841021721	62.0985436667327	
1005200000	-0.716346660516442	-26.2807899538032	-65.6977563327965	10.7251202458946	-65.0057220113432	24.6603553619984	-9.77160689388403	62.0625959227943	
1005250000	-0.724129838308486	-26.4238341138858	-62.2144032675754	13.960009530093	-65.7066223378934	14.3142723889593	-9.77910248455579	61.9187369681781	
1005300000	-0.722354685959371	-26.5518803363167	-63.5598370113261	24.750687927293	-65.7471096956385	30.2323843338856	-9.77588125565485	61.817903106149	
1005350000	-0.720988273183486	-26.7173186610925	-66.7742593306634	23.083970986661	-64.7522832977006	11.8792895873639	-9.76733912435938	61.6369698910494	
1005400000	-0.718604508459392	-26.7961391234993	-66.3056857796174	44.2171605792542	-62.0777109315699	22.5243774584793	-9.75643125038871	61.5165566617133	
1005450000	-0.723105696728673	-26.9553802547302	-65.8594029382646	24.5016138632356	-67.1598149042067	27.4577817131921	-9.76022430515005	61.354218881073	
1005500000	-0.719579970944307	-27.0790577758545	-61.8747615200821	19.3920864423083	-66.3356350412546	32.3509711613722	-9.77111054071727	61.2432785642292	
1005550000	-0.716443295954225	-27.2395615811752	-63.7985060265541	26.082485353526	-64.6705472479991	24.5398996340437	-9.75293021101578	61.0788285359768	
1005600000	-0.719497555783908	-27.3752221002604	-65.9290170430714	39.9606624462083	-64.9696337743229	28.3938472669234	-9.75897721989352	60.9553842279394	
1005650000	-0.721042176470074	-27.5037707646075	-64.5124786490089	29.1459446508072	-65.7268329235093	28.9334730701968	-9.74537335037759	60.7975864798985	
1005700000	-0.717713057908331	-27.6338831346734	-69.0662467558268	54.0777091443343	-65.7258588443227	34.6729029965123	-9.75613469969807	60.7453576712899	
1005750000	-0.717613481385387	-27.8100422883661	-66.5538642375925	4.0872410127151	-65.9069456852954	32.917495670063	-9.74608721801617	60.663208816829	
1005800000	-0.721611705260769	-27.9248483880523	-63.1624054569637	8.05719918419596	-63.3671388438177	30.2628948711741	-9.74290201163144	60.4546438769946	
1005850000	-0.717979718874086	-28.0358928340748	-65.2539779150807	37.3472862098616	-63.4724882737884	18.0758145372539	-9.74528020611552	60.3937620909887	
1005900000	-0.717844065336675	-28.189018809597	-65.5072954921739	10.0961390178049	-64.6224658165608	7.59556157194582	-9.73826627871396	60.1496644989271	
1005950000	-0.723578602901816	-28.304039615199	-62.6150339580629	24.7434011379297	-64.9355275731716	3.54607771818867	-9.73117291559162	60.0168951209721	
1006000000	-0.721687201866879	-28.464091431601	-60.4700552948985	34.6756341708946	-62.8796329751379	18.3732178855492	-9.73433006061725	59.8583931002604	
1006050000	-0.72117756749584	-28.5941342537989	-65.1814094102397	45.5256745774767	-64.3055035743778	13.4784097868448	-9.73909212072976	59.7670188119902	
1006100000	-0.722073403795479	-28.7050478775609	-63.0473148894193	36.2038668509731	-61.819934516822	21.8050425102115	-9.72982246044773	59.6702187380163	
1006150000	-0.721505604427727	-28.8608277237727	-66.9918930971774	43.8351861844643	-62.7987077853517	24.4165931169776	-9.73561437691604	59.560491525385	
1006200000	-0.721882642832802	-29.0251845696221	-63.2692013806214	4.46749556843352	-63.6725371566275	21.572089793344	-9.72065861771824	59.4302618061297	
1006250000	-0.717005511189324	-29.0983592526776	-63.3673988543754	23.9129987220894	-63.9815496852126	13.8711043783505	-9.71877994171926	59.2615514484452	
