!Keysight Technologies N9923A: A.08.15
!Date: Friday, 16 February 2024 15:55:18
!Timezone: (GMT-05:00) Eastern Time (US & Canada)
!Model: N9923A
!Serial: MY52412730
!GPS Latitude: 
!GPS Longitude: 
!GPS TimeStamp: 0001-01-01 00:00:00Z
!GPS Seconds Since Last Read: 0
!CHECKSUM:0087753898
!Correction: S11(ON Q?)S21(ON Q?)S12(ON Q?)S22(ON Q?)
!S2P File: Measurements:S11,S21,S12,S22:
# Hz S DB R 50
1000000000	-9.8594995283525	-159.982359786625	-42.9777163129208	-47.2841292302494	-42.883467715304	-48.0063852077113	-7.58425550595571	128.815640686114	
1000250000	-9.85452466307977	-160.619428746784	-42.9287862288701	-48.3630465960013	-42.8977982043162	-48.9220903834432	-7.57501025005737	128.155674323401	
1000500000	-9.85908618263697	-161.251016406938	-42.9930614311037	-49.1292557388317	-42.9016497580291	-49.6036926772723	-7.57560664644078	127.441938168481	
1000750000	-9.84612282141952	-161.83566250657	-42.9762321499951	-49.5970324775965	-42.9078157455058	-50.0724957376616	-7.57094593104515	126.809565692211	
1001000000	-9.83949400623051	-162.472545951713	-42.9272400926938	-50.0593382957938	-42.8606053949145	-51.2995093171787	-7.56766200071757	126.156737990673	
1001250000	-9.8418648239967	-163.081131555455	-42.9141094224523	-51.300351549747	-42.8758743375631	-51.9060492783325	-7.56475334812055	125.509877449679	
1001500000	-9.83819848857442	-163.759244590424	-42.9633108219914	-51.9646661843686	-42.8792875449443	-52.7877927940477	-7.55170676261845	124.859157386813	
1001750000	-9.83322265732789	-164.307149165139	-42.98873609742	-52.6772234607854	-42.8682161922293	-53.6912306116603	-7.55326276683167	124.20218544897	
1002000000	-9.83102120163984	-164.969207976095	-42.9488090960356	-53.3850638746769	-42.8954316243838	-54.3217001937955	-7.55401006460491	123.53558178374	
1002250000	-9.82136722926893	-165.563956689878	-42.940221066029	-54.1579802793437	-42.8189365646926	-55.1671101088523	-7.54557566191771	122.855827214359	
1002500000	-9.82553515068905	-166.199960736712	-42.9139703883791	-54.9978735418741	-42.8445497644553	-55.9692501575595	-7.54261136468682	122.267272848976	
1002750000	-9.82256993288402	-166.790933604249	-42.8865572567393	-55.9918119028275	-42.8209296962151	-56.7283289316677	-7.53757918211416	121.607590563041	
1003000000	-9.81357465071833	-167.437914122022	-42.907671073478	-56.5144341348346	-42.7789831412509	-57.6725853674965	-7.53178380346185	120.912002829416	
1003250000	-9.80924552068184	-168.06413656758	-42.8519167763535	-57.2689579038296	-42.8472515473053	-58.3660864121899	-7.52881730970262	120.242011325551	
1003500000	-9.81189518898545	-168.675020293507	-42.8493360193359	-58.6750837566522	-42.7742380375363	-58.6921427896216	-7.52607131013085	119.600275013631	
1003750000	-9.80938689276092	-169.318571351527	-42.8532669272657	-59.1728565827383	-42.8059811371999	-59.8535864695862	-7.51974917339366	118.960307485345	
1004000000	-9.80096473052739	-169.913031626497	-42.8318807555014	-60.0101487988807	-42.7870987911106	-60.7224821786025	-7.52189217953505	118.317296507253	
1004250000	-9.79842851157503	-170.554976913666	-42.8734884752682	-60.5454471111998	-42.7942554054389	-61.309200797757	-7.50784552732058	117.65445144873	
1004500000	-9.80193857872244	-171.16598992393	-42.8441135325535	-61.6624630517811	-42.7550787897866	-62.4107686332289	-7.50583928208878	117.02781309692	
1004750000	-9.78994995452883	-171.833971341402	-42.7854708026322	-61.8526854106757	-42.7617578137208	-63.3171715412299	-7.50143371224098	116.349618323775	
1005000000	-9.78958895592264	-172.413999291095	-42.8800772621621	-63.1187611645989	-42.7794985597303	-64.2260095300143	-7.50032004170265	115.670116374512	
1005250000	-9.78059399836745	-173.046030885547	-42.8300441671451	-63.8156543167374	-42.7437818442473	-64.87640780686	-7.49473047169265	115.012087581358	
1005500000	-9.77826695113227	-173.662366159221	-42.8104995106003	-64.9935552869875	-42.763370423281	-66.0141314255088	-7.48806606863909	114.347083435509	
1005750000	-9.7737591800723	-174.254968466797	-42.8378152467314	-65.9080238004294	-42.8114686505471	-66.6833832531686	-7.49309520707475	113.737313588416	
1006000000	-9.77300939362684	-174.898923488704	-42.803308320002	-66.4244904421668	-42.7676998902911	-67.3550483244827	-7.48461034850723	113.119173086929	
1006250000	-9.76719130671685	-175.507821928365	-42.8355478082642	-67.3027759937047	-42.7704183287427	-67.9696955710005	-7.47744987539091	112.40695827536	
1006500000	-9.76082245745267	-176.1063534007	-42.7982206033387	-68.0110795898636	-42.7517739807571	-68.9498823085284	-7.47431482882239	111.765753117562	
1006750000	-9.75156213487421	-176.773446903013	-42.8414568025915	-68.9984197882609	-42.7959991846707	-69.938140637457	-7.46796971115859	111.132392703187	
1007000000	-9.74311129306841	-177.386378372796	-42.8202978058464	-69.9615221599796	-42.7899948109359	-70.8002594568756	-7.4669663981985	110.450716837258	
1007250000	-9.74959776782467	-177.993913698267	-42.7844637694938	-70.3862316172845	-42.7721711056911	-71.5411049339161	-7.4640348925128	109.837536520927	
1007500000	-9.75075159978608	-178.646652624761	-42.8275003115387	-71.6966697899771	-42.8170080784275	-72.3339997202012	-7.45917046007025	109.163821339552	
1007750000	-9.73951050982296	-179.246939629007	-42.774955598956	-72.1355284975305	-42.828812551521	-73.456327997211	-7.45431037028265	108.509271099854	
1008000000	-9.73667095863238	-179.912506854973	-42.7842427417234	-73.0493953886239	-42.8290931261706	-73.870149882167	-7.44594872019141	107.862135807095	
1008250000	-9.72943386475704	179.486695322369	-42.8157428093988	-73.8305778003427	-42.8028285508715	-74.8253342359357	-7.44058538162272	107.201179092552	
1008500000	-9.73340810314645	178.815025666355	-42.8140837191238	-74.6341321218191	-42.8173265263733	-75.4959183999095	-7.43971721607823	106.55305361406	
1008750000	-9.71973478667977	178.207957108046	-42.8225124623904	-75.7357339460686	-42.8368593834247	-76.3025231212662	-7.43504342783143	105.910644768487	
1009000000	-9.71733990458274	177.562717714788	-42.8403242405087	-76.6539980196949	-42.8307718465242	-77.4782807197605	-7.42845374820449	105.272668489961	
1009250000	-9.710270634737	176.93938240866	-42.8292488540661	-77.2941080029736	-42.8141098955154	-77.877122991222	-7.42091123470501	104.596287990311	
1009500000	-9.70415311747236	176.31621011808	-42.8341355659218	-78.4385653743291	-42.7988178531721	-78.7066492520129	-7.42626477830654	103.926244828388	
1009750000	-9.69401860133589	175.71583399287	-42.788979858087	-78.9292143247273	-42.8330358759798	-79.5577302767241	-7.40856192417145	103.292167004685	
1010000000	-9.69656853058825	175.109474762639	-42.8079538797331	-79.5970920812343	-42.8616192845622	-80.5247103524762	-7.4172142091554	102.638336727599	
1010250000	-9.6868603842167	174.421281837172	-42.8414362251949	-80.3013927907392	-42.8244045862357	-81.1262183559326	-7.40736029255016	101.948453295143	
1010500000	-9.68704839051706	173.790992106892	-42.7663046804228	-81.450740877709	-42.8130173103279	-81.8804589399703	-7.4029673081706	101.340149746274	
1010750000	-9.68649588633617	173.147805748693	-42.8151901332034	-82.3015553784631	-42.8203276360105	-82.7315172014927	-7.39457291852834	100.696142345342	
1011000000	-9.68342655913631	172.578443171167	-42.7785767833222	-83.1887375825243	-42.855872743614	-83.4296178903147	-7.39336704592884	100.041063572639	
1011250000	-9.67367885452243	171.908537531364	-42.8024144143795	-83.7533580315976	-42.8733870175897	-84.2920546248961	-7.39111750263237	99.3976392084506	
1011500000	-9.67219347631364	171.312510827998	-42.7849500128015	-84.6269048194146	-42.8189220886053	-84.7585213897491	-7.3881829371195	98.7250310489643	
1011750000	-9.66076083759178	170.653277050464	-42.7910235627318	-85.4320771409262	-42.8779432552842	-86.0201296938303	-7.38233939290942	98.0734990897479	
1012000000	-9.66366866986823	170.060936356041	-42.779302056235	-86.2042262912984	-42.8139680142123	-87.0087673105611	-7.37610835580069	97.4623522828196	
1012250000	-9.653299357513	169.406095322788	-42.7975736778903	-87.3826142980551	-42.8723116781811	-87.5481729705282	-7.36736546252535	96.8103361765594	
1012500000	-9.64726202396762	168.767511897968	-42.7784648269022	-88.0488992641507	-42.8229256471404	-88.3342356787849	-7.36431111894038	96.1372839914457	
1012750000	-9.64457075922567	168.164574829278	-42.8052528480424	-89.0765453011864	-42.8260069783864	-89.1868708303998	-7.36156645284074	95.4851666823128	
1013000000	-9.63695449643598	167.534919262186	-42.8280505319607	-89.7502754216052	-42.8288234504976	-90.2350218610544	-7.34906821197565	94.8406976187348	
1013250000	-9.63202153223395	166.884373528385	-42.8238832055824	-90.7064301347185	-42.8421075475013	-90.8708161836552	-7.35298882538797	94.1607153619273	
1013500000	-9.62538133794842	166.294904926676	-42.8390628131054	-91.8298324330683	-42.8373933071722	-92.0828824614068	-7.35183872761515	93.5454445474241	
1013750000	-9.62145215602906	165.704048289068	-42.8523113873818	-92.6261865970509	-42.8091046189013	-92.7472417161895	-7.34833209073518	92.8617907846658	
1014000000	-9.61776391110189	165.013451713088	-42.8751558015614	-93.1333959951894	-42.8634953179432	-93.4839706420716	-7.33729294915014	92.2597876965052	
1014250000	-9.61131195067244	164.400164916064	-42.8123048260335	-94.2659665178668	-42.8334124556618	-94.1149667318389	-7.33589854003873	91.5822534890655	
1014500000	-9.60078817404565	163.769208756779	-42.802503437674	-94.9390471094427	-42.8471268484311	-95.2672293249488	-7.31962096851115	90.9405848784915	
1014750000	-9.58660834236786	163.178271603437	-42.858998548992	-95.8172714719036	-42.8671880801742	-95.7255059711669	-7.32178490314053	90.3216720101569	
1015000000	-9.59359783736761	162.529413780729	-42.8810333002926	-96.5667455320866	-42.8967393543858	-96.6531058292949	-7.32071695023442	89.62923716088	
1015250000	-9.59011725147422	161.885858197852	-42.8701597069337	-97.3638611114071	-42.9306454343681	-97.8084644568496	-7.31122998146405	88.9869721284194	
1015500000	-9.57320306865558	161.258539569269	-42.8492229016267	-98.3079772406136	-42.8915715713662	-98.6090833202578	-7.30613980713562	88.3598475792261	
1015750000	-9.56780895792294	160.629757053834	-42.9076516261306	-98.7464773560531	-42.9319800665261	-99.2242099588058	-7.29986654106158	87.7075241976404	
1016000000	-9.5570363036152	160.005646671457	-42.8811904322062	-100.075652923319	-42.894755561883	-100.024517798096	-7.29771123065252	87.0402564332108	
1016250000	-9.55637723751304	159.355174262023	-42.8854849153945	-100.731905983416	-42.9503718928614	-101.021028924912	-7.29260623137299	86.439373701885	
1016500000	-9.54521420233083	158.714769255123	-42.9208283196996	-101.588069796965	-42.9068427442425	-101.798163798604	-7.28730361147969	85.7252529254311	
1016750000	-9.53722921306601	158.06786972041	-42.9698835778399	-102.389271745517	-42.9856371634531	-102.592459123894	-7.27900298130037	85.1007220195208	
1017000000	-9.53002758978672	157.430189624447	-42.9605832453605	-103.018561522412	-42.9826313884636	-103.213255826645	-7.27448101865473	84.4695965284833	
1017250000	-9.52631086098255	156.763984049368	-42.9304457235347	-103.86603603177	-42.9807155287299	-104.204305949692	-7.27786225712405	83.7609315731466	
1017500000	-9.51547554737181	156.159146554246	-43.0032817228104	-105.107125443218	-42.9601654643582	-104.552101245262	-7.2688341355137	83.1580660023847	
1017750000	-9.50817013661081	155.535267621949	-42.9365931463762	-105.327619558503	-43.0511542436715	-105.743808231247	-7.25763499799642	82.5265557627125	
1018000000	-9.50528237197778	154.903524345217	-42.9998309849476	-106.31570254153	-43.044944862819	-106.953627085251	-7.26130366342187	81.8914420067615	
1018250000	-9.50705909449804	154.238828644562	-42.97919159884	-107.548021632016	-43.0437703445701	-107.304338784404	-7.25857904743693	81.2591403700367	
1018500000	-9.49356961821944	153.623913877079	-43.0501940305394	-107.734042859484	-43.0538220823828	-107.909126638525	-7.24903850091171	80.5718044917358	
1018750000	-9.48162867663479	153.006127616218	-42.983779079908	-108.773591997147	-43.0962265548611	-108.913001077762	-7.24826214066104	79.9617485466856	
1019000000	-9.47706247285065	152.336703720919	-43.0237599037084	-109.826115485831	-43.0788238258023	-109.615444675387	-7.23512534352339	79.2873777500162	
1019250000	-9.46737473371036	151.690201876331	-43.0497345474379	-110.474069651904	-43.0462560078416	-110.229905856347	-7.23414194560582	78.6494746115413	
1019500000	-9.4659046899209	151.069615798374	-43.0386291952663	-111.210102126001	-43.1551787003362	-111.095347493236	-7.23249669476148	78.0050532725055	
1019750000	-9.45548342117043	150.413806075919	-43.043077908449	-111.488489652833	-43.1220900093638	-112.080450460123	-7.22722357519253	77.3506114383379	
1020000000	-9.44817602073018	149.758179404304	-42.9816972409382	-112.409048186685	-43.1519458751128	-112.310215150171	-7.21827218904025	76.7087222804275	
1020250000	-9.43749230476978	149.130678132909	-43.0607812556462	-113.165144730608	-43.1517334628894	-113.363781431763	-7.21193333810002	76.0864960864813	
1020500000	-9.43623596862766	148.474286065829	-43.033444479609	-114.250758316448	-43.1159162064195	-113.962372788792	-7.20947531886801	75.4204880404732	
1020750000	-9.42299131500778	147.849810216848	-43.0102244020615	-114.958636766192	-43.1049712509989	-115.235377733934	-7.20310844215791	74.7682446380958	
1021000000	-9.41957646218244	147.164956054553	-43.0735378650368	-114.979488122325	-43.1843198186011	-115.70274196078	-7.20390906897435	74.1298539802949	
1021250000	-9.4132393474053	146.570395942216	-43.0776484629208	-116.281056534443	-43.158255088859	-116.341346559958	-7.19192044615024	73.4968677734397	
1021500000	-9.40399826967964	145.868651300731	-43.0719234113515	-117.3741979533	-43.1384722702536	-116.988874070939	-7.19266420209203	72.8133871965135	
1021750000	-9.40079667172819	145.267716866861	-43.1053598151051	-117.882564521998	-43.1424877215746	-118.014713352467	-7.18370950045978	72.2285238842154	
1022000000	-9.3932241246538	144.587059020772	-43.0338733000642	-118.693292023502	-43.1321075067055	-118.685235223752	-7.18438293567469	71.5584716917712	
1022250000	-9.38169977589119	143.922537349142	-43.1221532235077	-119.627926946193	-43.1675452317662	-119.499047625991	-7.17041659202357	70.9302003880201	
1022500000	-9.37764505465123	143.340148237448	-43.0794535024202	-120.541322984333	-43.1368639064673	-120.819832958259	-7.17189920051152	70.2797419517726	
1022750000	-9.37000240828569	142.655464646988	-43.1100974094357	-121.135854095657	-43.1674587826798	-121.050727948867	-7.16542528924935	69.5880942313696	
1023000000	-9.36625368841707	141.992647887508	-43.1000828761322	-122.097528401696	-43.193716350041	-121.756335854958	-7.1641716425501	68.9965258561668	
1023250000	-9.35493109071793	141.391482919336	-43.0736720463098	-122.454296107763	-43.2026485000439	-122.462437334325	-7.15739405802859	68.3541748510197	
1023500000	-9.34792447661879	140.724587513069	-43.070177263721	-123.707056386916	-43.1962717534789	-123.312199150487	-7.14757658326137	67.7236361902321	
1023750000	-9.33414829109499	140.085284731405	-43.0761802646812	-124.478647502243	-43.1774612653502	-124.233317360692	-7.1473582464422	67.0584490086377	
1024000000	-9.32406283780473	139.426086344151	-43.0677145773709	-125.065619378432	-43.2304890882961	-125.17558622103	-7.14087791112129	66.4381986725146	
1024250000	-9.32666819528478	138.794089749378	-43.1017773942609	-126.149217959829	-43.2161168590557	-125.668012232972	-7.13585031635574	65.7410018633834	
1024500000	-9.31273258673675	138.151945072512	-43.1426978253595	-126.817516879574	-43.147067433247	-126.582755375486	-7.13025107307825	65.114511043776	
1024750000	-9.3143046130116	137.475606597709	-43.1249476827444	-127.577799195079	-43.1831663250121	-127.467441182856	-7.11904589008494	64.5142115430899	
1025000000	-9.30028974824789	136.838513740825	-43.137048339616	-128.319500736101	-43.1331365316911	-128.286047446106	-7.11679449708858	63.8442755351837	
1025250000	-9.29507349208835	136.210658156817	-43.1301910885605	-129.085956378475	-43.2005325128546	-129.150754901607	-7.11600857576879	63.1532200000824	
1025500000	-9.29332334298751	135.585504614886	-43.1022824857647	-130.103953993297	-43.2182909524863	-129.969811152946	-7.11190378693028	62.5785196688883	
1025750000	-9.27370957596221	134.931979902234	-43.1164916368422	-131.041390171352	-43.2302253195737	-130.427218704679	-7.10575053273698	61.9271220697911	
1026000000	-9.27231250881226	134.248867490978	-43.0755709492992	-131.926020502399	-43.2131877927863	-131.447323139	-7.09177330777679	61.3215481096052	
1026250000	-9.26993358925523	133.653563753246	-43.1139396611752	-132.648067139501	-43.2255736152844	-132.299197692797	-7.09714508585748	60.6487102294097	
1026500000	-9.26571700663181	132.979791367728	-43.1278075526946	-133.462956802254	-43.2325259864598	-133.074839681211	-7.08772525947607	59.9922859870534	
1026750000	-9.25625934871358	132.335064289014	-43.1806286964075	-134.11378865949	-43.2243662199153	-134.035223300373	-7.0869261667908	59.3499943706352	
1027000000	-9.24553678365846	131.649032449599	-43.1641571523581	-135.030329380507	-43.2515347286993	-134.658579186111	-7.08214245942061	58.7363832992485	
1027250000	-9.23406253215385	131.051953314408	-43.1764635229256	-135.857440511985	-43.2213195089212	-135.62765181835	-7.06988433886879	58.1214404997947	
1027500000	-9.23232529507754	130.397093424753	-43.1885037447614	-136.838866511172	-43.2846265294222	-136.437497702966	-7.06996689463785	57.4568961758396	
1027750000	-9.20754410291377	129.761343724352	-43.1869715840813	-137.555541294095	-43.2415046281508	-136.663067644737	-7.06768070965372	56.8449744239455	
1028000000	-9.21853511533449	129.077332539143	-43.1854540007824	-138.30941381071	-43.2948303137051	-137.628571653664	-7.05597370850728	56.1869718517085	
1028250000	-9.20781525388515	128.426841305658	-43.2064369259377	-139.353258952959	-43.2921202000508	-138.66477327458	-7.05843355142158	55.5385394411804	
1028500000	-9.20327014847564	127.840820037465	-43.2572417887876	-140.03346359017	-43.2538774630078	-139.459782864152	-7.05234360707307	54.8985486396503	
1028750000	-9.19000280799972	127.16140563751	-43.2560083420648	-141.178295059151	-43.3545305991996	-140.222539154927	-7.04777649485545	54.3068660060293	
1029000000	-9.18479199126025	126.515760255856	-43.2141200808189	-141.565059115935	-43.3027708923983	-141.496446200035	-7.03760120594063	53.6260389881723	
1029250000	-9.17711627206201	125.883808998422	-43.2141409074891	-142.642943911241	-43.346063170716	-141.731436937584	-7.03038142394139	53.002867137484	
1029500000	-9.17187994888017	125.218256861429	-43.2563761648097	-143.113323603406	-43.3213181821038	-142.962090265678	-7.03434464836525	52.3554214750397	
1029750000	-9.1631044393077	124.554020289347	-43.2644552600544	-143.867314808526	-43.3799386033958	-143.784396749446	-7.01971695931663	51.7162963392462	
1030000000	-9.15086376175967	123.963516787283	-43.2652367702146	-144.864350355992	-43.3418569549001	-144.379219003441	-7.01608076877926	51.1315396320462	
1030250000	-9.15281259742474	123.323310052906	-43.3212694542379	-145.560261686668	-43.3869432167259	-145.077929432488	-7.01152266744911	50.4548779352939	
1030500000	-9.13411237233087	122.657305858066	-43.2878259441963	-146.325163019589	-43.3322743906618	-145.879011972415	-7.01006098080986	49.8055077175615	
1030750000	-9.13160488171769	121.984032965589	-43.3063062380295	-147.230288134876	-43.4313351815106	-146.682844917968	-7.003080895349	49.2272299661027	
1031000000	-9.11225266249376	121.355760687251	-43.3703660975094	-148.183389456177	-43.4147880910578	-147.834521048865	-6.99765770397378	48.5576439442832	
1031250000	-9.11147989694987	120.696563277478	-43.3201362758789	-148.854220321581	-43.3976001082883	-148.093030333595	-6.99214953163415	47.9085942832982	
