!Keysight Technologies N9923A: A.08.15
!Date: Friday, 16 February 2024 15:53:06
!Timezone: (GMT-05:00) Eastern Time (US & Canada)
!Model: N9923A
!Serial: MY52412730
!GPS Latitude: 
!GPS Longitude: 
!GPS TimeStamp: 0001-01-01 00:00:00Z
!GPS Seconds Since Last Read: 0
!CHECKSUM:1093907907
!Correction: S11(ON Q?)S21(ON Q?)S12(ON Q?)S22(ON Q?)
!S2P File: Measurements:S11,S21,S12,S22:
# Hz S DB R 50
1000000000	-10.10819002309	-160.500504141358	-42.4525122431741	-53.6499447955013	-42.4787909895212	-54.6545813030185	-7.61826243883371	128.769949603452	
1000250000	-10.1031606039561	-161.141245933872	-42.4859757892619	-54.3657858470454	-42.4522234598384	-55.3669805108505	-7.6086063802188	128.108249832597	
1000500000	-10.10874742484	-161.770258821892	-42.4170394942202	-55.0754996834922	-42.4366870551631	-56.0717549732767	-7.60864579522316	127.397470199588	
1000750000	-10.0952402058742	-162.341196359064	-42.4225064756201	-56.1651998497096	-42.4693705507643	-56.7939967018381	-7.60296600853251	126.769717756583	
1001000000	-10.0904176228392	-162.97842058653	-42.4578261267473	-56.9344508725132	-42.4469859169643	-57.7306361610372	-7.60039347238807	126.106312212669	
1001250000	-10.091582665363	-163.579717199453	-42.4188012866699	-57.5740647239153	-42.4658607154403	-58.1950862477146	-7.59711605138696	125.463142198097	
1001500000	-10.0877693193283	-164.252088144017	-42.4495982704949	-58.2915078716901	-42.4096832892802	-58.9151238938353	-7.58401864667896	124.816018902916	
1001750000	-10.0839567211832	-164.796723294647	-42.45003195063	-58.9523671035035	-42.4365766486564	-59.8363802288229	-7.58417552482967	124.145625726889	
1002000000	-10.083530926418	-165.459225335604	-42.4303123031136	-59.8353238978921	-42.4701503844967	-60.6389175010619	-7.58440025520696	123.482407148805	
1002250000	-10.0766391683103	-166.018561461077	-42.3577400067492	-60.605175669684	-42.4484079713679	-61.5310633652184	-7.57697207890339	122.805057128477	
1002500000	-10.0799673902766	-166.659236717661	-42.4327491233104	-61.6197386324632	-42.4442792498394	-62.1197441121686	-7.57471756163452	122.210151138333	
1002750000	-10.0751047171569	-167.251242895343	-42.4336669744109	-62.4214959054508	-42.4118251687426	-63.2624810663434	-7.56799103957632	121.550343225854	
1003000000	-10.0667748965129	-167.886498032535	-42.381721126596	-63.0234127592756	-42.4032899504901	-63.3615643234458	-7.56261408952483	120.857231710514	
1003250000	-10.0625595565336	-168.495292444117	-42.4144209159426	-63.7654256464437	-42.4535658223883	-64.5033538338494	-7.55924357789871	120.189441527609	
1003500000	-10.0634077430079	-169.101587412426	-42.4437386940927	-64.6868742129999	-42.3847322257271	-65.3201665341225	-7.55761204679174	119.552070415333	
1003750000	-10.0599617320029	-169.754661382169	-42.3817710124571	-65.3672345114955	-42.4012147314485	-66.0665759652682	-7.5505856524917	118.897336336639	
1004000000	-10.0526677188987	-170.33036904751	-42.4025084462427	-66.2636044809189	-42.4113595729375	-66.9495906165615	-7.55115980895153	118.258522723965	
1004250000	-10.0486528211345	-170.968173817941	-42.3622622155713	-66.791396848129	-42.3669846446576	-67.440104207745	-7.53660995862067	117.606443596743	
1004500000	-10.052584476392	-171.569713473324	-42.3762861550013	-67.6518190327426	-42.387010021043	-68.324693356148	-7.53649517431121	116.966782196436	
1004750000	-10.0406457086957	-172.216933085342	-42.3842433051368	-68.894561720077	-42.3541720582896	-69.251802893366	-7.53055887278431	116.300514441331	
1005000000	-10.0420964670417	-172.802317053829	-42.3488188965381	-69.3516787019831	-42.3786949245074	-70.3347630149786	-7.52915450300011	115.606531530936	
1005250000	-10.0341469129565	-173.41090143227	-42.3825337326112	-70.1572259887133	-42.3742097239005	-70.5064846995844	-7.52315498595922	114.956170020406	
1005500000	-10.0284205757803	-174.021016991578	-42.3453605250157	-71.0432497372284	-42.3611779401908	-71.6148215620591	-7.51637971887167	114.288171384073	
1005750000	-10.0252763389887	-174.611315571984	-42.3947028223399	-71.7067673252653	-42.3517818571389	-72.5134802820447	-7.5208332285618	113.67695118583	
1006000000	-10.0250996235828	-175.246238285141	-42.3033179541052	-72.6386302519758	-42.398258014952	-72.92221608962	-7.51084336616324	113.057470103346	
1006250000	-10.0186201977632	-175.837033540929	-42.3636304496423	-73.383806925544	-42.3337023248041	-74.1709254276051	-7.50447865750091	112.354118379735	
1006500000	-10.0089002622478	-176.431452039222	-42.4075779207541	-74.4543895208901	-42.3750092897294	-74.8195623540453	-7.50182767691589	111.70450028972	
1006750000	-10.0012948005047	-177.097111246151	-42.3736420464615	-75.0472783502905	-42.3740009722448	-75.7988405027753	-7.49340666044458	111.062788604734	
1007000000	-9.9930323244486	-177.704797156637	-42.3895635342979	-76.1418222043433	-42.3587028166501	-76.6480829844889	-7.49330767770906	110.395648843208	
1007250000	-9.99718698241058	-178.306572952086	-42.3328288774164	-76.8608254633612	-42.3639089024355	-77.3098095555107	-7.49028037045647	109.773121042698	
1007500000	-9.99782724174678	-178.952017797862	-42.356755242186	-77.2450098969401	-42.3455189525666	-78.1184561695901	-7.48429172721807	109.096969677711	
1007750000	-9.98532599676397	-179.524830362329	-42.3423422677192	-78.5006995792196	-42.3502774686174	-79.2581840252361	-7.47881214567281	108.440669693151	
1008000000	-9.98279525859582	179.799345509334	-42.3312778195507	-79.1316790491954	-42.341872448501	-79.7305512289678	-7.47151644313059	107.806281373444	
1008250000	-9.9748806553605	179.205487042465	-42.3921468054989	-79.9672514603281	-42.3384940452676	-80.476883001111	-7.46536652725688	107.137784132068	
1008500000	-9.97889170889115	178.529106250899	-42.3495161447793	-80.7698364647289	-42.349038507042	-81.3779434939183	-7.46434410137802	106.494190858847	
1008750000	-9.96856940030448	177.917916787805	-42.344631051729	-81.573211802195	-42.3106135349694	-82.0341776157117	-7.45973590189623	105.836388986233	
1009000000	-9.96501466817553	177.298037021598	-42.346134022382	-81.8288911077682	-42.3740622395576	-82.7032662946921	-7.45290841338958	105.213808064774	
1009250000	-9.95669210752167	176.663436236989	-42.3447032194252	-82.8787156015519	-42.3078989586259	-83.4736556090488	-7.44479867335171	104.534748644886	
1009500000	-9.9522977985706	176.034533131242	-42.365046568358	-83.7915189824538	-42.3432246313878	-84.6219579096611	-7.44755488783854	103.872820221359	
1009750000	-9.9409073600541	175.450282899892	-42.3035720888886	-84.5027318086933	-42.3072414119784	-85.5168294228032	-7.43130099984021	103.233583669927	
1010000000	-9.94276229588734	174.852905017937	-42.3379221548792	-85.5599107648403	-42.3675285359727	-86.3559878495536	-7.43927148155268	102.578297322669	
1010250000	-9.9302349741885	174.174751000993	-42.3039914251769	-86.4995980581483	-42.3722582617674	-86.9296834185732	-7.42886288379307	101.893277758145	
1010500000	-9.93008452679926	173.539480431103	-42.28312889317	-87.1743906988609	-42.3205356702027	-87.84130968612	-7.42396533588327	101.273317434963	
1010750000	-9.92951963237382	172.899690720496	-42.2174712730682	-88.2142650682619	-42.3226165203771	-88.7220143552443	-7.41649161251793	100.628544978044	
1011000000	-9.92478464160289	172.332347983866	-42.3106038094675	-89.1276222295382	-42.3306031871688	-89.3611144737665	-7.41429020183913	99.9762943684932	
1011250000	-9.91581664856035	171.667458893225	-42.2880513406501	-89.7956871634828	-42.3293179624594	-90.2961599835446	-7.41156406651737	99.3372395193453	
1011500000	-9.91285830652195	171.081224842328	-42.2372230022295	-90.7850226283894	-42.3418533194276	-91.0185470728272	-7.40941331206475	98.6612452123516	
1011750000	-9.90362069327865	170.422497196276	-42.2527027148429	-91.3759459896708	-42.3051126540995	-92.225498556754	-7.40271057810669	98.0050148664882	
1012000000	-9.90754722335094	169.821875439562	-42.2562650487384	-92.3055450832234	-42.3298610347831	-92.8328373532103	-7.39393723737934	97.4046729761252	
1012250000	-9.89763995811717	169.174488187797	-42.2381071584384	-93.2405307821333	-42.3249742122852	-93.5524207631886	-7.38706424817811	96.7469148575713	
1012500000	-9.89413105439169	168.534930871964	-42.2418889985999	-94.2095348817079	-42.3586223228257	-94.6669506819485	-7.3831200902484	96.0853943004941	
1012750000	-9.89206210848731	167.9197182959	-42.2240775049356	-95.0754629819887	-42.3069517004747	-95.2829044047472	-7.38003903456043	95.4345319364989	
1013000000	-9.88642828257044	167.302932384111	-42.2480961513855	-95.6903110299514	-42.3169618000359	-96.3447601122501	-7.36752671172871	94.7849260103188	
1013250000	-9.88103350122898	166.682615714457	-42.2529297984711	-96.5973336159319	-42.3449473434436	-97.2796926811901	-7.37091776928578	94.1071209588905	
1013500000	-9.87409302719034	166.085092826684	-42.2641782353195	-97.8559047097749	-42.3581334708937	-98.0434929425958	-7.37015019893247	93.4878781991956	
1013750000	-9.86894690983813	165.493041695855	-42.2698706497703	-98.1383453452041	-42.3562185586603	-98.8218596752251	-7.3662736314916	92.8083639856018	
1014000000	-9.86515205103644	164.819752857141	-42.3318322043645	-99.4257980719052	-42.3693926540301	-99.7419214765788	-7.35482427534675	92.1912969203458	
1014250000	-9.85819065738735	164.203248802395	-42.2783037392918	-100.002586596034	-42.3345632818372	-100.461306056035	-7.35384717230299	91.5246631922385	
1014500000	-9.84544793704544	163.5851134275	-42.2887981023943	-101.430287005031	-42.4066014877103	-101.291058432892	-7.33660996535657	90.8795170891833	
1014750000	-9.83142373923393	162.995218728811	-42.2822189117181	-102.003268249296	-42.4059715391529	-102.31847624456	-7.33951634158934	90.2538972298256	
1015000000	-9.83589597415058	162.368838224826	-42.3525864046684	-102.83198616669	-42.397159196411	-102.947174286211	-7.33787390156065	89.57581003811	
1015250000	-9.83367121951607	161.714303248356	-42.3201255268943	-103.670035649649	-42.3729988545159	-104.093193052727	-7.32792330912894	88.9212581014118	
1015500000	-9.81691777252809	161.093232703419	-42.3300734377243	-104.5434506922	-42.3721841139669	-104.524859919769	-7.3233247904979	88.29382657931	
1015750000	-9.81303636381024	160.470942282449	-42.3395078695074	-105.087940783797	-42.4232758712381	-105.289068312761	-7.31540468360861	87.6477614614798	
1016000000	-9.80386329623858	159.845293147837	-42.3226393231552	-106.017554600834	-42.3949590759011	-106.13423021884	-7.31206306178988	86.9815651594401	
1016250000	-9.80376928598127	159.206451252957	-42.3257349218593	-107.000180435725	-42.4182848846921	-107.014475379748	-7.30723159601994	86.3760997367723	
1016500000	-9.79129263687557	158.560104978879	-42.3686013301034	-107.730986475133	-42.4510721190366	-107.996233830831	-7.3024458410503	85.6643703686483	
1016750000	-9.78605666262008	157.931088388127	-42.3873316632689	-108.28742559178	-42.4429952673426	-108.591020092665	-7.29465587660648	85.0353462931261	
1017000000	-9.77694139620671	157.298648171143	-42.3585105535254	-109.422155937955	-42.474355841372	-109.567993778521	-7.28878786882977	84.414665850503	
1017250000	-9.77552139463682	156.640778979254	-42.4046803799639	-110.299088583501	-42.4636919557114	-110.293146902322	-7.2905869884423	83.7109184265961	
1017500000	-9.76318104182909	156.040578018968	-42.4173398580409	-111.437974651587	-42.4839866555438	-111.080683445758	-7.28303834125823	83.1053913746723	
1017750000	-9.75487602847074	155.424477070037	-42.403342444848	-111.874873979207	-42.4888735416792	-111.870133635242	-7.27099048321954	82.470786460847	
1018000000	-9.75124848424749	154.797549381024	-42.389020292898	-112.573147836851	-42.4935667488989	-112.769024699881	-7.27594115239713	81.8395471200426	
1018250000	-9.75199012097683	154.136326997371	-42.452681589179	-113.536155593713	-42.4946787114806	-113.478532119159	-7.27239117862242	81.1993230829802	
1018500000	-9.73560805958457	153.540983476965	-42.4794167712564	-114.164001278332	-42.5303978258482	-114.291642177625	-7.26104264950951	80.5229506537611	
1018750000	-9.72531070738106	152.918293924649	-42.5072703119915	-115.047285308144	-42.5458685623284	-115.254452514173	-7.26117586250534	79.9085175272529	
1019000000	-9.71853448020118	152.261107347004	-42.4621494806033	-115.679913365645	-42.5643895205941	-115.904746172672	-7.24834065984911	79.2307967134861	
1019250000	-9.71172336564167	151.614709221413	-42.5232496515252	-116.524603016674	-42.5940082780182	-116.727906265673	-7.24624285946912	78.6091062837556	
1019500000	-9.70883209399613	151.012673388789	-42.482888300018	-117.442960209165	-42.5571682235648	-117.432509661297	-7.24462238683066	77.9612886193535	
1019750000	-9.69945990489562	150.358860855562	-42.4683529110897	-118.104060140587	-42.6308770958833	-118.177717356213	-7.23841649856752	77.305283523307	
1020000000	-9.69200003036475	149.707437282882	-42.4691049912881	-119.05367803504	-42.6143936501564	-118.814435489036	-7.23042161419485	76.6692553719408	
1020250000	-9.68143523535046	149.085744062647	-42.5286761064747	-120.009671841216	-42.603911681362	-119.648017496978	-7.22465597300309	76.0307286703586	
1020500000	-9.68055919064049	148.435790501448	-42.5387543557853	-120.540222487713	-42.6146659513055	-120.835447185519	-7.21922612979641	75.3686318120218	
1020750000	-9.6672463405661	147.813725754212	-42.5187868829522	-121.448944014585	-42.6022861550763	-121.298561336458	-7.2150961785882	74.725402379045	
1021000000	-9.66626927504879	147.136004225592	-42.4917278632853	-122.526750092493	-42.5772644524319	-121.90212516571	-7.213818718943	74.0897770576407	
1021250000	-9.65690338126298	146.562218685623	-42.5109019111043	-123.279678033953	-42.6540891565507	-123.007576156017	-7.20182903727506	73.4430362736957	
1021500000	-9.64762368980911	145.859320919633	-42.5215180629571	-123.868783583128	-42.6831096702953	-123.687374225265	-7.20177821375163	72.7702776029042	
1021750000	-9.64253803045628	145.267270273765	-42.5126715805303	-124.676601070515	-42.634996844131	-124.505401449721	-7.19393913936861	72.1871424226824	
1022000000	-9.63367802413506	144.587720320853	-42.5568602329047	-125.655466482288	-42.6125706915956	-125.003948162574	-7.1943012948861	71.5133163120122	
1022250000	-9.62128136547506	143.942894643551	-42.530010378792	-126.414573577502	-42.631705269425	-126.131092851167	-7.18088200761913	70.8938709860458	
1022500000	-9.61814681161454	143.367846091018	-42.5699413876806	-127.139912786214	-42.6883553666953	-126.53396386683	-7.18102677210666	70.2397969329666	
1022750000	-9.60757864100026	142.689158911927	-42.5925475436127	-128.020230233679	-42.6707125095607	-127.473594626943	-7.17463305902034	69.5503741805148	
1023000000	-9.6024487642514	142.034826990315	-42.57656398272	-129.114873882334	-42.696948628522	-128.422093825501	-7.1727953623475	68.9678193749223	
1023250000	-9.59195130319183	141.438202985314	-42.5679746667478	-129.716767621871	-42.6949624730063	-129.079529280045	-7.1656826150038	68.317315177051	
1023500000	-9.58502057378196	140.790403381728	-42.5712676221585	-130.599224286226	-42.7012379678418	-129.989464862759	-7.15641499436703	67.6859330596325	
1023750000	-9.57070276070013	140.156182172941	-42.6151687727005	-131.502832119867	-42.6976380703952	-130.801083530499	-7.15547381018028	67.0216482588255	
1024000000	-9.55990924830098	139.508410765838	-42.6088521222469	-132.37762578419	-42.7174698536335	-131.413876617413	-7.14772045917617	66.401560865603	
1024250000	-9.56430484464593	138.886845389041	-42.6308501858183	-133.144149120813	-42.6661018345946	-132.280752006805	-7.14265232419179	65.7076201120853	
1024500000	-9.54670443525732	138.2576603546	-42.6358131489348	-133.631581817464	-42.7159990583039	-132.931565584541	-7.13683749905413	65.078883407969	
1024750000	-9.54991889182676	137.595433153167	-42.6528445107344	-135.01172850399	-42.6721402313144	-133.874519324035	-7.12494003328541	64.4839975870621	
1025000000	-9.53285152456791	136.957700669983	-42.6436690182625	-135.368917163137	-42.7331008969115	-135.035779887544	-7.12322579011224	63.80830320817	
1025250000	-9.5259131662491	136.345514475534	-42.6858416115894	-136.57224534022	-42.7119497687305	-135.494292743899	-7.12325717205086	63.1265542973094	
1025500000	-9.52336450440537	135.737439022484	-42.6600571004225	-137.253521409271	-42.7069115028863	-136.502046370805	-7.11732115750322	62.5459944495407	
1025750000	-9.50306852569093	135.070348520317	-42.6892892162134	-137.730791850496	-42.7837189699454	-136.668314833012	-7.11027410509437	61.9068015649225	
1026000000	-9.50095670996387	134.403055965639	-42.6673582797128	-138.787417690765	-42.7563051480249	-137.846573816135	-7.09812735201822	61.2929915513875	
1026250000	-9.49856835199721	133.815738211874	-42.7071566048288	-139.491932371889	-42.7466319758955	-138.620393459558	-7.1022135194306	60.6286260845346	
1026500000	-9.49156218110212	133.148762565436	-42.7652080458789	-140.507268732986	-42.7422131278789	-139.745666872512	-7.09392760263659	59.9629176195157	
1026750000	-9.48027975134747	132.516890313726	-42.7488085435175	-141.146135904766	-42.7485440153911	-140.081986414988	-7.0925316055487	59.3260965581236	
1027000000	-9.46727914474562	131.842707995578	-42.786034991035	-142.273587157568	-42.7854613702212	-140.913070516918	-7.0874227553342	58.7143239265631	
1027250000	-9.45524652124575	131.25172421146	-42.7955815820006	-142.888903193477	-42.7858337514415	-142.198383713901	-7.07460527886859	58.0919236997578	
1027500000	-9.45260691324161	130.600786459242	-42.7777151838566	-143.440371899464	-42.7351401272032	-142.785481134134	-7.07464603039386	57.431233056457	
1027750000	-9.42867693340599	129.965904443437	-42.7541163651694	-144.678654311856	-42.8027677119786	-143.634678039435	-7.07291648046781	56.8295748514241	
1028000000	-9.43754682331766	129.301041262973	-42.7794389558307	-145.196467875672	-42.8516005454982	-144.234554195511	-7.06029341511135	56.1612283024521	
1028250000	-9.42468451719795	128.639033897543	-42.8397273166161	-145.809907890312	-42.8153163765372	-145.163884494723	-7.06324192283897	55.5155995585139	
1028500000	-9.42001130773493	128.059100627494	-42.7811684071605	-147.064672085195	-42.8317814744174	-145.943101554287	-7.0558195978746	54.8841348541559	
1028750000	-9.40777085688981	127.395926352589	-42.8624533595209	-147.37108884359	-42.9003602986143	-146.722071052328	-7.0504294595848	54.2937642367533	
1029000000	-9.40029558476537	126.744878716027	-42.8554756254601	-148.036725321638	-42.8761057351111	-147.547687888617	-7.04000447576154	53.6100678556016	
1029250000	-9.3930575055882	126.109149806366	-42.8755003057101	-148.896448404671	-42.872940884954	-148.469366303187	-7.03196257362377	52.9963806086951	
1029500000	-9.38643029221681	125.444930897462	-42.8634473861579	-149.874669431477	-42.8706684646435	-149.276160960806	-7.03677968938455	52.3478374984884	
1029750000	-9.37761320520107	124.784030670828	-42.9071183334247	-150.973606050592	-42.8782802034271	-149.95411195135	-7.02288073939674	51.7017528790559	
1030000000	-9.36628919898496	124.193469942545	-42.9324291606949	-151.5799868016	-42.9429085368246	-150.820340176954	-7.0213859139903	51.1155633851473	
1030250000	-9.3662402024373	123.560086593187	-42.9079621195141	-152.555746854432	-42.9335093250841	-151.561118733874	-7.01490660626538	50.4425689112029	
1030500000	-9.34571035781531	122.897987390369	-42.9515411259798	-153.185184937524	-42.9473844874287	-152.496345981967	-7.01292776928442	49.7935138400259	
1030750000	-9.34365171220529	122.228020105111	-42.9250532252011	-153.805967383224	-42.9569180422275	-153.292147481125	-7.00632037661924	49.2211409417566	
1031000000	-9.31985170359445	121.620117254948	-42.9812369421102	-155.060270763782	-42.9559319329794	-154.119515997127	-6.99986439209875	48.5479019607451	
1031250000	-9.31831246374029	120.973453336736	-42.9933984912988	-155.552917107527	-42.9201495761999	-154.831640881359	-6.99478493014145	47.9023889822672	
