# HZ S RI R 50
200000000 -0.042852889746427536 -0.916893720626831 0.001374754123389721 0.0001227380707859993 0 0 0 0
201000000 -0.09014193713665009 -0.9098001718521118 0.0015109945088624954 -1.4978460967540741e-05 0 0 0 0
202000000 -0.1380119025707245 -0.9007325768470764 0.0016176439821720123 -5.131307989358902e-05 0 0 0 0
203000000 -0.18286141753196716 -0.8894799947738647 0.0018593976274132729 -0.00015075132250785828 0 0 0 0
204000000 -0.2291083186864853 -0.8756698966026306 0.002085878513753414 -0.0004452895373106003 0 0 0 0
205000000 -0.2734050154685974 -0.8594489097595215 0.0023314207792282104 -0.0008669430390000343 0 0 0 0
206000000 -0.31661471724510193 -0.8416797518730164 0.0024408549070358276 -0.0013927165418863297 0 0 0 0
207000000 -0.35907235741615295 -0.8218026161193848 0.002346053719520569 -0.0019609807059168816 0 0 0 0
208000000 -0.3995232880115509 -0.7997136116027832 0.002176087349653244 -0.002558687701821327 0 0 0 0
209000000 -0.43921470642089844 -0.7755327820777893 0.0017229840159416199 -0.0032251980155706406 0 0 0 0
210000000 -0.47702762484550476 -0.7501320838928223 0.0010525621473789215 -0.003730105236172676 0 0 0 0
211000000 -0.5138351321220398 -0.7227710485458374 0.00016366969794034958 -0.003926237113773823 0 0 0 0
212000000 -0.5495887398719788 -0.6939499974250793 -0.0007095485925674438 -0.0038612904027104378 0 0 0 0
213000000 -0.5838078856468201 -0.6630791425704956 -0.0014242185279726982 -0.0037230178713798523 0 0 0 0
214000000 -0.6154124140739441 -0.631952166557312 -0.002036529593169689 -0.003271767869591713 0 0 0 0
215000000 -0.6465065479278564 -0.5981349945068359 -0.0024980688467621803 -0.0027637332677841187 0 0 0 0
216000000 -0.6760151386260986 -0.5627270936965942 -0.0027703549712896347 -0.002227392978966236 0 0 0 0
217000000 -0.7031086683273315 -0.5275797247886658 -0.0029470957815647125 -0.001791362650692463 0 0 0 0
218000000 -0.7282015681266785 -0.4893367290496826 -0.002995428629219532 -0.0014118310064077377 0 0 0 0
219000000 -0.7523790001869202 -0.4505871534347534 -0.003086879849433899 -0.0009976830333471298 0 0 0 0
220000000 -0.7737619876861572 -0.4100443720817566 -0.003131672739982605 -0.0006773686036467552 0 0 0 0
221000000 -0.7933398485183716 -0.3696220815181732 -0.0031483378261327744 -0.0002732276916503906 0 0 0 0
222000000 -0.8104578256607056 -0.3277977406978607 -0.003084762953221798 5.304254591464996e-05 0 0 0 0
223000000 -0.8260509371757507 -0.2838164269924164 -0.0030291657894849777 0.00042582303285598755 0 0 0 0
224000000 -0.8395283222198486 -0.2410329282283783 -0.002960510551929474 0.0007602730765938759 0 0 0 0
225000000 -0.8504476547241211 -0.19750630855560303 -0.0028550224378705025 0.00112929567694664 0 0 0 0
226000000 -0.8595170974731445 -0.15227311849594116 -0.0025618523359298706 0.0014370186254382133 0 0 0 0
227000000 -0.8662938475608826 -0.10797831416130066 -0.0022980347275733948 0.0017148703336715698 0 0 0 0
228000000 -0.8710148930549622 -0.062068235129117966 -0.00210733525454998 0.0019255243241786957 0 0 0 0
229000000 -0.8731670379638672 -0.015902068465948105 -0.0018682824447751045 0.002122415229678154 0 0 0 0
230000000 -0.873357355594635 0.028262751176953316 -0.0015717754140496254 0.0023060468956828117 0 0 0 0
231000000 -0.8708724975585938 0.07453210651874542 -0.001320566050708294 0.0024948539212346077 0 0 0 0
232000000 -0.8672842383384705 0.11782363057136536 -0.0009681591764092445 0.002570432610809803 0 0 0 0
233000000 -0.8600192070007324 0.1641278713941574 -0.0005896398797631264 0.0025544390082359314 0 0 0 0
234000000 -0.8511675596237183 0.2092261016368866 -0.0003972705453634262 0.0025085806846618652 0 0 0 0
235000000 -0.8406457901000977 0.253190279006958 -6.864964962005615e-05 0.0025036856532096863 0 0 0 0
236000000 -0.8256256580352783 0.2974342703819275 0.00018776394426822662 0.002435787580907345 0 0 0 0
237000000 -0.8106382489204407 0.3413267135620117 0.0004409151151776314 0.0023848265409469604 0 0 0 0
238000000 -0.7929226160049438 0.3834589421749115 0.0006649503484368324 0.002270434983074665 0 0 0 0
239000000 -0.7730103731155396 0.42543989419937134 0.000814841128885746 0.0020969854667782784 0 0 0 0
240000000 -0.7504432797431946 0.46618688106536865 0.000993805006146431 0.0019204001873731613 0 0 0 0
241000000 -0.7268819808959961 0.5063916444778442 0.001140098087489605 0.0018632002174854279 0 0 0 0
242000000 -0.7005859017372131 0.5445786118507385 0.0013361647725105286 0.0017542093992233276 0 0 0 0
243000000 -0.6714956164360046 0.5818246603012085 0.0014832532033324242 0.0015103025361895561 0 0 0 0
244000000 -0.6419575214385986 0.6170604825019836 0.0016560666263103485 0.0012953300029039383 0 0 0 0
245000000 -0.6089857220649719 0.6517828106880188 0.0016100751236081123 0.0010137828066945076 0 0 0 0
246000000 -0.5752082467079163 0.6855358481407166 0.001622864045202732 0.000801989808678627 0 0 0 0
247000000 -0.5395333170890808 0.7156344652175903 0.0015937378630042076 0.0006939852610230446 0 0 0 0
248000000 -0.5020278692245483 0.7448732256889343 0.0015765931457281113 0.0006464924663305283 0 0 0 0
249000000 -0.46270516514778137 0.772666871547699 0.0015503857284784317 0.0004875035956501961 0 0 0 0
250000000 -0.42270660400390625 0.7976564764976501 0.0016594910994172096 0.000356811098754406 0 0 0 0
251000000 -0.3806915581226349 0.821100115776062 0.0016818782314658165 0.00027168914675712585 0 0 0 0
252000000 -0.33602744340896606 0.8424513339996338 0.0016642101109027863 3.811251372098923e-05 0 0 0 0
253000000 -0.2930988073348999 0.8612174987792969 0.0015899641439318657 -5.644001066684723e-05 0 0 0 0
254000000 -0.24660758674144745 0.8782256841659546 0.001588788814842701 -0.00020583812147378922 0 0 0 0
255000000 -0.19981122016906738 0.892503559589386 0.001561586745083332 -0.00025635305792093277 0 0 0 0
256000000 -0.1533833146095276 0.9038702845573425 0.0014159996062517166 -0.0004218565300107002 0 0 0 0
257000000 -0.10444998741149902 0.9128281474113464 0.0013871798291802406 -0.00048516038805246353 0 0 0 0
258000000 -0.055435024201869965 0.9198172092437744 0.0013086628168821335 -0.0006091110408306122 0 0 0 0
259000000 -0.0069857314229011536 0.9232723116874695 0.0011784005910158157 -0.0006546899676322937 0 0 0 0
260000000 0.042462024837732315 0.9250777363777161 0.0010642427951097488 -0.000638127326965332 0 0 0 0
261000000 0.09322601556777954 0.9232400059700012 0.0010857069864869118 -0.0006565051153302193 0 0 0 0
262000000 0.14181596040725708 0.9190130233764648 0.0010378854349255562 -0.0007250327616930008 0 0 0 0
263000000 0.19020837545394897 0.9122196435928345 0.0010189265012741089 -0.0008060717955231667 0 0 0 0
264000000 0.24117016792297363 0.9029178023338318 0.000972973182797432 -0.000901288352906704 0 0 0 0
265000000 0.2887232303619385 0.8901083469390869 0.0008233767002820969 -0.0009102877229452133 0 0 0 0
266000000 0.3368625044822693 0.8756349682807922 0.000813026912510395 -0.0010312814265489578 0 0 0 0
267000000 0.38427019119262695 0.8572922945022583 0.0007984135299921036 -0.001072780229151249 0 0 0 0
268000000 0.4306344985961914 0.8373646140098572 0.0006317812949419022 -0.0011863401159644127 0 0 0 0
269000000 0.4747873842716217 0.8151931762695312 0.000491652637720108 -0.001193467527627945 0 0 0 0
270000000 0.5189619660377502 0.7890325784683228 0.00042780209332704544 -0.001135113649070263 0 0 0 0
271000000 0.5613993406295776 0.7614945769309998 0.000410204753279686 -0.0011502057313919067 0 0 0 0
272000000 0.6019604802131653 0.7318722605705261 0.00021036434918642044 -0.00114532932639122 0 0 0 0
273000000 0.6408203840255737 0.6992854475975037 0.00010626483708620071 -0.0011069830507040024 0 0 0 0
274000000 0.6779473423957825 0.6660516858100891 0.0001710290089249611 -0.0009831227362155914 0 0 0 0
275000000 0.7129521369934082 0.6290146112442017 0.00021840259432792664 -0.0010711681097745895 0 0 0 0
276000000 0.7468323707580566 0.5889074206352234 0.00013518333435058594 -0.0011419253423810005 0 0 0 0
277000000 0.7785007357597351 0.549710214138031 4.837010055780411e-05 -0.001169866882264614 0 0 0 0
278000000 0.8068697452545166 0.5079052448272705 -1.3609416782855988e-05 -0.001166139729321003 0 0 0 0
279000000 0.8337869644165039 0.46367695927619934 -9.625125676393509e-05 -0.0011507710441946983 0 0 0 0
280000000 0.856795072555542 0.419900506734848 -0.00016894005239009857 -0.001131407916545868 0 0 0 0
281000000 0.8787522912025452 0.3733823299407959 -0.00023358501493930817 -0.0011685295030474663 0 0 0 0
282000000 0.8974148631095886 0.3268134891986847 -0.0002660835161805153 -0.0011703455820679665 0 0 0 0
283000000 0.9138630032539368 0.2787874639034271 -0.00038526393473148346 -0.0011464683338999748 0 0 0 0
284000000 0.9269826412200928 0.22956708073616028 -0.0004171980544924736 -0.0011781873181462288 0 0 0 0
285000000 0.9371294379234314 0.1800892949104309 -0.00048686936497688293 -0.0012273937463760376 0 0 0 0
286000000 0.9452698826789856 0.13093391060829163 -0.0006249481812119484 -0.001192609779536724 0 0 0 0
287000000 0.9511203765869141 0.08042138814926147 -0.0007026046514511108 -0.0010797316208481789 0 0 0 0
288000000 0.9539496302604675 0.029401471838355064 -0.0008001402020454407 -0.0010936502367258072 0 0 0 0
289000000 0.952445924282074 -0.020540710538625717 -0.0008163684979081154 -0.0009764432907104492 0 0 0 0
290000000 0.9499807357788086 -0.0703476071357727 -0.0009320257231593132 -0.0009314911440014839 0 0 0 0
291000000 0.9438417553901672 -0.1205333024263382 -0.0010321279987692833 -0.0009266780689358711 0 0 0 0
292000000 0.9344765543937683 -0.16949859261512756 -0.0011176159605383873 -0.0008242232725024223 0 0 0 0
293000000 0.9236526489257812 -0.2185157835483551 -0.0012029511854052544 -0.0007238490507006645 0 0 0 0
294000000 0.9097731113433838 -0.2656113803386688 -0.0012149382382631302 -0.0006481055170297623 0 0 0 0
295000000 0.8934246301651001 -0.3123525083065033 -0.0012380201369524002 -0.0005446216091513634 0 0 0 0
296000000 0.8745086193084717 -0.3589111268520355 -0.0012676054611802101 -0.0004272041842341423 0 0 0 0
297000000 0.8535723090171814 -0.40317389369010925 -0.0012183655053377151 -0.00041972286999225616 0 0 0 0
298000000 0.8301219344139099 -0.44613081216812134 -0.0012856265529990196 -0.0002805916592478752 0 0 0 0
299000000 0.8039165139198303 -0.4880053699016571 -0.0013013603165745735 -0.000270254909992218 0 0 0 0
300000000 0.7759823799133301 -0.5274443030357361 -0.0013572005555033684 -0.00018225982785224915 0 0 0 0
