# HZ S RI R 50
200000000 -0.04236465319991112 -0.9165908098220825 0.001335051842033863 0.00012345891445875168 0 0 0 0
201000000 -0.09084253013134003 -0.9106310606002808 0.0014699529856443405 7.397681474685669e-05 0 0 0 0
202000000 -0.1376487910747528 -0.9010370969772339 0.001651192083954811 -4.59868460893631e-05 0 0 0 0
203000000 -0.18419122695922852 -0.8896459937095642 0.0019440427422523499 -0.00027918070554733276 0 0 0 0
204000000 -0.22919966280460358 -0.8757683634757996 0.0022047096863389015 -0.0005335258319973946 0 0 0 0
205000000 -0.273876428604126 -0.8591947555541992 0.0023764967918395996 -0.0009755603969097137 0 0 0 0
206000000 -0.3167443871498108 -0.8415488600730896 0.0023914072662591934 -0.0015687095001339912 0 0 0 0
207000000 -0.3590979278087616 -0.8218989372253418 0.0022574448958039284 -0.0021736742928624153 0 0 0 0
208000000 -0.3996092975139618 -0.7999597191810608 0.0020207706838846207 -0.0027200179174542427 0 0 0 0
209000000 -0.4392794370651245 -0.775887668132782 0.0015073977410793304 -0.0033810269087553024 0 0 0 0
210000000 -0.47697678208351135 -0.7498989105224609 0.0008390303701162338 -0.003726399503648281 0 0 0 0
211000000 -0.5131711959838867 -0.7230291962623596 8.220411837100983e-05 -0.0039336346089839935 0 0 0 0
212000000 -0.5488055944442749 -0.6944642066955566 -0.0007253978401422501 -0.003873606212437153 0 0 0 0
213000000 -0.5835428237915039 -0.6636233925819397 -0.0014188839122653008 -0.003623505122959614 0 0 0 0
214000000 -0.6154311895370483 -0.6323001980781555 -0.0020498214289546013 -0.003303997218608856 0 0 0 0
215000000 -0.6463234424591064 -0.5982246994972229 -0.0025359373539686203 -0.0028202589601278305 0 0 0 0
216000000 -0.6758776903152466 -0.5626893639564514 -0.0028156964108347893 -0.002204052172601223 0 0 0 0
217000000 -0.702472984790802 -0.5264459252357483 -0.0029119616374373436 -0.001811251975595951 0 0 0 0
218000000 -0.7285565137863159 -0.4895371198654175 -0.0030179880559444427 -0.001332324929535389 0 0 0 0
219000000 -0.7518760561943054 -0.45023632049560547 -0.0030895061790943146 -0.0009438628330826759 0 0 0 0
220000000 -0.7733441591262817 -0.40948933362960815 -0.003129991702735424 -0.0006253030151128769 0 0 0 0
221000000 -0.7929244041442871 -0.36909595131874084 -0.00315746758133173 -0.0002671321853995323 0 0 0 0
222000000 -0.8103448748588562 -0.3269904553890228 -0.003100150264799595 7.356703281402588e-05 0 0 0 0
223000000 -0.8259740471839905 -0.2849934995174408 -0.003090212121605873 0.0004680640995502472 0 0 0 0
224000000 -0.8393070697784424 -0.24035289883613586 -0.002963307313621044 0.0007856283336877823 0 0 0 0
225000000 -0.850284218788147 -0.1965371072292328 -0.00280750822275877 0.0011628968641161919 0 0 0 0
226000000 -0.8592813611030579 -0.15299421548843384 -0.0025903787463903427 0.0015406282618641853 0 0 0 0
227000000 -0.8662113547325134 -0.10826162993907928 -0.00235834252089262 0.0017689559608697891 0 0 0 0
228000000 -0.8705098628997803 -0.06245764344930649 -0.0020754756405949593 0.0019167102873325348 0 0 0 0
229000000 -0.8732772469520569 -0.017424408346414566 -0.0019196541979908943 0.0021121781319379807 0 0 0 0
230000000 -0.8734108805656433 0.028031187132000923 -0.0015911813825368881 0.0023880451917648315 0 0 0 0
231000000 -0.8705379962921143 0.07404526323080063 -0.0012538470327854156 0.0025281840935349464 0 0 0 0
232000000 -0.8664193749427795 0.11699099838733673 -0.0009915269911289215 0.002536362037062645 0 0 0 0
233000000 -0.8598041534423828 0.1638195663690567 -0.0005795368924736977 0.0025566816329956055 0 0 0 0
234000000 -0.8507882952690125 0.2092004269361496 -0.0003501521423459053 0.00252681877464056 0 0 0 0
235000000 -0.8393972516059875 0.25312042236328125 -3.12337651848793e-05 0.002540913410484791 0 0 0 0
236000000 -0.825749933719635 0.29797014594078064 0.0002096584066748619 0.0025181416422128677 0 0 0 0
237000000 -0.8105892539024353 0.34126266837120056 0.0004557408392429352 0.0022881384938955307 0 0 0 0
238000000 -0.7926445603370667 0.3837054669857025 0.0005929972976446152 0.002234293147921562 0 0 0 0
239000000 -0.7724864482879639 0.4256872832775116 0.0008143633604049683 0.002130297012627125 0 0 0 0
240000000 -0.7498511672019958 0.46612900495529175 0.0010626008734107018 0.0019376929849386215 0 0 0 0
241000000 -0.7259036302566528 0.5063389539718628 0.0011967439204454422 0.0018618972972035408 0 0 0 0
242000000 -0.6994887590408325 0.5440838932991028 0.0013476954773068428 0.0017279190942645073 0 0 0 0
243000000 -0.671837568283081 0.5811580419540405 0.0015095695853233337 0.0014945007860660553 0 0 0 0
244000000 -0.6413097977638245 0.6172016859054565 0.0016389256343245506 0.0012371772900223732 0 0 0 0
245000000 -0.6092017889022827 0.651448667049408 0.0016518710181117058 0.0009591961279511452 0 0 0 0
246000000 -0.5747269988059998 0.6849786639213562 0.0015871599316596985 0.0008578505367040634 0 0 0 0
247000000 -0.5400118827819824 0.7152470350265503 0.0015740785747766495 0.0007165810093283653 0 0 0 0
248000000 -0.5009834170341492 0.7447271347045898 0.0015989085659384727 0.0006319498643279076 0 0 0 0
249000000 -0.4623242914676666 0.7725362181663513 0.0015754541382193565 0.0005517303943634033 0 0 0 0
250000000 -0.42194369435310364 0.798000156879425 0.0015990957617759705 0.000385909341275692 0 0 0 0
251000000 -0.3810117542743683 0.8211615681648254 0.001707722432911396 0.00031330063939094543 0 0 0 0
252000000 -0.3367176651954651 0.8421640396118164 0.001716029830276966 7.360894232988358e-05 0 0 0 0
253000000 -0.2920263111591339 0.8611829876899719 0.001583736389875412 -2.9661692678928375e-05 0 0 0 0
254000000 -0.2471456229686737 0.8779651522636414 0.0015527298673987389 -0.0001770220696926117 0 0 0 0
255000000 -0.19994741678237915 0.8917173147201538 0.0015440061688423157 -0.0003189975395798683 0 0 0 0
256000000 -0.15330654382705688 0.9036422967910767 0.001433555968105793 -0.0003988593816757202 0 0 0 0
257000000 -0.1043175756931305 0.9122800827026367 0.001355152577161789 -0.0005356427282094955 0 0 0 0
258000000 -0.05615409463644028 0.9197007417678833 0.0013253167271614075 -0.0006020274013280869 0 0 0 0
259000000 -0.0063894763588905334 0.923221230506897 0.0011242246255278587 -0.0007229959592223167 0 0 0 0
260000000 0.042425934225320816 0.9246485233306885 0.0010844916105270386 -0.0006410414353013039 0 0 0 0
261000000 0.09277280420064926 0.9232353568077087 0.0010411422699689865 -0.0007171286270022392 0 0 0 0
262000000 0.14205169677734375 0.9188489317893982 0.0010592611506581306 -0.0007358137518167496 0 0 0 0
263000000 0.1912810355424881 0.9122869372367859 0.0010006679221987724 -0.0008300952613353729 0 0 0 0
264000000 0.24055072665214539 0.9021724462509155 0.0009715808555483818 -0.0008981628343462944 0 0 0 0
265000000 0.2886454463005066 0.8903592228889465 0.0009124139323830605 -0.0009225187823176384 0 0 0 0
266000000 0.33639830350875854 0.8751915693283081 0.0008378885686397552 -0.0010506035760045052 0 0 0 0
267000000 0.38359498977661133 0.8577890396118164 0.0007367953658103943 -0.0010862117633223534 0 0 0 0
268000000 0.43029457330703735 0.8372281789779663 0.0006593987345695496 -0.0011837277561426163 0 0 0 0
269000000 0.47447073459625244 0.8155099153518677 0.0004464816302061081 -0.0011633969843387604 0 0 0 0
270000000 0.5185546875 0.7893245816230774 0.00042532850056886673 -0.0011802930384874344 0 0 0 0
271000000 0.5617550611495972 0.7619847059249878 0.00036919303238391876 -0.0012230873107910156 0 0 0 0
272000000 0.6022455096244812 0.7312632203102112 0.00020965095609426498 -0.0011885548010468483 0 0 0 0
273000000 0.6407135725021362 0.699704110622406 0.00013644620776176453 -0.001107952557504177 0 0 0 0
274000000 0.6786778569221497 0.6650609970092773 0.00017874594777822495 -0.0010847942903637886 0 0 0 0
275000000 0.7131792902946472 0.6285542845726013 0.00010042823851108551 -0.001099124550819397 0 0 0 0
276000000 0.7469486594200134 0.5895382165908813 0.00016099493950605392 -0.001157805323600769 0 0 0 0
277000000 0.7788517475128174 0.5487157702445984 -1.2117438018321991e-05 -0.0012244274839758873 0 0 0 0
278000000 0.8069777488708496 0.5082845091819763 -0.00014008674770593643 -0.0011793579906225204 0 0 0 0
279000000 0.8335326313972473 0.46431201696395874 -0.000196932815015316 -0.001180688850581646 0 0 0 0
280000000 0.8568037748336792 0.42118191719055176 -0.0001640627160668373 -0.0011634593829512596 0 0 0 0
281000000 0.8787897825241089 0.3731481432914734 -0.0002917461097240448 -0.0011559892445802689 0 0 0 0
282000000 0.8974905014038086 0.3267890214920044 -0.00041232816874980927 -0.0011260639876127243 0 0 0 0
283000000 0.9134483933448792 0.2786572277545929 -0.0004324615001678467 -0.0010892879217863083 0 0 0 0
284000000 0.9266143441200256 0.2301047146320343 -0.0004720725119113922 -0.0011291885748505592 0 0 0 0
285000000 0.9371712803840637 0.17884302139282227 -0.0005841553211212158 -0.0011225985363125801 0 0 0 0
286000000 0.9457117319107056 0.1302379071712494 -0.0007538590580224991 -0.0011138850823044777 0 0 0 0
287000000 0.9506170749664307 0.0795907974243164 -0.0007944256067276001 -0.0010180650278925896 0 0 0 0
288000000 0.9535026550292969 0.029139121994376183 -0.0007847212255001068 -0.0009618084877729416 0 0 0 0
289000000 0.9531142711639404 -0.020206179469823837 -0.0009502526372671127 -0.0009298082441091537 0 0 0 0
290000000 0.9488741755485535 -0.07067924737930298 -0.0010088048875331879 -0.0008422033861279488 0 0 0 0
291000000 0.9438813924789429 -0.12050341069698334 -0.0010459385812282562 -0.0008588610216975212 0 0 0 0
292000000 0.9350851774215698 -0.1694197803735733 -0.001069679856300354 -0.0008101193234324455 0 0 0 0
293000000 0.9232739210128784 -0.21935823559761047 -0.001185031607747078 -0.0006464449688792229 0 0 0 0
294000000 0.9090782403945923 -0.26650068163871765 -0.0012225080281496048 -0.0005533229559659958 0 0 0 0
295000000 0.8935630917549133 -0.313138484954834 -0.001223042607307434 -0.0004711626097559929 0 0 0 0
296000000 0.8744551539421082 -0.358052521944046 -0.0012601660564541817 -0.0004056813195347786 0 0 0 0
297000000 0.8536182045936584 -0.40369951725006104 -0.001183059997856617 -0.00029321853071451187 0 0 0 0
298000000 0.8294159173965454 -0.44629228115081787 -0.0013063130900263786 -0.0003133770078420639 0 0 0 0
299000000 0.8036185503005981 -0.4879305064678192 -0.0012911558151245117 -0.00021678581833839417 0 0 0 0
300000000 0.7747864127159119 -0.5284724831581116 -0.0013416074216365814 -0.00013007503002882004 0 0 0 0
