# HZ S RI R 50
200000000 -0.04268962889909744 -0.91668701171875 0.001368069089949131 6.12456351518631e-05 0 0 0 0
201000000 -0.09045277535915375 -0.910735547542572 0.001494881696999073 -5.892664194107056e-05 0 0 0 0
202000000 -0.1377323567867279 -0.9012861251831055 0.0016450285911560059 -8.997134864330292e-05 0 0 0 0
203000000 -0.1832725703716278 -0.8893560767173767 0.0018370524048805237 -0.00023346859961748123 0 0 0 0
204000000 -0.2293873280286789 -0.8759379982948303 0.0020512985065579414 -0.0005042795091867447 0 0 0 0
205000000 -0.2731208801269531 -0.8597110509872437 0.0022990256547927856 -0.0008821021765470505 0 0 0 0
206000000 -0.3167019784450531 -0.8415577411651611 0.0023421887308359146 -0.0014971895143389702 0 0 0 0
207000000 -0.35905125737190247 -0.8210743069648743 0.0022194860503077507 -0.0020554447546601295 0 0 0 0
208000000 -0.3988390862941742 -0.8001439571380615 0.0019632987678050995 -0.0026121623814105988 0 0 0 0
209000000 -0.43897491693496704 -0.7757138013839722 0.0014735190197825432 -0.0032645780593156815 0 0 0 0
210000000 -0.47674885392189026 -0.7504773736000061 0.0008323835209012032 -0.0037173936143517494 0 0 0 0
211000000 -0.5140975117683411 -0.7221254110336304 1.2448988854885101e-05 -0.0038496488705277443 0 0 0 0
212000000 -0.549416720867157 -0.6946346163749695 -0.0007390482351183891 -0.003786480985581875 0 0 0 0
213000000 -0.5831645727157593 -0.6636070013046265 -0.0014236215502023697 -0.003576405346393585 0 0 0 0
214000000 -0.6155092120170593 -0.6321403384208679 -0.0020157145336270332 -0.003171054646372795 0 0 0 0
215000000 -0.6464546322822571 -0.5980365872383118 -0.002438148483633995 -0.002643969841301441 0 0 0 0
216000000 -0.6758980751037598 -0.5620365142822266 -0.0027111442759633064 -0.0022272970527410507 0 0 0 0
217000000 -0.7025257349014282 -0.5267755389213562 -0.0029360586777329445 -0.0017066681757569313 0 0 0 0
218000000 -0.7278600335121155 -0.4882766008377075 -0.002950861118733883 -0.0013481508940458298 0 0 0 0
219000000 -0.7516074180603027 -0.450082004070282 -0.003037950024008751 -0.0009934008121490479 0 0 0 0
220000000 -0.7741436958312988 -0.4094025492668152 -0.003090350888669491 -0.000589265488088131 0 0 0 0
221000000 -0.7929053902626038 -0.36898162961006165 -0.0031641805544495583 -0.00020216498523950577 0 0 0 0
222000000 -0.8102630972862244 -0.3276207149028778 -0.0030965451151132584 0.00010317284613847733 0 0 0 0
223000000 -0.8266451954841614 -0.2842057943344116 -0.003002050332725048 0.0005152104422450066 0 0 0 0
224000000 -0.8392423987388611 -0.24087172746658325 -0.0028797565028071404 0.0008313003927469254 0 0 0 0
225000000 -0.8506609201431274 -0.19745081663131714 -0.0028540929779410362 0.0011677425354719162 0 0 0 0
226000000 -0.8587896823883057 -0.1526108682155609 -0.0025734463706612587 0.0014629680663347244 0 0 0 0
227000000 -0.8661121129989624 -0.10842627286911011 -0.002310856245458126 0.0017536897212266922 0 0 0 0
228000000 -0.8709038496017456 -0.062481097877025604 -0.00202889833599329 0.0019154241308569908 0 0 0 0
229000000 -0.873248815536499 -0.01666335016489029 -0.0018076216802001 0.002102636732161045 0 0 0 0
230000000 -0.8732523322105408 0.028055565431714058 -0.0016354713588953018 0.0022573694586753845 0 0 0 0
231000000 -0.8700149059295654 0.07463791966438293 -0.0013162186369299889 0.002454192377626896 0 0 0 0
232000000 -0.866513192653656 0.11761816591024399 -0.000925055705010891 0.002579472027719021 0 0 0 0
233000000 -0.8596197366714478 0.16382332146167755 -0.0006362050771713257 0.002572985365986824 0 0 0 0
234000000 -0.8506183624267578 0.20939460396766663 -0.00041055772453546524 0.0025268979370594025 0 0 0 0
235000000 -0.8401144742965698 0.25275951623916626 -0.00012084841728210449 0.0025702081620693207 0 0 0 0
236000000 -0.8262893557548523 0.2980601489543915 0.0001903912052512169 0.0024309679865837097 0 0 0 0
237000000 -0.8102402687072754 0.3413161039352417 0.00037895143032073975 0.0023534977808594704 0 0 0 0
238000000 -0.7925201654434204 0.3835393190383911 0.0006435178220272064 0.002262800931930542 0 0 0 0
239000000 -0.772354245185852 0.4257204234600067 0.0008270507678389549 0.0021503427997231483 0 0 0 0
240000000 -0.7496431469917297 0.4668266475200653 0.0009997682645916939 0.002033351920545101 0 0 0 0
241000000 -0.7261014580726624 0.5065335631370544 0.0011732056736946106 0.0019388934597373009 0 0 0 0
242000000 -0.6996443867683411 0.5445796251296997 0.001333107240498066 0.0017681196331977844 0 0 0 0
243000000 -0.6710109114646912 0.5819976925849915 0.0015524141490459442 0.0015723509714007378 0 0 0 0
244000000 -0.6416664719581604 0.617743194103241 0.0016751596704125404 0.001265333965420723 0 0 0 0
245000000 -0.6087777018547058 0.6517723798751831 0.0017111795023083687 0.0010404335334897041 0 0 0 0
246000000 -0.5751110911369324 0.6845470070838928 0.0016197264194488525 0.0008581429719924927 0 0 0 0
247000000 -0.539158046245575 0.7155393362045288 0.0016138041391968727 0.000762689858675003 0 0 0 0
248000000 -0.5022763609886169 0.7442148923873901 0.0016077104955911636 0.0005756616592407227 0 0 0 0
249000000 -0.4625473916530609 0.7724582552909851 0.0015673236921429634 0.00048637017607688904 0 0 0 0
250000000 -0.4220646917819977 0.797913134098053 0.0017104856669902802 0.00038916338235139847 0 0 0 0
251000000 -0.38108476996421814 0.8207836747169495 0.001745752990245819 0.0001802407205104828 0 0 0 0
252000000 -0.3364749550819397 0.8425326943397522 0.0017128800973296165 1.6520731151103973e-05 0 0 0 0
253000000 -0.2934023141860962 0.8603167533874512 0.0016564968973398209 -0.00016151461750268936 0 0 0 0
254000000 -0.24697813391685486 0.8775850534439087 0.0016356026753783226 -0.00022338051348924637 0 0 0 0
255000000 -0.19988630712032318 0.8921509981155396 0.0014934111386537552 -0.00032271165400743484 0 0 0 0
256000000 -0.15244543552398682 0.9029582142829895 0.0014543486759066582 -0.0004461947828531265 0 0 0 0
257000000 -0.10471746325492859 0.9127955436706543 0.0014221109449863434 -0.0005126390606164932 0 0 0 0
258000000 -0.055563218891620636 0.9197486042976379 0.0013024061918258667 -0.0006765583530068398 0 0 0 0
259000000 -0.006429441273212433 0.9233719706535339 0.0011556632816791534 -0.0006882548332214355 0 0 0 0
260000000 0.042160097509622574 0.924326479434967 0.0011004414409399033 -0.0007065329700708389 0 0 0 0
261000000 0.09243637323379517 0.9232475757598877 0.0010705292224884033 -0.0006854701787233353 0 0 0 0
262000000 0.1419391930103302 0.9184123873710632 0.0010674633085727692 -0.0007583871483802795 0 0 0 0
263000000 0.1915808618068695 0.9115700721740723 0.0010148044675588608 -0.0008311094716191292 0 0 0 0
264000000 0.2403087615966797 0.9020780324935913 0.0009660879150032997 -0.000916055403649807 0 0 0 0
265000000 0.28799158334732056 0.8902609944343567 0.0008785929530858994 -0.0010000849142670631 0 0 0 0
266000000 0.33666446805000305 0.8753232955932617 0.000850004144012928 -0.0010159024968743324 0 0 0 0
267000000 0.38474854826927185 0.8571374416351318 0.0007589338347315788 -0.0010764608159661293 0 0 0 0
268000000 0.43029922246932983 0.8372290134429932 0.0005979333072900772 -0.0011689867824316025 0 0 0 0
269000000 0.47438016533851624 0.8148439526557922 0.00047223083674907684 -0.0011894917115569115 0 0 0 0
270000000 0.5191176533699036 0.7895538806915283 0.00039915554225444794 -0.0011958573013544083 0 0 0 0
271000000 0.5612687468528748 0.7613894939422607 0.00035735219717025757 -0.0012453505769371986 0 0 0 0
272000000 0.6018102169036865 0.7316418290138245 0.0001976126804947853 -0.0011919690296053886 0 0 0 0
273000000 0.6412274837493896 0.6989606022834778 0.00013705529272556305 -0.0011689439415931702 0 0 0 0
274000000 0.6778978705406189 0.6655471324920654 7.931608706712723e-05 -0.0011544078588485718 0 0 0 0
275000000 0.7136522531509399 0.6289504766464233 6.473902612924576e-05 -0.0011249873787164688 0 0 0 0
276000000 0.7467412352561951 0.5895703434944153 6.15585595369339e-05 -0.0011343955993652344 0 0 0 0
277000000 0.7778738737106323 0.549355149269104 -0.00013457518070936203 -0.0012400541454553604 0 0 0 0
278000000 0.8069092035293579 0.5077624917030334 -0.00020387209951877594 -0.0012463107705116272 0 0 0 0
279000000 0.8338561654090881 0.46400755643844604 -0.0002391524612903595 -0.001162482425570488 0 0 0 0
280000000 0.8568335771560669 0.419738233089447 -0.0002385508269071579 -0.001099766232073307 0 0 0 0
281000000 0.8784502148628235 0.3737156391143799 -0.00034940149635076523 -0.0011625532060861588 0 0 0 0
282000000 0.8975453972816467 0.32623571157455444 -0.00037408340722322464 -0.0011516474187374115 0 0 0 0
283000000 0.9132266640663147 0.2789771258831024 -0.0004692571237683296 -0.0011103199794888496 0 0 0 0
284000000 0.9271031022071838 0.22947299480438232 -0.0005624936893582344 -0.0011437907814979553 0 0 0 0
285000000 0.9375578165054321 0.1801716387271881 -0.0006454735994338989 -0.0011284854263067245 0 0 0 0
286000000 0.9453926086425781 0.13147515058517456 -0.0007164487615227699 -0.0011166036128997803 0 0 0 0
287000000 0.950703501701355 0.07970187067985535 -0.0008072312921285629 -0.0010522473603487015 0 0 0 0
288000000 0.9536671042442322 0.029852360486984253 -0.0008879061788320541 -0.0009129270911216736 0 0 0 0
289000000 0.9525815844535828 -0.020526371896266937 -0.000958113931119442 -0.0008914535865187645 0 0 0 0
290000000 0.9495287537574768 -0.07046106457710266 -0.0010282238945364952 -0.0008249804377555847 0 0 0 0
291000000 0.9437146782875061 -0.11986388266086578 -0.001094716601073742 -0.0008332217112183571 0 0 0 0
292000000 0.934547483921051 -0.16929468512535095 -0.001094258390367031 -0.0006903568282723427 0 0 0 0
293000000 0.9234496355056763 -0.21920330822467804 -0.0011739414185285568 -0.0006475728005170822 0 0 0 0
294000000 0.9091054797172546 -0.2663472890853882 -0.0011917557567358017 -0.0004918444901704788 0 0 0 0
295000000 0.8934568166732788 -0.31252026557922363 -0.0012433957308530807 -0.0004760744050145149 0 0 0 0
296000000 0.8749127984046936 -0.35736244916915894 -0.0012579290196299553 -0.00031835585832595825 0 0 0 0
297000000 0.8533693552017212 -0.40374910831451416 -0.001207653433084488 -0.00030653271824121475 0 0 0 0
298000000 0.8297824859619141 -0.4462742209434509 -0.001264113001525402 -0.00025000981986522675 0 0 0 0
299000000 0.803774356842041 -0.48871561884880066 -0.0014109192416071892 -0.00017269421368837357 0 0 0 0
300000000 0.7762061953544617 -0.5273911952972412 -0.0013965973630547523 -4.839245229959488e-05 0 0 0 0
