# HZ S RI R 50
200000000 -0.04243362694978714 -0.9168490171432495 0.0013229800388216972 -1.828651875257492e-05 0 0 0 0
201000000 -0.09061548113822937 -0.9098907113075256 0.0014089066535234451 -9.964779019355774e-05 0 0 0 0
202000000 -0.1371447741985321 -0.9012136459350586 0.0015398403629660606 -9.50908288359642e-05 0 0 0 0
203000000 -0.18368490040302277 -0.8892494440078735 0.0017100144177675247 -0.00023926235735416412 0 0 0 0
204000000 -0.2292785495519638 -0.875654399394989 0.0019888412207365036 -0.0005224635824561119 0 0 0 0
205000000 -0.2735648453235626 -0.8596883416175842 0.0020893821492791176 -0.0008682236075401306 0 0 0 0
206000000 -0.3168737590312958 -0.8416176438331604 0.0022369753569364548 -0.0013721613213419914 0 0 0 0
207000000 -0.358965128660202 -0.8217149376869202 0.002164517529308796 -0.001957555301487446 0 0 0 0
208000000 -0.4003322124481201 -0.7993302345275879 0.0019324813038110733 -0.0024916762486100197 0 0 0 0
209000000 -0.439241886138916 -0.7756243348121643 0.0015718499198555946 -0.0031217243522405624 0 0 0 0
210000000 -0.47714459896087646 -0.7496618032455444 0.0008709216490387917 -0.0035424232482910156 0 0 0 0
211000000 -0.5140859484672546 -0.7227622866630554 8.088164031505585e-05 -0.0037593459710478783 0 0 0 0
212000000 -0.5496785640716553 -0.6936373114585876 -0.0006439518183469772 -0.0036791563034057617 0 0 0 0
213000000 -0.5834261178970337 -0.6626130938529968 -0.0014160992577672005 -0.0034828530624508858 0 0 0 0
214000000 -0.6157376766204834 -0.6318380236625671 -0.001992620527744293 -0.0031084492802619934 0 0 0 0
215000000 -0.6469216346740723 -0.5978531837463379 -0.0024164123460650444 -0.0026382002979516983 0 0 0 0
216000000 -0.6758286356925964 -0.5620725750923157 -0.0026744427159428596 -0.002169627696275711 0 0 0 0
217000000 -0.7022932767868042 -0.5265176296234131 -0.0028467336669564247 -0.0017142398282885551 0 0 0 0
218000000 -0.7280277609825134 -0.48880526423454285 -0.0029400037601590157 -0.0013285912573337555 0 0 0 0
219000000 -0.7520418167114258 -0.4499168395996094 -0.003015645779669285 -0.0010520312935113907 0 0 0 0
220000000 -0.7736328840255737 -0.40948012471199036 -0.0030261799693107605 -0.0006096074357628822 0 0 0 0
221000000 -0.792716383934021 -0.3693079650402069 -0.0030369097366929054 -0.0002552662044763565 0 0 0 0
222000000 -0.8107215762138367 -0.3269464671611786 -0.0029528141021728516 0.00015937816351652145 0 0 0 0
223000000 -0.8256970643997192 -0.28437310457229614 -0.002940712496638298 0.0004144422709941864 0 0 0 0
224000000 -0.8393992781639099 -0.2402007281780243 -0.002853943035006523 0.0008082548156380653 0 0 0 0
225000000 -0.8506167531013489 -0.19739821553230286 -0.0026773707941174507 0.001087087206542492 0 0 0 0
226000000 -0.8592731356620789 -0.15270930528640747 -0.002535237930715084 0.00142664834856987 0 0 0 0
227000000 -0.8659889101982117 -0.10798308253288269 -0.002321053296327591 0.0016291849315166473 0 0 0 0
228000000 -0.8708166480064392 -0.06188265234231949 -0.00209099892526865 0.0018630968406796455 0 0 0 0
229000000 -0.8725894689559937 -0.016141358762979507 -0.0018616272136569023 0.0021044332534074783 0 0 0 0
230000000 -0.8728805780410767 0.028843408450484276 -0.001595168374478817 0.0022671781480312347 0 0 0 0
231000000 -0.8706246018409729 0.07479570806026459 -0.0013393405824899673 0.0024017738178372383 0 0 0 0
232000000 -0.8665028810501099 0.11857003718614578 -0.0009736958891153336 0.0025035934522747993 0 0 0 0
233000000 -0.8592306971549988 0.16447176039218903 -0.0006989073008298874 0.002501385286450386 0 0 0 0
234000000 -0.8503455519676208 0.209694042801857 -0.0004046708345413208 0.0025128284469246864 0 0 0 0
235000000 -0.8401159644126892 0.25351229310035706 -0.0001642899587750435 0.0025796638801693916 0 0 0 0
236000000 -0.8254335522651672 0.2983541190624237 0.00018897932022809982 0.0024561379104852676 0 0 0 0
237000000 -0.8096163272857666 0.34205344319343567 0.0004318198189139366 0.0023652948439121246 0 0 0 0
238000000 -0.7922338843345642 0.3834068179130554 0.0006471164524555206 0.0021994691342115402 0 0 0 0
239000000 -0.7718713283538818 0.4257535934448242 0.000777476467192173 0.0021309657022356987 0 0 0 0
240000000 -0.7502617835998535 0.46657419204711914 0.0009710825979709625 0.0019619474187493324 0 0 0 0
241000000 -0.7254853248596191 0.5055519342422485 0.001119573600590229 0.0019353367388248444 0 0 0 0
242000000 -0.6996970176696777 0.5440979599952698 0.0013162214308977127 0.0017596976831555367 0 0 0 0
243000000 -0.6713392734527588 0.5817405581474304 0.0015488788485527039 0.001551215536892414 0 0 0 0
244000000 -0.6406761407852173 0.6175440549850464 0.0016310540959239006 0.001291944645345211 0 0 0 0
245000000 -0.6090501546859741 0.6516672968864441 0.0016961293295025826 0.0010816482827067375 0 0 0 0
246000000 -0.5751771926879883 0.6844875812530518 0.0016431957483291626 0.0008994489908218384 0 0 0 0
247000000 -0.5384646654129028 0.7158924341201782 0.001584542915225029 0.0007674340158700943 0 0 0 0
248000000 -0.5013285279273987 0.7452338933944702 0.0016324054449796677 0.000623275525867939 0 0 0 0
249000000 -0.462577223777771 0.7718598246574402 0.0016759168356657028 0.000547340139746666 0 0 0 0
250000000 -0.42205604910850525 0.7977762222290039 0.0016709314659237862 0.00039680488407611847 0 0 0 0
251000000 -0.38020384311676025 0.8212391138076782 0.0017833830788731575 0.00021410081535577774 0 0 0 0
252000000 -0.3358830213546753 0.8421486020088196 0.0016919132322072983 3.682449460029602e-05 0 0 0 0
253000000 -0.293001651763916 0.8611058592796326 0.0016435664147138596 -0.00013772491365671158 0 0 0 0
254000000 -0.24623805284500122 0.87784343957901 0.0015920540317893028 -0.00018723029643297195 0 0 0 0
255000000 -0.1994665265083313 0.8912619352340698 0.0015846816822886467 -0.00031250156462192535 0 0 0 0
256000000 -0.15341177582740784 0.9028663635253906 0.0014802562072873116 -0.00042396504431962967 0 0 0 0
257000000 -0.10405654460191727 0.9122937917709351 0.001439967192709446 -0.0005111172795295715 0 0 0 0
258000000 -0.05584114417433739 0.9186422824859619 0.0013102106750011444 -0.0006505623459815979 0 0 0 0
259000000 -0.005983728915452957 0.923098087310791 0.0011392291635274887 -0.0007337415590882301 0 0 0 0
260000000 0.04299274459481239 0.9242326617240906 0.0011475039646029472 -0.0007218522951006889 0 0 0 0
261000000 0.09256275743246078 0.9228670597076416 0.0011167488992214203 -0.0007576402276754379 0 0 0 0
262000000 0.14233559370040894 0.9186624884605408 0.0010076500475406647 -0.0007943399250507355 0 0 0 0
263000000 0.19128191471099854 0.9115904569625854 0.0009950380772352219 -0.0008665528148412704 0 0 0 0
264000000 0.24052906036376953 0.9015383720397949 0.0009025521576404572 -0.000960061326622963 0 0 0 0
265000000 0.28831589221954346 0.8900142908096313 0.0008784765377640724 -0.0010104645043611526 0 0 0 0
266000000 0.3369041085243225 0.875139057636261 0.0008576987311244011 -0.0010635582730174065 0 0 0 0
267000000 0.38404539227485657 0.8578445315361023 0.00077015720307827 -0.0011516110971570015 0 0 0 0
268000000 0.4304981231689453 0.8364424705505371 0.0006285561248660088 -0.0011964216828346252 0 0 0 0
269000000 0.47516530752182007 0.8143489360809326 0.0004737330600619316 -0.0012279320508241653 0 0 0 0
270000000 0.5187459588050842 0.787794291973114 0.00041774194687604904 -0.0012509757652878761 0 0 0 0
271000000 0.5614782571792603 0.7613465785980225 0.00038654450327157974 -0.0012877490371465683 0 0 0 0
272000000 0.6023992896080017 0.7314655780792236 0.00021647941321134567 -0.001236526295542717 0 0 0 0
273000000 0.6414082646369934 0.6990322470664978 0.0001236824318766594 -0.001231650821864605 0 0 0 0
274000000 0.6780776381492615 0.6649755239486694 9.503308683633804e-05 -0.0011756084859371185 0 0 0 0
275000000 0.7132783532142639 0.6282877922058105 5.55599108338356e-05 -0.0011675115674734116 0 0 0 0
276000000 0.7466797232627869 0.5894345045089722 -1.249462366104126e-05 -0.0012422865256667137 0 0 0 0
277000000 0.7782987952232361 0.5492453575134277 -0.00010678358376026154 -0.0012856163084506989 0 0 0 0
278000000 0.806387186050415 0.5081257224082947 -0.00020347163081169128 -0.0012404602020978928 0 0 0 0
279000000 0.8332827091217041 0.4638572335243225 -0.0003042910248041153 -0.001206560991704464 0 0 0 0
280000000 0.8571606874465942 0.4195977449417114 -0.00035862717777490616 -0.0011768415570259094 0 0 0 0
281000000 0.8781037926673889 0.3736702799797058 -0.00042854808270931244 -0.0011595170944929123 0 0 0 0
282000000 0.897350013256073 0.3259659707546234 -0.0004643946886062622 -0.001118617132306099 0 0 0 0
283000000 0.9135737419128418 0.2782728970050812 -0.0005593448877334595 -0.0010996097698807716 0 0 0 0
284000000 0.9270139336585999 0.22915774583816528 -0.0005723200738430023 -0.0010771360248327255 0 0 0 0
285000000 0.9371119141578674 0.17952001094818115 -0.0006689215078949928 -0.0010629398748278618 0 0 0 0
286000000 0.9456573724746704 0.1307770013809204 -0.0007854020223021507 -0.0010417001321911812 0 0 0 0
287000000 0.9505183100700378 0.08049649000167847 -0.0008345590904355049 -0.0009438460692763329 0 0 0 0
288000000 0.9534237384796143 0.029671847820281982 -0.0009363293647766113 -0.0008484227582812309 0 0 0 0
289000000 0.9529597759246826 -0.020911511033773422 -0.0009350180625915527 -0.0008595166727900505 0 0 0 0
290000000 0.9492563009262085 -0.07057036459445953 -0.0010050488635897636 -0.0007353220134973526 0 0 0 0
291000000 0.9431148767471313 -0.12134112417697906 -0.001100177876651287 -0.0006982134655117989 0 0 0 0
292000000 0.93545001745224 -0.16860303282737732 -0.001131453551352024 -0.0006358008831739426 0 0 0 0
293000000 0.923101544380188 -0.21884915232658386 -0.001186947338283062 -0.0005237143486738205 0 0 0 0
294000000 0.9097281694412231 -0.2655618190765381 -0.0011699367314577103 -0.00048497598618268967 0 0 0 0
295000000 0.8933292031288147 -0.31193509697914124 -0.0011953655630350113 -0.0003952551633119583 0 0 0 0
296000000 0.8744789361953735 -0.3584836721420288 -0.0012027043849229813 -0.00029422808438539505 0 0 0 0
297000000 0.8532953858375549 -0.40420103073120117 -0.0011585988104343414 -0.00022712256759405136 0 0 0 0
298000000 0.8298109769821167 -0.44550201296806335 -0.001173599623143673 -0.00018870271742343903 0 0 0 0
299000000 0.8038997054100037 -0.48810896277427673 -0.001286773942410946 -0.0001378217712044716 0 0 0 0
300000000 0.7755089402198792 -0.5274643301963806 -0.0012995507568120956 -5.242973566055298e-05 0 0 0 0
