!Keysight Technologies N9923A: A.08.15
!Date: Tuesday, 20 February 2024 21:55:21
!Timezone: (GMT-05:00) Eastern Time (US & Canada)
!Model: N9923A
!Serial: MY52412730
!GPS Latitude: 
!GPS Longitude: 
!GPS TimeStamp: 0001-01-01 00:00:00Z
!GPS Seconds Since Last Read: 0
!CHECKSUM:1934279338
!Correction: S11(ON Q)S21(ON Q)S12(ON Q)S22(ON Q)
!S2P File: Measurements:S11,S21,S12,S22:
# Hz S DB R 50
1500000000	-17.4605415631187	138.805863087359	-48.9331387819444	52.7930420326907	-49.1737481043818	51.0140014512599	-15.1914963563526	-141.553330539796	
1500450000	-17.419451122	135.646057281247	-48.8438294309335	46.5441001381515	-49.2248701038534	44.9070188133433	-15.070828230567	-144.776202613812	
1500900000	-17.3895048943824	132.453054736857	-48.8718345866494	41.3646028216043	-49.2659679698948	38.445521763491	-14.956769608097	-148.007514088025	
1501350000	-17.362827230692	129.264726423922	-48.7726768330051	35.1394103380427	-49.1388811298766	32.8917228672383	-14.8477754165678	-151.199321031347	
1501800000	-17.3479183893311	126.070726040638	-48.8476615670766	29.2724375193046	-49.0346961978504	25.8902799817675	-14.7442207666208	-154.382656491789	
1502250000	-17.3263402757073	122.894064708659	-48.6924305649475	22.7649214969601	-49.1051166069054	21.1221878712883	-14.6424854944892	-157.528016769923	
1502700000	-17.3141415960219	119.753578911373	-48.6924377888444	17.9243885278605	-49.00431642096	14.3681033894347	-14.5479625643674	-160.675157588391	
1503150000	-17.2982516819058	116.658599516766	-48.5623825058111	11.5016962754336	-48.9793596057827	8.42493448388256	-14.4592298487866	-163.768158661857	
1503600000	-17.2803772440332	113.562243729297	-48.7061084448411	5.25989144724899	-48.9533772625432	1.40382295445172	-14.3741573989929	-166.836295361922	
1504050000	-17.2672992221018	110.449144175267	-48.5581645061911	-0.68404671316588	-49.0560526499844	-4.60521643538881	-14.291954959347	-169.853460590785	
1504500000	-17.2432748398624	107.311846810525	-48.4985754707073	-7.79266872800357	-48.9740065475502	-10.5976810188285	-14.2136588979583	-172.839738427861	
1504950000	-17.223056942525	104.109183482647	-48.3178319908103	-13.1412114783994	-48.9097951210814	-16.7840969298861	-14.1352644152746	-175.771060307184	
1505400000	-17.2073784033046	100.917223667981	-48.3315339008121	-18.9886308428023	-48.8717308280135	-23.6825172068501	-14.0557080182784	-178.706934967783	
1505850000	-17.1974396210617	97.6853649218268	-48.4743856972544	-27.0752000732507	-48.7791958592218	-29.809959082225	-13.9817138704241	178.339887394965	
1506300000	-17.1838069059517	94.4086880335232	-48.3639238748165	-32.6628075439485	-49.0096473765811	-36.2133809109204	-13.9075698381586	175.423873138407	
1506750000	-17.1815669319383	91.1338492298807	-48.4777965275302	-39.3369199929768	-49.0194691989806	-42.396223609231	-13.8386233635624	172.502360396384	
1507200000	-17.1786394929099	87.8490581226524	-48.5432520933332	-45.5341045283274	-49.037878879675	-48.8661222290933	-13.7769015273971	169.616751486138	
1507650000	-17.1766227348699	84.5415540172682	-48.5606600300946	-50.7823626296522	-49.0368943115326	-54.4448429189893	-13.7158606439459	166.706138977211	
1508100000	-17.1775880907473	81.2261742440483	-48.5694364668067	-56.7375437337577	-49.0192427405259	-59.5115527318756	-13.6561066709568	163.841828277684	
1508550000	-17.1843250146296	77.9041079706665	-48.397213565852	-61.9590825265121	-48.7859036763928	-65.0597046069595	-13.6033946456427	160.927535243926	
1509000000	-17.193343940691	74.544284166112	-48.3794107581013	-67.7675249490278	-48.7144970837363	-72.0828629083751	-13.5582351009047	158.070470156822	
1509450000	-17.2067249514051	71.1694550084786	-48.2461402172609	-73.5350821382242	-48.7872310651143	-78.3285635456723	-13.5147952821816	155.209615410635	
1509900000	-17.2163349867138	67.810969989745	-48.1587264734128	-79.7211542616137	-48.6468849569785	-84.8103076905413	-13.4801211280962	152.395257200204	
1510350000	-17.2344774997586	64.453886246331	-47.9990536926597	-86.8200360884281	-48.3720977397137	-91.6446578385252	-13.443442556244	149.544450759833	
1510800000	-17.2456831122668	61.0742287958377	-47.778501877534	-93.9407086619898	-48.3437754912715	-98.0244750277675	-13.4141785597863	146.768067463272	
1511250000	-17.2551711298004	57.6492126362002	-47.6753990542293	-100.791454606836	-48.3109612942995	-105.235484636491	-13.3837045838355	143.977591190384	
1511700000	-17.2614775796824	54.205744400119	-47.6240733833617	-107.757404896993	-48.258025151526	-111.298102611086	-13.3552246722771	141.171813841141	
1512150000	-17.2675849824312	50.721970014686	-47.6033920363235	-115.571778140598	-48.2156636343029	-119.232742283846	-13.3322741652633	138.390520144677	
1512600000	-17.2810766156804	47.2175614249958	-47.4991705516871	-123.424546184101	-48.2324451524435	-127.241833955801	-13.3094422623087	135.590197913353	
1513050000	-17.2888521583257	43.623413475942	-47.5124249498992	-131.005539299802	-48.168210282957	-134.799534385267	-13.2938351068655	132.764522424615	
1513500000	-17.2972102734908	40.0378146563683	-47.7511798022805	-139.151785403496	-48.3531151402276	-142.880336613541	-13.2826296807607	129.968864917757	
1513950000	-17.3149102877645	36.387939121213	-47.9405133090255	-146.600010404252	-48.462407238023	-150.389939135808	-13.2782016556026	127.156261430948	
1514400000	-17.3329772087135	32.7543514602182	-48.1013080540099	-154.422915150059	-48.8792749393965	-157.307707248203	-13.2741943285584	124.373088601787	
1514850000	-17.3548429013863	29.0945929961602	-48.3190814963742	-160.743277992441	-49.1100679573469	-164.326392428262	-13.2724820955985	121.614788502274	
1515300000	-17.3796056541233	25.4228028190276	-48.3989004923674	-167.66028497963	-49.4085475721442	-170.884157578048	-13.2703865330741	118.823821702903	
1515750000	-17.4041936902751	21.7751240204271	-48.7283837137139	-174.566202259982	-49.8030633308584	-177.046833808549	-13.2733050882571	116.06546584966	
1516200000	-17.4273166915075	18.1213469007171	-49.0960444856449	178.373809968094	-50.0713636074255	176.409584496171	-13.2707638856403	113.261368447005	
1516650000	-17.4443673875023	14.451531063024	-49.4163471934723	173.257623092153	-50.543624194166	171.49477512757	-13.274389987891	110.444826631454	
1517100000	-17.4618255095567	10.7942300686234	-49.8483126580448	169.76034058816	-50.9281480747934	168.453705279931	-13.2791425416314	107.581382385062	
1517550000	-17.4728014996426	7.12731158230724	-50.1129401428993	165.250116605854	-51.0735515418726	164.236876361283	-13.2903414915061	104.694624106491	
1518000000	-17.4693702243055	3.40902779161801	-50.1345248762661	160.794609927678	-51.1459571672551	161.354375823311	-13.3079733886095	101.77999796761	
1518450000	-17.4521760072245	-0.268769230363725	-49.9927568608129	155.295625588633	-50.9415453629369	156.932472010893	-13.3281511859605	98.8476007276293	
1518900000	-17.4802495623666	-3.95756493625816	-50.0213019962852	151.374974678903	-50.8432808493291	151.08646589341	-13.3502529053954	95.9156855227373	
1519350000	-17.4963770169852	-7.71256106622151	-50.1228221117683	145.412537342306	-50.8002593191863	144.972905960726	-13.3809200206305	92.9243784115949	
1519800000	-17.4873606147396	-11.4301373846455	-49.9535126971013	140.238593782046	-50.939417959752	140.585360204183	-13.4170583658583	89.9113075451261	
1520250000	-17.4794679391189	-15.1745594328885	-49.9011487120232	135.346894445775	-50.7776567830467	135.51322019313	-13.4570155368078	86.9066832872293	
1520700000	-17.45926128936	-18.9511965074379	-49.8028486278506	131.455787778277	-50.7885828731278	130.67635607679	-13.5011568229898	83.8073327976813	
1521150000	-17.4386293629438	-22.7301416489262	-49.5409115303805	125.55234691161	-50.5101952714703	125.819958330035	-13.5500930450663	80.7398032340901	
1521600000	-17.4069932833699	-26.5044194421124	-49.1366456017142	119.053536911494	-50.299743815247	120.525245027314	-13.6144644277814	77.6684673775267	
1522050000	-17.3726800637862	-30.313364268791	-48.8713939532647	113.035872332784	-50.0372164873223	113.816003041378	-13.6749466904896	74.5652168170137	
1522500000	-17.3403632771692	-34.1387752707328	-48.6463212214164	105.632213522021	-49.8012656369762	106.32859977473	-13.7377914791798	71.4596416552299	
1522950000	-17.2939965286851	-37.9179881058173	-48.5034162869112	96.8554333634922	-49.6052770223928	98.9500091207115	-13.8010535294629	68.3597058660523	
1523400000	-17.2448931082142	-41.7224902982548	-48.540563813057	88.431787646678	-49.5508686779792	90.235793280357	-13.8731423730009	65.2057337931279	
1523850000	-17.189057223409	-45.5406953690133	-48.5926151799796	80.1603243981612	-49.6833704622036	81.8561510250372	-13.9424392517114	62.0450445719429	
1524300000	-17.1317285125699	-49.393175533596	-48.7137261236157	72.0839004959799	-49.7714987605712	73.9609810428027	-14.018562570608	58.8206196907372	
1524750000	-17.0647242816007	-53.2926004592356	-48.9468290547554	64.39639970189	-50.1129212541959	66.255045638849	-14.0882255898725	55.5822490467327	
1525200000	-17.0068471490674	-57.165437035523	-49.108600230339	58.1460384029448	-50.3098951771711	60.1731569161524	-14.1670161711238	52.3012427000492	
1525650000	-16.9481772146386	-61.0493968597564	-49.1816300695404	50.9712143923227	-50.3799496836339	53.266086608243	-14.2490897667142	48.9833709382752	
1526100000	-16.8844815444222	-64.9219671433605	-49.2769368781082	43.3328981715161	-50.6755138842314	45.884634696123	-14.3290492994886	45.6503492056785	
1526550000	-16.8248071915529	-68.8044652628902	-49.7251815394599	35.436295768252	-50.8344176769213	38.0550903137448	-14.4091438665701	42.2675821306397	
1527000000	-16.7541727051265	-72.6211984271529	-49.9442780498359	28.517903168571	-51.0201556925319	30.8148256284175	-14.4934882248653	38.8204982785521	
1527450000	-16.6711640215262	-76.4173996402912	-50.4448329577239	20.964209886982	-51.6486095996521	23.4825997147236	-14.5729115270496	35.3592873999475	
1527900000	-16.6035809893934	-80.1598523913495	-50.6464565583986	12.4467456493576	-51.8668419087878	17.3075015440964	-14.6590367729223	31.8328296100132	
1528350000	-16.5360416310352	-83.898873746233	-51.1995188100229	7.16248356120741	-52.5165504291479	11.6710043761706	-14.742164104111	28.2349173084931	
1528800000	-16.4692851658657	-87.6127661076181	-51.6777369971195	1.50154636665119	-52.8853530115754	5.8108645978032	-14.8284636412047	24.5921987757958	
1529250000	-16.393871758702	-91.2614223582222	-52.240857571247	-5.33801008537156	-53.1684512708395	1.41576326635151	-14.9150744457179	20.9016717627954	
1529700000	-16.3211636661339	-94.9448533804928	-52.3605855273962	-8.44855443895163	-53.5547084076035	-2.27807379200403	-15.0016055712543	17.1749266554642	
1530150000	-16.2376298205089	-98.5851784998642	-53.0444551643068	-13.8451491145067	-53.8342202000673	-8.04376510056485	-15.0893843013701	13.3574810603275	
1530600000	-16.1604291287989	-102.208844248499	-53.538951996617	-19.8221628691395	-54.1744936714209	-13.5103296807391	-15.1730953547229	9.56094062977553	
1531050000	-16.0759137327376	-105.84564595737	-53.8281593618654	-23.7270269193349	-54.6236735405964	-19.8778174885735	-15.2557129181069	5.63363174010848	
1531500000	-15.9929658417716	-109.522220812036	-54.379065827225	-28.9909733484875	-54.8225235861802	-25.3580596078365	-15.3437024673558	1.70503369075849	
1531950000	-15.9126805843194	-113.18573709892	-54.5425312144184	-34.6383420666609	-55.4835679905644	-30.2942226697859	-15.4252400347029	-2.24371235696727	
1532400000	-15.8258730416834	-116.791950725175	-55.4872869694055	-36.6412104587629	-55.9841378260214	-34.3297465232439	-15.5080444845218	-6.21792173577921	
1532850000	-15.7552714615756	-120.40050514303	-55.8709818041847	-38.6151556581519	-56.4021759904503	-34.2842039380385	-15.5842847600628	-10.251787153715	
1533300000	-15.687898237204	-123.965812252241	-56.1465410866554	-37.7596656803732	-56.7073212195723	-35.019614834885	-15.6497237611938	-14.2833262297881	
1533750000	-15.6191701786994	-127.501980704113	-55.8301951011099	-36.5776228985324	-56.6259427688669	-35.3732787236042	-15.7122561454698	-18.3720458353329	
1534200000	-15.5473387285579	-130.966965805852	-55.9474507558521	-37.540785162214	-56.4429257465738	-37.7259531833802	-15.7592831874363	-22.4956811540279	
1534650000	-15.4758871282856	-134.405512135114	-55.3799796971409	-40.1231153102865	-55.9320578957918	-36.3339219454213	-15.8058269684038	-26.6278141987701	
1535100000	-15.4022666289718	-137.830942178538	-54.7570661106304	-45.2421384268131	-55.5874546428556	-39.0778077545191	-15.8390815889821	-30.7794576721018	
1535550000	-15.3284898959666	-141.225762846962	-54.1956852636745	-49.2288327509056	-54.803271506172	-45.6638512738961	-15.8694899623571	-34.9947204366429	
1536000000	-15.2490390364471	-144.577283888091	-53.7506492248425	-54.7222112005818	-54.2724606920684	-50.128463376818	-15.8899443814053	-39.2210599457049	
1536450000	-15.1789759252254	-147.96605784124	-53.6191124477628	-60.8439792976821	-53.9633869280948	-55.4137964288871	-15.8983164960939	-43.4673098657281	
1536900000	-15.1039875185375	-151.318255394501	-53.2312930145695	-66.7825437485022	-53.4746466228592	-61.5857767130097	-15.9060349265054	-47.7101051515095	
1537350000	-15.0363719019064	-154.715226227873	-52.8860383936284	-72.9623030630673	-52.9708579946655	-68.0974765978502	-15.8944059861816	-51.9294096708703	
1537800000	-14.9683528441273	-158.075514452751	-52.3368276433228	-82.0577744657483	-52.5779380365056	-77.9894881195372	-15.877755940885	-56.167547738439	
1538250000	-14.9087179964598	-161.405838912811	-52.368831547025	-89.0180836869238	-52.4692291531019	-85.5311803672264	-15.8476076651613	-60.4124943435265	
1538700000	-14.846341193568	-164.743981925365	-52.2804177757483	-98.7245328724106	-52.5205744953442	-95.5028915333316	-15.8107109955223	-64.6347590872889	
1539150000	-14.7855518091376	-168.020507214419	-52.5444517093558	-106.580068894772	-52.4615202198941	-102.363598412995	-15.75960297646	-68.828949009678	
1539600000	-14.7267313040072	-171.25666534058	-52.6062861504211	-114.711691799242	-52.9633921577809	-110.481309853711	-15.7074988553503	-73.0380793019472	
1540050000	-14.667145077669	-174.509201128307	-53.3061166472051	-123.665143357485	-53.2093724271522	-116.604112392659	-15.638373859858	-77.2182869602531	
1540500000	-14.6092600989674	-177.749692989505	-53.503415893381	-126.377440905779	-53.3847671947988	-122.704922381955	-15.5667844400247	-81.3447332798449	
1540950000	-14.5497733100356	179.019423456597	-54.0242997428997	-133.795328496748	-53.7312719402597	-127.645420277883	-15.4843107062979	-85.4722696226106	
1541400000	-14.4958294717388	175.824751486622	-54.3895697194327	-138.144272750407	-54.1153519442258	-131.329853262412	-15.3932558779748	-89.5504622458258	
1541850000	-14.4374146045538	172.606248049274	-54.6867393424528	-140.855963023306	-54.1407925573426	-134.130886518814	-15.2992505886829	-93.614918685035	
1542300000	-14.3855545724458	169.401453469278	-54.5279420384899	-143.057692149626	-54.209573237526	-139.11378777799	-15.1950217882595	-97.6634676471183	
1542750000	-14.3344144563359	166.19996350051	-54.1189950537189	-146.660359221853	-53.8647869448507	-142.506369931605	-15.086944556981	-101.661007494753	
1543200000	-14.2808144630392	162.994700601666	-54.2437902165197	-150.477937267904	-53.8431366417541	-144.797499999535	-14.9762361141167	-105.643583013761	
1543650000	-14.2284429936118	159.812287606541	-53.7959765399435	-154.800580836339	-53.6329613928965	-149.955275967253	-14.8676454995382	-109.613044690308	
1544100000	-14.1776123588181	156.590309120573	-53.319544129042	-158.212000013303	-53.2189837111255	-154.832288496423	-14.7568901346333	-113.510765882672	
1544550000	-14.1235531381757	153.381256111287	-53.1869996737304	-164.733314077265	-52.751429630744	-160.702529586737	-14.6446762899989	-117.364324371393	
1545000000	-14.0819650563179	150.118357799147	-52.4930965986127	-171.227866753454	-52.1632093793625	-166.916689777319	-14.5303773435284	-121.167735065975	
1545450000	-14.0398862322198	146.861277593559	-52.0188457658807	-177.34249859487	-51.9268209234638	-173.79102989256	-14.4175291199706	-124.911511991851	
1545900000	-14.00188829596	143.620898856499	-51.7078213912821	173.788375524903	-51.5128215726907	178.432844173454	-14.3032408650816	-128.597900707055	
1546350000	-13.9737856295584	140.363923740381	-51.323345445789	167.261628515548	-51.2349251848991	170.706931521208	-14.1864481595513	-132.24955915628	
1546800000	-13.9436686345118	137.125459639115	-51.080283593899	157.688285889864	-50.9401086051941	162.971883167885	-14.0662784563338	-135.911150219294	
1547250000	-13.9154152351701	133.907945381115	-50.9249757843158	149.554696748986	-50.6598958441312	155.366251165683	-13.9512384917052	-139.495072958422	
1547700000	-13.8847169669037	130.669622767146	-50.6864692458289	140.291011773448	-50.641167177375	146.103671251367	-13.8408560892612	-143.046003193983	
1548150000	-13.8618707800224	127.449322074082	-50.5740555797425	131.422053946232	-50.6885763522851	136.875896976072	-13.7302361361593	-146.5516390023	
1548600000	-13.8402413659022	124.182660583839	-50.7289802726443	124.18500739205	-50.486097665354	128.432619965327	-13.6268667786814	-150.002608980038	
1549050000	-13.8228481419424	120.945817302476	-50.6226878466455	113.725316809614	-50.4768036078368	120.051621069588	-13.5235152961556	-153.442083703184	
1549500000	-13.8033474236321	117.684683374219	-50.8615541887756	105.478962920348	-50.515865260529	110.928473417842	-13.4220715017855	-156.80200475118	
1549950000	-13.7923137299782	114.413972716871	-51.1024522019103	96.4611204815368	-50.7146936055199	102.468817576536	-13.3184196681695	-160.111873218654	
1550400000	-13.7857647797098	111.158050135893	-51.2345426036081	88.7507701324023	-50.8411182191244	92.9705347567657	-13.2195853940303	-163.423882364528	
1550850000	-13.777017480604	107.913246064036	-51.3049837750285	79.7124027127291	-51.1093150080043	84.4758757555739	-13.1246151631912	-166.677499804556	
1551300000	-13.7684149209232	104.637454696936	-51.7486069823909	71.0816476100743	-51.3145587134463	74.4668731573123	-13.0312442829779	-169.907677005067	
1551750000	-13.7653598065859	101.378437714677	-52.2175141150234	63.4506802658783	-51.7504781183498	67.4023911196309	-12.9378094122384	-173.100377506978	
1552200000	-13.7603997236951	98.1085279219316	-52.7712441299632	56.3273571935768	-52.0164041703133	59.4353865395244	-12.8508777446668	-176.268025406875	
1552650000	-13.7555928142857	94.802638949355	-52.8120236010797	48.9641265527476	-52.2669603381807	52.2432581704964	-12.7640135932893	-179.403351221752	
1553100000	-13.7560926593596	91.4787442492049	-53.0895257070757	43.0466658491337	-52.5567640210567	44.5904264290447	-12.6778018540508	177.477040708664	
1553550000	-13.7594333077791	88.1712581956996	-53.2906675093062	36.0152185602389	-53.0226153331855	36.0447434972923	-12.596284000506	174.376560699663	
1554000000	-13.7608082448272	84.8611942473259	-53.5540722518515	29.1777761147602	-53.0973614628326	26.8353190655101	-12.5191409770572	171.292558951426	
1554450000	-13.7652657091731	81.488457572674	-53.6988753390242	20.4567440446276	-53.4781439936571	17.5079517724659	-12.4426944201422	168.226075877389	
1554900000	-13.7705064940935	78.1466553066106	-53.9380392035332	12.5137213586977	-53.8035306489389	10.9852891855022	-12.3693222262973	165.17508932389	
1555350000	-13.7804182461289	74.7360993771276	-54.2943178907135	4.95408097085981	-54.1057854055087	2.99815891707999	-12.3051965371782	162.11022691173	
1555800000	-13.7929075954625	71.3369060466854	-54.3880851733687	-3.62481388670036	-54.4992469192051	-7.27516859850071	-12.246392837956	159.057995803807	
1556250000	-13.8103270713236	67.9356960979789	-54.7828715524397	-12.9614650483478	-55.1042757859718	-17.2487892833502	-12.1862940264185	156.022824988779	
1556700000	-13.8279760635665	64.5246631794605	-55.0244577824093	-21.8079895233941	-55.6246306553887	-25.3431026477457	-12.1378669476739	153.014149508316	
