!Keysight Technologies N9923A: A.08.15
!Date: Tuesday, 20 February 2024 22:07:49
!Timezone: (GMT-05:00) Eastern Time (US & Canada)
!Model: N9923A
!Serial: MY52412730
!GPS Latitude: 
!GPS Longitude: 
!GPS TimeStamp: 0001-01-01 00:00:00Z
!GPS Seconds Since Last Read: 0
!CHECKSUM:1854465804
!Correction: S11(ON Q)S21(ON Q)S12(ON Q)S22(ON Q)
!S2P File: Measurements:S11,S21,S12,S22:
# Hz S DB R 50
1500000000	-17.9897339027027	148.678437629806	-48.2475245412583	46.83420738089	-48.7629023319421	48.7191111894913	-14.9787937204952	-142.449679853842	
1500450000	-17.9267015234751	145.435421225068	-48.4166378135047	40.60858394877	-48.7067329846111	42.382406231229	-14.8528823197453	-145.713022007496	
1500900000	-17.8753234085082	142.212207660952	-48.386981299375	32.5560251473829	-48.7174810455894	35.4536477221711	-14.7385125291775	-148.958927893071	
1501350000	-17.8249695455138	138.961677815786	-48.3805119349403	26.4610204112992	-48.7971480409876	29.5243954613849	-14.6198371336532	-152.164235386872	
1501800000	-17.7788982751308	135.715848680629	-48.363426366312	21.3114713417351	-48.8301868863559	24.3000802148935	-14.5088884349324	-155.365128897016	
1502250000	-17.7359385409406	132.54813850225	-48.4345516493094	15.5272329080648	-48.8605433713938	19.376818249193	-14.4022935381892	-158.551391076166	
1502700000	-17.704591010537	129.352485116687	-48.4091164439592	10.1156290347878	-48.8050057856216	13.5102754695676	-14.2993501295811	-161.71268273729	
1503150000	-17.6723431778531	126.256222665966	-48.2603013142715	3.51611851546079	-48.6769431338233	7.62805452367799	-14.2053332741331	-164.84055894071	
1503600000	-17.6325601720534	123.155928197681	-48.2326411054083	-2.06622437489224	-48.4388670581811	2.2399125222936	-14.1164481384676	-167.922370972294	
1504050000	-17.58984542659	120.069440999856	-48.1774647071209	-8.21987614366548	-48.3815319913769	-4.48664881954643	-14.0336714365216	-170.975531314925	
1504500000	-17.548245208949	116.946630059691	-48.1090396278327	-15.0591207415943	-48.2667638584513	-10.817948768834	-13.9508289429624	-173.993634397098	
1504950000	-17.5044214718408	113.771489309211	-47.9979153641938	-21.6543298258402	-48.1536925232601	-17.7364501565671	-13.8691019887715	-176.975348991881	
1505400000	-17.4623331279443	110.573754116924	-48.1010837864864	-28.6532004253418	-48.0422884147485	-24.7298266350658	-13.784577655968	-179.915638309748	
1505850000	-17.4285551458539	107.31767796875	-48.0311174214617	-35.7748256392355	-48.0714954411495	-32.2483661581752	-13.70675183657	177.111614404991	
1506300000	-17.4009882459307	103.986656035679	-48.2188172965074	-42.5822745717429	-48.0680989139074	-38.8631348732945	-13.6319814603103	174.17207872801	
1506750000	-17.3756033377483	100.710041844243	-48.3004804387816	-48.365780870947	-48.1534202124843	-45.3914985104037	-13.5572652673904	171.231467215673	
1507200000	-17.3597838291331	97.4396820088268	-48.38282926495	-55.0078877073982	-48.4995287983029	-50.8436944152688	-13.4959454166012	168.338877260042	
1507650000	-17.3488740562692	94.0997986138859	-48.5215835815041	-61.5117562914839	-48.3582349759399	-56.769483138739	-13.4361715900001	165.405735108484	
1508100000	-17.3438873370572	90.810359050736	-48.5044195127341	-65.6096927544971	-48.4300415426736	-62.89522327403	-13.3770745721971	162.543721456541	
1508550000	-17.3367707777083	87.455531543534	-48.6105930467124	-71.6101318743569	-48.4345054972986	-68.4733845913833	-13.3257802023827	159.649857909934	
1509000000	-17.342269665023	84.081166085384	-48.4401885030589	-77.5510937470045	-48.2831198210253	-74.3645136742507	-13.2799703843241	156.790800475899	
1509450000	-17.3525160623666	80.7382342942181	-48.4630051183372	-83.8640619701149	-48.1627688481012	-80.7387082882114	-13.2363020906317	153.946588058348	
1509900000	-17.3603243792287	77.3748624187405	-48.2523444486271	-90.2967821880274	-48.1474454119442	-86.4311750576569	-13.1977533382603	151.142060165485	
1510350000	-17.3746227648665	74.026837186246	-48.2900918392171	-96.4999474796891	-47.9388240068692	-92.8366661476997	-13.1613389462897	148.326760840348	
1510800000	-17.3854578020628	70.6871096185375	-48.1368244492557	-102.739920474152	-47.9035497452864	-99.7172805420759	-13.1283636656185	145.53592925064	
1511250000	-17.4004979679762	67.2861898201535	-48.1891800938085	-109.646406033483	-47.8505356943535	-105.684991217138	-13.0982527231413	142.76034399211	
1511700000	-17.4048251690272	63.863125760556	-48.0989490708416	-116.970608865661	-47.7464347198752	-113.427839101146	-13.0688641199355	139.987944810328	
1512150000	-17.416791920869	60.3725774911183	-48.0322043629607	-124.229696886284	-47.7227400690679	-120.404672964256	-13.0445828807906	137.208608976718	
1512600000	-17.4341780392862	56.8324461092629	-48.0973360718698	-131.471842884584	-47.6880360306212	-127.829423437367	-13.0207498183684	134.400703296224	
1513050000	-17.4528531581066	53.2228633819826	-48.2678933085814	-137.729520975942	-47.6807892588483	-136.046013050894	-13.0090040136244	131.608258324266	
1513500000	-17.4762999386228	49.6455588336159	-48.3459199284659	-146.352829437907	-47.8029014745514	-143.460291904483	-12.9997324613311	128.818755177916	
1513950000	-17.5107386363795	45.95946374056	-48.3514382418656	-153.552460057852	-47.9271005571081	-150.813384184816	-12.9958609200792	126.026685540917	
1514400000	-17.5473293832404	42.3788757145633	-48.6081769277136	-160.815489672115	-48.0787497944795	-158.303350238912	-12.993901717431	123.249655135542	
1514850000	-17.5860375986851	38.6928096121875	-48.7866256235115	-166.65046186063	-48.3315056137584	-164.976951030067	-12.9936725659907	120.53601753375	
1515300000	-17.6311364839871	35.0581580658997	-48.995964128262	-174.262794412308	-48.5941953624148	-171.797311594885	-12.989393067922	117.769435024194	
1515750000	-17.6748453966861	31.4376586563092	-49.04046189778	178.263649197816	-48.7986512261771	-178.457437806684	-12.9942940269649	115.037653734878	
1516200000	-17.7089782201372	27.7692822448338	-49.5933081426236	171.777785904366	-49.2455540018	174.885939218059	-12.9902203273084	112.259961637545	
1516650000	-17.7528079799627	24.0882380154114	-50.0340443509909	166.258123799605	-49.7672682740909	169.332427974538	-12.9926177463272	109.449587442714	
1517100000	-17.7857579782784	20.4156525628015	-50.4719975282148	161.356345086733	-49.9837749749105	165.185031197289	-12.998164120452	106.623174638404	
1517550000	-17.8247795069441	16.7094572495071	-50.810102423342	157.498904868519	-50.1003437118091	161.099347081341	-13.0055127428792	103.722811438365	
1518000000	-17.8517246649834	12.9991137272488	-50.868211389637	153.788063629154	-50.158497489774	157.857047385797	-13.0214998509653	100.831366139024	
1518450000	-17.8853497365928	9.27189230104888	-50.7719359527279	150.459631129482	-50.0620645955756	152.136191770886	-13.0409622109781	97.9000032178577	
1518900000	-17.9052359934742	5.55679365126497	-50.7549134522278	145.055616655783	-50.0133178795952	146.345105053786	-13.0628160787637	94.954515114611	
1519350000	-17.9214773107362	1.8237063048052	-50.7192189285912	140.282808469641	-49.988077869778	141.205585627251	-13.1008272368645	91.9744732315191	
1519800000	-17.9255975195785	-1.90609232774423	-50.5766354337915	135.278516271691	-50.0098307864125	135.570328268253	-13.1405236092709	88.9631431530498	
1520250000	-17.9333916104062	-5.73491968321198	-50.5545924693471	131.135611107028	-49.8402428013518	129.238821382768	-13.1831317450612	85.9677964270883	
1520700000	-17.9269057240809	-9.59157649035676	-50.3278182299739	125.301181823923	-49.8626771949593	125.332361975016	-13.2324836955602	82.9244768139532	
1521150000	-17.9200049356761	-13.5318111062852	-49.9580485357789	120.811891241105	-49.7761385263107	117.946313818767	-13.2879364703146	79.8843395040993	
1521600000	-17.906644161959	-17.4454790149291	-49.7999905940186	114.13425889154	-49.5957432963398	111.349676770629	-13.3526611461731	76.8411669330487	
1522050000	-17.8905271509877	-21.3914924549754	-49.4929089659715	106.081735404343	-49.4866013290818	104.962972630363	-13.4135833767968	73.7516018142816	
1522500000	-17.8747064966794	-25.3798697324189	-49.3700069250742	97.129299603661	-49.4750891726771	97.1793819601732	-13.4843968826031	70.7159630127025	
1522950000	-17.8435288333006	-29.3186986331272	-49.5589619443528	90.1774953643751	-49.6921400359568	88.8949830955224	-13.5533934123056	67.6167079034636	
1523400000	-17.8173749472757	-33.3414481234185	-49.7248061021657	80.9409505713812	-49.7001956019786	82.1393848861972	-13.6258908629548	64.479207419105	
1523850000	-17.7759484485326	-37.337999035854	-49.7556511515324	73.9989840778299	-49.8543923423823	74.7264028858103	-13.697508448251	61.3346271980107	
1524300000	-17.731120348354	-41.3838576067756	-50.0419973131396	66.3550524013002	-50.2003416670763	66.7323505288526	-13.7759488222635	58.1541342797949	
1524750000	-17.6821912519971	-45.4798394784538	-50.639242036212	60.7045093871247	-50.2797494592089	61.0751123184623	-13.8491904598979	54.9565694364594	
1525200000	-17.631890802269	-49.5646925503583	-50.7411107831608	55.1900683962146	-50.6136540221819	54.448906706203	-13.929907803715	51.6614196254934	
1525650000	-17.5760200074211	-53.6621435946938	-50.7701990136503	49.3456570793014	-50.9400147192365	48.443246147322	-14.0105581458468	48.3896948002933	
1526100000	-17.5198012716592	-57.782480541482	-51.0453809922303	42.1238413485987	-51.2093513839416	41.5285376689148	-14.0956864247305	45.0206372402128	
1526550000	-17.4651609731207	-61.9200435180285	-51.0936738763251	35.7831332751828	-51.3885367891716	34.4726094165565	-14.1793243964588	41.6674012500593	
1527000000	-17.4091114657206	-65.9811402944093	-51.4076184755674	29.5669015390218	-51.7990213526845	27.9944886035197	-14.2659216641237	38.2060696971836	
1527450000	-17.3532972967818	-70.0483617430849	-51.7400808017146	22.7144503110094	-52.4229634915705	21.6537106263515	-14.3489146349439	34.7381991576929	
1527900000	-17.290424388599	-74.0586142680606	-52.4797356757318	17.004270619019	-52.5079665130915	17.5655295681531	-14.4377699932711	31.2110957664629	
1528350000	-17.2225861573709	-78.0254561124876	-52.5266880961682	13.9636605574532	-52.958409041285	12.8024821846488	-14.5231068106217	27.5892668436428	
1528800000	-17.1512624349144	-81.9677617935068	-52.8958602927281	7.10221508985331	-53.1935888149871	7.47179384453114	-14.6150217298771	23.9324447888574	
1529250000	-17.0677567388506	-85.8768636629944	-53.120895495197	1.14758586210399	-53.424524865517	3.70872169888509	-14.7080999627114	20.2258971964552	
1529700000	-16.9840578751678	-89.780414637318	-53.5319936802392	-3.3824827774201	-53.7210972656695	-2.13877297546031	-14.8030983171167	16.4606526291565	
1530150000	-16.8911467822147	-93.6744577819452	-53.9892705884779	-7.16778196493811	-53.7228266542645	-7.27672686129501	-14.8916179580887	12.6285036475411	
1530600000	-16.805625817029	-97.5499218763092	-54.1130084787023	-13.3673670799992	-54.0314550862481	-12.4992723993713	-14.984978181842	8.76468572446491	
1531050000	-16.7142299525039	-101.442651688083	-54.3569978110045	-15.9938404884151	-54.4852163120583	-19.1344399379383	-15.0813346079472	4.84844887404435	
1531500000	-16.6230892296458	-105.352346696423	-54.7862064775139	-20.6661722396013	-54.7435414469092	-22.9485866357412	-15.1741391183228	0.896937247122388	
1531950000	-16.5338723649555	-109.215521616583	-55.2908816952036	-27.0851985357995	-55.2517303900423	-27.6093319815861	-15.2641093839925	-3.07405101921035	
1532400000	-16.4428948137934	-113.031786485754	-55.7820142437876	-28.3032642266873	-55.6859026500143	-30.131285597641	-15.3536494741992	-7.08738629370282	
1532850000	-16.3561817725656	-116.84785885285	-56.0336749261147	-31.1145560012085	-56.1757750543303	-30.1546796350069	-15.4366025128325	-11.110933319233	
1533300000	-16.2795006779811	-120.586229386502	-55.9098984982655	-30.4894372273968	-55.9213104592066	-31.2100797228505	-15.5063257941091	-15.1857185463937	
1533750000	-16.1991589679762	-124.266758523174	-56.061909420113	-34.4860379015884	-55.6997136549063	-32.9294106311579	-15.5720453967724	-19.3125085241615	
1534200000	-16.1118331990008	-127.858841197795	-55.6199982920402	-35.6827444874184	-55.1806702687078	-36.6213948893765	-15.6265599997251	-23.4778518056593	
1534650000	-16.0303001245305	-131.460516266444	-55.3741084357968	-39.2915113101128	-55.071640984706	-40.5754715413688	-15.6784046242348	-27.6223701149042	
1535100000	-15.9416190415314	-135.008436832508	-54.912518945619	-43.7410274219628	-54.5023746226022	-44.6161325827103	-15.7158477785064	-31.8579335696399	
1535550000	-15.8488772595573	-138.564075364732	-54.6480117099082	-49.431414190259	-53.9198400936951	-49.5915598700167	-15.7437339004391	-36.1169932079938	
1536000000	-15.7568044777309	-142.019373332089	-54.3888955876909	-55.9321939916184	-53.5490385534159	-56.3683355446485	-15.7693573751217	-40.3784096197084	
1536450000	-15.6688454143988	-145.507372889322	-53.9037034287875	-62.8315562998343	-53.3837166477605	-63.0573616840662	-15.7813493079196	-44.6782085175903	
1536900000	-15.576070293429	-148.961298794034	-53.4632034960729	-69.0119863915927	-52.8940643540211	-68.376596786919	-15.7869779982522	-48.9860528284604	
1537350000	-15.4834394866055	-152.444518578277	-53.2696449539638	-75.7758138849968	-52.7416031741033	-75.679307113912	-15.7765949475358	-53.2623343846879	
1537800000	-15.393760431088	-155.886846549055	-53.1796380327049	-82.5703658236476	-52.3628695881175	-84.5533100127929	-15.7623067520745	-57.5431051337102	
1538250000	-15.3075983479316	-159.325926856087	-53.0204060562216	-91.0584663142912	-52.3094172635194	-91.1046795348435	-15.7361439292436	-61.8253356150361	
1538700000	-15.2203167388633	-162.738287112118	-52.9672057656636	-99.6965751820576	-52.3103984371294	-100.574894752858	-15.6965233436405	-66.0720572110039	
1539150000	-15.1430891112679	-166.135371387942	-53.0569943289394	-106.284899298553	-52.4268349497329	-109.820421766614	-15.6453672713026	-70.3268843696862	
1539600000	-15.0610364999809	-169.48394477969	-53.303900406258	-115.892628534599	-52.7432433950794	-116.772829014677	-15.5911457296186	-74.5510284577674	
1540050000	-14.9876353173596	-172.842831790274	-53.6603140974625	-122.789737136739	-53.0354233422645	-124.670740686399	-15.5163158549211	-78.7705729873607	
1540500000	-14.9110442630708	-176.160816718282	-54.1898567197796	-129.480475410127	-53.5338701671537	-131.821850872975	-15.4448756464064	-82.9708557991622	
1540950000	-14.8378851233323	-179.501509890536	-54.9678040801871	-134.789380026411	-53.921640879739	-137.770835906973	-15.3621181809323	-87.1057754349393	
1541400000	-14.7733338854681	177.237300319059	-55.4359820564466	-138.071466972397	-54.5674119944184	-142.569555272655	-15.26491900514	-91.2207028530646	
1541850000	-14.7083504491625	173.970601666563	-55.8050070068494	-137.791329461931	-55.1344497732562	-142.595239201576	-15.1689490976745	-95.2954171722278	
1542300000	-14.6455361451986	170.748306330358	-55.9078369914912	-141.108659528067	-55.3722519114174	-144.675877755717	-15.0599543577486	-99.3618746564564	
1542750000	-14.5846358737682	167.536564785945	-55.4447162657803	-139.343711519543	-55.4700589638159	-147.698946123319	-14.9485301057269	-103.39977286608	
1543200000	-14.5226820370169	164.356363537717	-55.0339855642747	-143.59252131188	-55.2085043485141	-147.304315193858	-14.8316377146491	-107.377914837135	
1543650000	-14.4562478111217	161.202244706722	-54.4837817378226	-145.422792445919	-54.5990047657323	-149.068147512445	-14.7135291395892	-111.349190107701	
1544100000	-14.3861003280632	158.007561437227	-53.6130285535853	-149.115614144109	-53.9472205529878	-153.871007371295	-14.5992559113257	-115.221415669201	
1544550000	-14.3129680687488	154.806553174592	-53.049241562587	-154.576756341776	-52.9920579981515	-158.156456982056	-14.4820828297378	-119.087647402026	
1545000000	-14.2485436536629	151.551244264714	-52.2878986796737	-162.719952684424	-52.6378119544965	-165.270920965945	-14.3622382796443	-122.901325923788	
1545450000	-14.1942798552832	148.250698254395	-51.7488054827878	-170.521768351448	-51.8355168198998	-174.423384699908	-14.2434477470872	-126.638618823937	
1545900000	-14.1401875053558	144.982725028615	-51.0023861068212	179.627973226316	-51.5633064850819	178.462822281005	-14.1226358405715	-130.347473009523	
1546350000	-14.0987739654584	141.681306008768	-50.8031762596716	172.759818334338	-51.2465291434228	169.071527916303	-14.0008496801112	-134.00991858907	
1546800000	-14.0573861111076	138.446991059653	-50.5955008490179	161.877425381353	-50.9857450825022	161.546634826593	-13.8796407299573	-137.637023888757	
1547250000	-14.0220310838567	135.213673051892	-50.1640319437827	154.792597594024	-51.1282779091705	151.755715127431	-13.7601054433276	-141.204938274953	
1547700000	-13.982257411906	131.987473318679	-49.9852939885194	145.685458259741	-50.7403438905122	144.123498533556	-13.6476601152327	-144.741032230374	
1548150000	-13.9473447209838	128.748250040899	-50.0068229399617	137.488586961872	-50.6796267478807	136.003549014446	-13.5349194019922	-148.229010009604	
1548600000	-13.9124971818667	125.508493910867	-49.9741720145409	128.300995284176	-50.6922340393552	126.806987474758	-13.4273334314	-151.651450130659	
1549050000	-13.8875339930018	122.264008475135	-49.7711366584353	118.357238207607	-50.6923199686438	118.110435948887	-13.3165733227934	-155.065070839933	
1549500000	-13.8613419990848	118.991373282391	-49.7701867262641	108.703387230735	-50.6738636734578	109.179769938953	-13.2124673092611	-158.378987510943	
1549950000	-13.8451464090089	115.711934022554	-49.741739685835	100.271607881659	-50.5548177524689	99.3231761523138	-13.1030954127996	-161.682763697439	
1550400000	-13.830800055688	112.432691728678	-49.7148004919161	90.9886885262645	-50.7654483155346	89.8614957895284	-13.0062779420617	-164.946208333971	
1550850000	-13.8199344497853	109.183575138031	-49.9643779939844	81.4641358233116	-50.9472407421216	81.8322026444556	-12.9042271977085	-168.182649366921	
1551300000	-13.8149440407068	105.905186467918	-50.2163098808017	70.4902941994493	-51.3071869940591	73.5647170078014	-12.8071191968119	-171.404507354423	
1551750000	-13.8100047225129	102.670333422766	-50.6845389799597	62.2187246765052	-51.6051500924002	64.5458351109943	-12.7132619631192	-174.558080577243	
1552200000	-13.8066483607278	99.4442773533561	-50.9299732125436	53.5040818281069	-51.9896788656862	55.6412681502021	-12.6218838148053	-177.699731888251	
1552650000	-13.8005761465963	96.1423269412588	-51.2941150005529	43.7770005210076	-52.1955937462435	48.1262388719318	-12.5323044900766	179.195576896998	
1553100000	-13.8015997984843	92.885933193234	-51.7234274125998	35.3793223008307	-52.2784301110497	39.6452080895459	-12.4453295504982	176.106181981104	
1553550000	-13.8025360636321	89.605407523896	-52.1202783655132	26.8173921019342	-52.6765829073071	32.111417362504	-12.3582856781592	173.015352822263	
1554000000	-13.8045220378555	86.2958412641962	-52.3963656248842	20.1635432208409	-53.2981434527981	24.4981215362122	-12.2793758394571	169.957391581751	
1554450000	-13.8076002814132	82.9393024052058	-52.759303904387	11.3335800006008	-53.1374504248952	15.241605036279	-12.2024567389518	166.905478730153	
1554900000	-13.8161838224721	79.6116542135195	-53.135330733888	2.83549373266862	-53.323610346399	5.67633363744455	-12.1267062790903	163.851874449006	
1555350000	-13.8260639784382	76.2134558909909	-53.3388475247986	-5.25172120092476	-53.8137169240015	-1.09736357435697	-12.0622936626554	160.81648870852	
1555800000	-13.844496222294	72.8533105354769	-53.6313805432898	-13.7773476348552	-53.95458817032	-11.3991187111798	-12.0017383946949	157.773861191585	
1556250000	-13.862663352175	69.4638677131573	-54.2528577147391	-24.8070158640956	-54.523376936096	-20.625276716837	-11.9450612355895	154.737792290291	
1556700000	-13.8851346253574	66.0578418724999	-54.2918350798336	-33.3352389895428	-54.7180134423459	-32.7449791417244	-11.9017180127403	151.7537960407	
