!Keysight Technologies N9923A: A.08.15
!Date: Monday, 19 February 2024 15:47:40
!Timezone: (GMT-05:00) Eastern Time (US & Canada)
!Model: N9923A
!Serial: MY52412730
!GPS Latitude: 
!GPS Longitude: 
!GPS TimeStamp: 0001-01-01 00:00:00Z
!GPS Seconds Since Last Read: 0
!CHECKSUM:0265102417
!Correction: S11(ON Q)S21(ON Q)S12(ON Q)S22(ON Q)
!S2P File: Measurements:S11,S21,S12,S22:
# Hz S DB R 50
1500000000	-12.6664137570835	1.74010091528314	-59.0625178573941	7.99766927167268	-59.9239850875834	-0.800522662340261	-14.9504751738448	16.7196192869777	
1501125000	-12.6258559601276	-1.26753052186471	-58.8205809387904	-14.6335980342082	-60.1058295895472	-14.4235539893602	-14.8774788159784	13.5627921578663	
1502250000	-12.5853904364567	-4.19512453940039	-60.9773351134475	-8.89831326734725	-60.2480307950833	-33.1235342978425	-14.8540053321255	10.4815347707013	
1503375000	-12.5589770411858	-7.32530729760929	-59.1144490052038	-10.9478721751556	-63.6655791702781	-42.2573098701334	-14.8233133716743	7.55420352540219	
1504500000	-12.5382208371597	-10.3990392898309	-60.2490391385904	-28.6790791759305	-63.7934747212267	-40.1886049792036	-14.7771746971633	4.52311962565421	
1505625000	-12.5186932246515	-13.3784874630475	-60.1858546113606	-52.6653662235353	-59.4481435898186	-62.4634839658776	-14.7033140309054	1.78086605083161	
1506750000	-12.4825077204603	-16.4691100468264	-61.0507581665321	-81.4311114359089	-60.836088942716	-92.7393275315251	-14.6348516785458	-1.04963062752661	
1507875000	-12.4548261934456	-19.4452713893631	-59.8884386689787	-116.732887375776	-61.3879555192462	-123.664935499974	-14.5886052874016	-4.18962112107917	
1509000000	-12.4073686119487	-22.4872889261118	-59.3466388403682	-138.197385992393	-60.9446861974367	-155.729809910579	-14.4798496656562	-6.87050805848234	
1510125000	-12.3761592665542	-25.4491610424538	-59.6339706774012	-160.459857853226	-62.2991773173804	-170.582298508279	-14.4064541210801	-9.91868207865876	
1511250000	-12.3607947126187	-28.5039437324775	-57.3539068345045	-175.741346983703	-65.1959922143027	150.843626890834	-14.3552997591771	-13.210420212691	
1512375000	-12.3382694306367	-31.4732813061073	-57.1643213675409	168.707835755527	-60.3233906384569	150.05965579884	-14.2829600688482	-16.2813991180136	
1513500000	-12.3185012094145	-34.5584410463324	-57.5258333337327	136.897921595038	-62.1619949901477	135.653086735362	-14.2171990406051	-19.4788318353606	
1514625000	-12.2689257927862	-37.4511669979042	-56.1122348399269	124.751814544906	-61.8530428553866	100.323537931479	-14.1868870962322	-22.5581796368568	
1515750000	-12.2404838988447	-40.4882212106535	-57.9374465921045	108.364792741794	-64.6443002750299	87.8069973414405	-14.1531081787196	-25.4902373904489	
1516875000	-12.1801345776845	-43.415405820931	-58.1309526409099	81.7117144917308	-64.1584974276441	85.4838268701295	-14.0895038297925	-28.7350694240228	
1518000000	-12.144143202842	-46.6102779599397	-57.9530815913479	62.7779229099522	-61.6818949494595	49.0946763301312	-14.0274421649771	-31.8387945925044	
1519125000	-12.1226452847748	-49.7438560882564	-57.7871719823866	15.2476604453594	-62.9880847469328	40.7726962371907	-13.9689627444185	-35.0836273942479	
1520250000	-12.1138485742366	-52.6992836518608	-58.7976564710731	-10.0995556217075	-65.1380324026969	5.22366265834513	-13.9315282826168	-38.3110108946801	
1521375000	-12.0882092036613	-55.8213222321355	-58.8361466839731	-33.3830589575717	-62.4864754842886	-46.5095487868414	-13.8936972633597	-41.4352600744581	
1522500000	-12.0729596760095	-58.8514827945377	-57.4231786523047	-73.6081747216665	-59.1288714606671	-57.9198775561741	-13.8758986903035	-44.6905471913619	
1523625000	-12.0380514440585	-61.8466116546156	-55.2655357435675	-101.599971888703	-56.6043973795261	-96.8658931959474	-13.8415438757691	-47.8986421733189	
1524750000	-12.0206850560999	-64.9388455085386	-53.2086564041812	-128.095725018105	-54.3337758071167	-119.707339460403	-13.8211057538826	-51.2875958344304	
1525875000	-12.0091245692673	-67.9269455433586	-52.1577615399902	-152.033509225285	-52.3709135625876	-139.102448750382	-13.8372773870383	-54.6073560788574	
1527000000	-11.9930153332373	-71.0239035281784	-50.9098564322191	-160.393764818982	-51.0826891049969	-165.1118623172	-13.8489284687782	-57.7494091967394	
1528125000	-11.9790238568955	-73.9825425152092	-49.5943549538408	174.035936691781	-50.3819761962119	-177.312458320774	-13.8611637013962	-61.1038144517751	
1529250000	-11.9798261795233	-76.8922126901624	-48.2617364490348	156.956016258097	-48.288776142304	165.207348635651	-13.9083597532666	-64.1546991778088	
1530375000	-11.9595872663606	-79.8290698427281	-48.3432088344239	139.956250168715	-47.696091103912	147.158475654519	-13.9320046183446	-67.0053571121593	
1531500000	-11.9409494431111	-82.850491468231	-47.8556882400781	122.852324064925	-47.3115704007212	132.355288131162	-13.9503341522844	-70.0492240612753	
1532625000	-11.9101079471445	-85.7325816269939	-48.174665407912	113.843591234352	-48.3334018888916	117.240802750191	-13.9766889646433	-73.0073292417367	
1533750000	-11.9016228023233	-88.5788042053573	-48.4036148633965	101.647097774416	-47.7666188379823	110.591269703343	-13.9851854513641	-75.9117507437421	
1534875000	-11.8595705045022	-91.5984210947171	-47.6827695169229	97.8333301739883	-48.1312158067685	102.187831806987	-13.9853887086645	-78.9689478285952	
1536000000	-11.8302095832878	-94.6589974844321	-47.5722258509079	87.8974031314944	-47.2599405871412	90.5576254909177	-14.0150110694709	-81.8093149418438	
1537125000	-11.8159160641873	-97.7960287845342	-47.453509257441	77.8063391137264	-46.4392488182778	82.3253428603479	-14.0249608179168	-84.870929469758	
1538250000	-11.8049295256818	-100.843124527054	-47.7494948754853	69.4954942501771	-47.0885625237022	72.6055484290202	-14.0602769151979	-87.7223923163015	
1539375000	-11.787904604615	-103.860849147859	-48.0880132138113	62.0017691676469	-47.4525082044027	68.5713154462532	-14.0840940942487	-90.7498032904876	
1540500000	-11.7762109455573	-107.023338199627	-47.7927305295049	61.9122069810205	-46.6826771807506	65.068941923859	-14.1210961711698	-93.3955232334275	
1541625000	-11.774340758238	-110.106193988783	-47.1283294511708	50.5204345663536	-46.2963031603778	55.6744599016862	-14.1322443365428	-96.0802424590049	
1542750000	-11.7756884685828	-113.237441352334	-46.1841983038609	49.9153478605192	-46.0821073190988	49.8981885121881	-14.1491842506984	-98.8681773992706	
1543875000	-11.7923208519077	-116.199374913479	-45.7343142227004	40.4061409033342	-45.0237718007645	39.4101586734321	-14.1409526763536	-101.690182479941	
1545000000	-11.7867941852922	-119.163606645427	-45.1329939223201	30.9225034842997	-44.8844002165486	31.3631081280342	-14.1398030807683	-104.555491097861	
1546125000	-11.784916801555	-122.121501154035	-45.0144218090887	22.8960443093826	-44.5262579670216	22.442000892651	-14.1405522085212	-107.496196702527	
1547250000	-11.7922519245285	-125.046189133702	-44.755224354237	12.3163553207403	-44.6265350403231	11.6184182059871	-14.136038801822	-110.396030463059	
1548375000	-11.7749285714038	-128.074854284128	-44.9050522394861	1.86669716161524	-44.6056701612544	1.77734642848987	-14.128514537961	-113.278433467429	
1549500000	-11.7559106300216	-131.29682557594	-45.6321521000748	-4.39605956003882	-45.2633290710759	-4.12640901117549	-14.1394119129138	-116.335369218787	
1550625000	-11.7768836425914	-134.251836804124	-45.3004135204367	-9.97052252610763	-45.7525305111332	-10.3127093532827	-14.1366048183772	-119.321502521991	
1551750000	-11.784446913674	-137.264053729039	-45.0033631085273	-14.5406142951705	-45.4172025729997	-16.3405035165658	-14.1693390333731	-122.558012723575	
1552875000	-11.7733477402155	-140.332031042636	-44.9304267016171	-21.5123486765636	-44.9141479691344	-21.4812820681121	-14.1711618057252	-125.73115625732	
1554000000	-11.7581391600472	-143.420522528772	-45.2856896729034	-30.3546652501521	-44.742846514052	-28.7103584339524	-14.1959490240465	-128.834573351669	
1555125000	-11.7678534110838	-146.456476256364	-44.6110053346543	-36.7624388683352	-45.3116896408392	-42.5564793536226	-14.2218878030125	-131.892757956275	
1556250000	-11.7395815730124	-149.832487450185	-44.9243541369893	-46.8264041642701	-44.9272668360375	-46.9426580174319	-14.2703568110832	-134.948175720437	
1557375000	-11.7606107477813	-153.04241983674	-45.0016178998316	-53.7667853497401	-45.0517320899768	-53.1552759265495	-14.3143377903315	-138.080797061511	
1558500000	-11.780006919924	-156.293556376012	-45.4578143975633	-63.7366745487193	-45.413422928031	-64.5566936552532	-14.3533931893945	-141.228074377471	
1559625000	-11.8055384695245	-159.547747687509	-45.3872598893587	-71.119695822241	-45.9150665709288	-71.1503649226984	-14.3985662204943	-144.286347828839	
1560750000	-11.8548610524748	-162.701696816212	-46.4079568651894	-78.7525031752316	-46.3825779077224	-75.3307356727856	-14.4348070788939	-147.343562966643	
1561875000	-11.8893836691965	-165.85833520631	-46.6361074580229	-84.5835911382102	-47.0574304820187	-84.6684589862939	-14.4976260677503	-150.46400332803	
1563000000	-11.8976340399689	-168.925937975322	-47.0278381450685	-88.9856238880106	-48.1530849942559	-87.3010633858609	-14.5292948607465	-153.401761912965	
1564125000	-11.9066606256462	-172.137659382815	-48.6964620190472	-92.0653886311864	-48.5738379750664	-89.7183819512365	-14.5936920591189	-156.560657955971	
1565250000	-11.9432704190101	-175.362467280608	-48.5901427264039	-95.0092858150315	-48.6231118267609	-90.7510038597625	-14.6433717330326	-159.686985872276	
1566375000	-11.9609990049408	-178.713987549595	-48.5028407795755	-94.6801987777033	-48.2897263406065	-90.7564506193475	-14.6969214532686	-162.810614130915	
1567500000	-12.0147858623986	178.125308712565	-48.3830564133102	-99.2861924066637	-48.1654771317411	-96.6836584161558	-14.7673010492244	-165.923818797413	
1568625000	-12.0629263466238	174.903212246633	-49.3173483836296	-101.718645098666	-48.9386909314716	-93.4702013653244	-14.83663780139	-168.984236524209	
1569750000	-12.0982439652858	171.770732393827	-48.6162619219825	-95.3590890025188	-48.4600590384665	-94.0615232510053	-14.9125460673089	-172.05234112748	
1570875000	-12.1481478329103	168.517295234939	-48.1594858433733	-97.2079453307947	-48.0224112500567	-95.668600147026	-14.9707146888883	-175.07504443646	
1572000000	-12.1805504509847	165.45167073155	-46.5120297823625	-105.758303473961	-46.7524955242013	-99.3108365176513	-15.0142135858449	-177.990179577329	
1573125000	-12.1969442723472	162.3397428548	-46.3112939424521	-111.360333743749	-46.0631865284457	-107.50665756607	-15.033542352774	179.022745621571	
1574250000	-12.2337590578562	159.107087539741	-45.7928523839893	-118.015774847489	-45.7610976984951	-113.15386486818	-15.0841002950591	175.840494164129	
1575375000	-12.2551037761034	155.958547091189	-46.27842114765	-123.024627965093	-45.8151397033613	-120.039241594805	-15.0981827132333	172.639874188083	
1576500000	-12.289999048924	152.709259041353	-45.6179232075582	-131.316937681474	-45.0637919430662	-127.726895253442	-15.1199595845274	169.341820960937	
1577625000	-12.2960226985363	149.455159153955	-45.9588622612171	-140.046707249306	-45.3344915965537	-136.017108807672	-15.15656044763	166.082125659187	
1578750000	-12.3178211010393	146.034631475148	-46.4281194654323	-141.873419206582	-45.6497976004352	-143.406000396869	-15.1858458661908	162.686634368123	
1579875000	-12.3590910726081	142.658587889802	-46.6734141404443	-146.106098121628	-45.5134775646682	-141.869404461925	-15.2642045543187	159.379255870408	
1581000000	-12.3950111819057	139.339172811774	-46.2686750074609	-146.801659902121	-45.1378822735637	-146.926658205291	-15.2842889347622	156.065277667017	
1582125000	-12.4192885076144	136.11160386608	-45.1942032343171	-149.003631770309	-44.712617238132	-151.407754011211	-15.3096756584141	152.940605724184	
1583250000	-12.4467970356386	132.729834563158	-44.8192482575027	-155.576020026445	-43.957705164882	-157.81971654372	-15.3490080147504	149.541146316342	
1584375000	-12.4712879681152	129.302229858122	-44.2472014932357	-164.620985094807	-43.7940623767352	-164.973797502548	-15.3700212775803	146.124944943636	
1585500000	-12.4925133730992	125.796351855495	-43.8808707213252	-173.510676456096	-43.5787677775033	-174.503462651714	-15.3765884266619	142.802458694708	
1586625000	-12.5366241890381	122.28368142671	-43.9004924846185	176.753537684187	-43.943502192967	176.921896436528	-15.3565293991838	138.935802624853	
1587750000	-12.5902215143756	118.936683125269	-44.2898325108677	169.909600162569	-43.9883075721627	169.385975887303	-15.4090897438446	135.424076820326	
1588875000	-12.6049417839414	115.410455529666	-44.0550516140806	162.874415582947	-43.6252034148976	163.846040575765	-15.4093453512638	131.509460003875	
1590000000	-12.6388526025772	111.974890700002	-44.0950450381646	158.107997353489	-44.4261057395837	157.987426414777	-15.464395412788	127.991444693008	
1591125000	-12.6809559103768	108.497926485154	-44.920480180607	149.732084532	-44.3256587491095	149.118000463444	-15.5012755043905	124.348021035481	
1592250000	-12.7186409986629	105.012352471842	-45.1017157837144	144.205925772377	-44.6406440317747	148.491863548517	-15.5280205453428	120.635624924123	
1593375000	-12.7460810864796	101.519248382189	-45.2469489806956	141.971175821588	-44.6992129856579	141.412337242129	-15.5692169478199	116.78226971481	
1594500000	-12.786795548924	98.0499585624328	-44.8762907540381	139.05846593433	-44.5378742409101	139.340726359271	-15.6310990678504	113.097460142308	
1595625000	-12.8071439207303	94.6547494633876	-44.7701177746627	136.195603362529	-44.5968274724557	133.815963579264	-15.6518135303737	109.472967760152	
1596750000	-12.8375165633756	91.1295181529958	-44.2223477282378	129.087265591016	-44.0886396995372	129.617347719907	-15.7057976723143	105.986164347005	
1597875000	-12.8678979919719	87.7661768570289	-44.0818954099965	119.307157465324	-43.6000850140451	122.777884843717	-15.7191260195319	102.419647685618	
1599000000	-12.8938631879092	84.3260224718513	-43.6513642173265	114.906363810435	-43.5521708860588	113.109857835881	-15.7007431271272	98.6838413238385	
1600125000	-12.8892326671485	80.7964601620983	-43.9402565505962	106.851804354997	-43.4917836667827	106.196154657442	-15.6859694120172	94.9791155388566	
1601250000	-12.8904776883317	77.4386644981745	-43.6865484800814	98.9563688527289	-43.3844686033851	97.7379419872468	-15.6901140211417	91.3108794525294	
1602375000	-12.8722712707824	73.9261876893986	-43.7224750561714	92.3363094039033	-43.5407521991286	90.6681903047277	-15.6839484919918	87.5036299055596	
1603500000	-12.8695703124975	70.3389449086087	-43.8092585829232	84.7122557316093	-43.6780069732431	83.2423616596706	-15.6899232521995	83.8126080947375	
1604625000	-12.8644220636453	66.7232094291042	-43.7317597256716	76.6161972248019	-43.7724534239344	75.4833306341493	-15.659468681352	79.8991491872587	
1605750000	-12.83003830957	63.2013964593493	-43.8334676445446	69.3066144917781	-43.33712319309	66.8672024467054	-15.6412921206477	76.0715188044911	
1606875000	-12.8191969893967	59.5865335103275	-44.2591967226609	61.6862639567003	-43.8678601337745	61.1123268359446	-15.6075997269671	72.3049918245983	
1608000000	-12.7881519487542	55.8441033903947	-44.3365973943017	54.1270170065253	-44.3158766187323	52.5476374405878	-15.6075554632209	68.482796322383	
1609125000	-12.7595611750151	52.0606038932006	-44.8331642462777	43.8583549630234	-44.5642929187163	44.7886911572892	-15.6004098168621	64.7539264128061	
1610250000	-12.7513755812262	48.1978393440059	-45.8230241063598	37.6999665368394	-45.1751541377062	35.7342238973698	-15.5588395570945	61.0144842513807	
1611375000	-12.7582405720086	44.3525545780415	-46.262907519722	36.0807684465354	-46.224104436436	34.3171206186134	-15.5137296753466	57.5034227546799	
1612500000	-12.7473783897422	40.3701902187962	-46.0929816471903	35.0474957156426	-45.7390316654482	33.0737063857514	-15.4483826831212	53.8213972882535	
1613625000	-12.7855242821934	36.6882098052887	-45.8629000930785	26.4197680593694	-45.3136166061799	26.9301839852945	-15.3613839431133	50.319755495552	
1614750000	-12.7885569645645	33.0008294798642	-46.0246286461749	14.7811641928463	-45.3558545273313	17.2043872180803	-15.2678885264366	46.5403362243179	
1615875000	-12.816218750029	29.3691296977982	-46.1139515361529	9.06939479014755	-45.5797866277381	9.06509558064209	-15.1771757358225	42.7185733956024	
1617000000	-12.8385981760852	25.7662410972266	-46.6573991888113	-0.142461266205077	-46.4782780640218	-0.189052020821706	-15.0622986650356	38.7500470157376	
1618125000	-12.826576275296	22.3225165422742	-48.208152424382	-3.26442350872068	-46.9683793485175	-7.10602261751941	-14.9763649107658	34.8593505113827	
1619250000	-12.8261074952019	18.9212574142895	-48.9394825583896	-7.52128677044415	-48.0252442053255	-7.34718969321505	-14.885559432112	30.8128677182793	
1620375000	-12.8049382314795	15.4310836205266	-49.0483824949043	-7.17247047016278	-48.1838536249743	-13.5929599731339	-14.8218652498282	26.7875385124287	
1621500000	-12.8014371192536	11.9841408634153	-48.9632752313802	-10.6603394068817	-47.927063631968	-13.4497291413992	-14.7381416254119	22.8948243460852	
1622625000	-12.7923393586486	8.66569670825788	-48.0137105921356	-14.5407651959795	-47.5339497924064	-18.2687633400063	-14.666803893928	18.9332895144483	
1623750000	-12.7622387286931	5.39440852207326	-48.4564875823503	-23.7755678251108	-47.5585199354586	-26.9932546075061	-14.6032622333105	15.0074905752013	
1624875000	-12.7209582302143	2.10193396369502	-48.3181362159755	-31.0830121141781	-47.6402245549933	-38.6078167864366	-14.5623778957553	11.1891815183348	
1626000000	-12.6374113071433	-1.33007435866952	-48.7308195000403	-38.7518890078812	-48.0782617940152	-42.7062496763314	-14.5217135482914	7.32894382172722	
1627125000	-12.5808420666258	-4.71003972016157	-48.9882289691433	-46.0579596827822	-48.0969679952672	-49.1845864434942	-14.4712313356188	3.64445076849018	
1628250000	-12.5276701666598	-8.24462250517443	-49.2233020708372	-53.4161032793706	-48.4682328986327	-58.3007591253351	-14.4209613795503	0.0297004916304316	
1629375000	-12.4642127602023	-11.827609212626	-49.4415541863555	-61.9957029554634	-48.7283764719073	-66.8461921616714	-14.3885962951072	-3.43727175318744	
1630500000	-12.3942554328397	-15.3114664398788	-50.2668006069031	-72.014493021344	-49.3208271306138	-77.7688608108542	-14.3220469660313	-6.87257571585244	
1631625000	-12.3649155018777	-18.8865319037629	-51.5656033217372	-72.5790316320789	-50.5652463330715	-82.2104596394933	-14.2409004489444	-10.1031076770999	
1632750000	-12.3074644707205	-22.3738675827192	-52.0093061757553	-74.4805193926028	-51.0061866460871	-83.7509415621768	-14.1798692904596	-13.4679788460794	
1633875000	-12.268353521802	-25.8962164697296	-52.9905247396559	-79.5428782906453	-51.9884649222208	-85.1217457191131	-14.0605137788851	-16.7586129235052	
1635000000	-12.2305050309116	-29.4210879961863	-51.9999629313677	-81.7189376721259	-51.5318985035613	-87.1073894994656	-13.9727547695855	-20.3409715950824	
1636125000	-12.2030931249756	-32.9851402041265	-52.4505090946301	-88.4531142797013	-51.4035559724032	-95.4836701452005	-13.8699361516917	-23.9362513618971	
1637250000	-12.1756071144652	-36.3444686471572	-52.3140951380426	-91.5525830201094	-51.0567398742117	-101.579856814425	-13.7847248292888	-27.3951008513582	
1638375000	-12.1432094432555	-39.7662407610216	-52.3501032141375	-102.197602917343	-51.3478968975972	-119.444921224412	-13.7014940680061	-30.7776110121306	
1639500000	-12.1124740979197	-43.1445265959199	-52.6398681196169	-113.925062958669	-52.4534306601339	-125.46570208252	-13.644890665559	-34.2723722362563	
1640625000	-12.07303954262	-46.4822375687914	-53.8404803803663	-121.636013294286	-54.424366795546	-138.840138513954	-13.5646392984598	-37.6598606785024	
