!Keysight Technologies N9923A: A.08.15
!Date: Monday, 19 February 2024 15:50:41
!Timezone: (GMT-05:00) Eastern Time (US & Canada)
!Model: N9923A
!Serial: MY52412730
!GPS Latitude: 
!GPS Longitude: 
!GPS TimeStamp: 0001-01-01 00:00:00Z
!GPS Seconds Since Last Read: 0
!CHECKSUM:0018903830
!Correction: S11(ON Q)S21(ON Q)S12(ON Q)S22(ON Q)
!S2P File: Measurements:S11,S21,S12,S22:
# Hz S DB R 50
1500000000	-12.6754136379223	1.88132351044015	-64.6386452126062	45.3574579385813	-62.4427060948184	8.20777808947614	-14.9579210710507	17.2444161287279	
1501125000	-12.6485111179205	-1.04409125602203	-66.5715069956504	8.15862891440542	-63.3870703273804	6.80846149996974	-14.8686337061354	14.1740757490939	
1502250000	-12.6060727688037	-4.00661534262165	-62.79101172122	27.1374411153878	-65.3921651269112	8.69850204555856	-14.8424637271272	11.0807325466426	
1503375000	-12.5778460686223	-7.13711787542376	-66.2300795128793	29.9072419209597	-68.2738631584523	-5.16340599403818	-14.7903729787833	8.09245636783543	
1504500000	-12.5589564556763	-10.2471993150597	-67.4881156807643	22.661987357201	-64.0654273131759	30.0450440296067	-14.7357993318964	5.09021943416846	
1505625000	-12.5248217490098	-13.1222501174523	-65.4352906056482	6.2583103220146	-64.274817333886	-20.1873434229737	-14.6873810647068	2.30156684079186	
1506750000	-12.4990172435017	-16.2550607563352	-67.7719474020464	-46.5425279786055	-69.9589745356058	-46.4805110770681	-14.6286147295989	-0.72237658572279	
1507875000	-12.4632496834864	-19.1700752717288	-67.5210388387947	-125.017856188281	-71.6235102578519	-98.7063976516285	-14.5990677330838	-3.89472553681158	
1509000000	-12.4273133004918	-22.3217950416285	-67.9273314765396	174.810929023595	-72.981828469856	-157.71086265573	-14.5188252073926	-6.61613956328753	
1510125000	-12.399532222175	-25.1970686648643	-65.9415553901842	160.12146134752	-65.7165007959656	-174.870171807445	-14.4547626614378	-9.64728987361715	
1511250000	-12.3626513008825	-28.237608223779	-65.7339400478643	156.255048739433	-68.3067364168354	-172.641500558215	-14.3953501923425	-12.8211299738853	
1512375000	-12.3376733495854	-31.3747872102403	-62.0617036500388	162.476941792147	-64.6721238937653	158.294823135039	-14.3192308431156	-15.8054549168273	
1513500000	-12.3155516574563	-34.4149673649538	-58.4011436977531	113.145277939735	-60.4041887520255	120.104616149553	-14.2679330501738	-19.0015278379728	
1514625000	-12.27774063199	-37.4235381505471	-57.5176094758472	103.184301054526	-58.8703915129771	102.212676233928	-14.2326308259861	-22.0145973623533	
1515750000	-12.2586104537348	-40.5123822917983	-58.6531241095365	71.1007683693673	-63.724737768696	63.0737310784549	-14.2054304753474	-25.0169507684958	
1516875000	-12.2074278374559	-43.4534334361263	-59.6961290976226	65.2758780260994	-62.3156542098724	54.9237582040041	-14.1321050114786	-28.3128353308187	
1518000000	-12.1866972871097	-46.6544269486632	-59.0521895611494	43.7174400397413	-60.3593289996993	47.9247126305416	-14.0842666446531	-31.3418107958678	
1519125000	-12.1667250084412	-49.7084670125377	-58.7132086278435	34.3735705410264	-61.0773529361029	14.7144249892298	-14.0390683331216	-34.6717342819316	
1520250000	-12.1581197627598	-52.6214166251727	-61.4162281323398	-4.26377913932619	-62.5577696363274	-5.06827241787975	-13.9984614925702	-37.8333721620181	
1521375000	-12.1353087706737	-55.6708226903543	-57.8652630910904	-14.4931806097818	-60.0523642853155	-38.5214775960026	-13.9550095889642	-40.9883886432168	
1522500000	-12.119569944167	-58.6949889789059	-58.3852847145104	-47.4752523628476	-58.8947164549935	-68.4633742355258	-13.9384944496694	-44.2413801735958	
1523625000	-12.0836950538487	-61.6171175165106	-55.4832363916647	-73.2904083161879	-54.091047764792	-97.439516163174	-13.928990871167	-47.6479455199302	
1524750000	-12.0664017512553	-64.7778460076593	-55.7729993173645	-105.748452019485	-53.8743322539169	-115.509660070461	-13.9078929459937	-50.8729657744766	
1525875000	-12.0427984807446	-67.7315527664073	-52.3166620149462	-136.765309684759	-51.5324446507214	-144.863803335019	-13.9302371156788	-54.2649451764981	
1527000000	-12.0171890642332	-70.8231090551743	-51.9543734845971	-155.585904212792	-50.9499436144661	-154.215541711772	-13.9493379641148	-57.4275807928913	
1528125000	-12.0082136046798	-73.9493744901125	-50.2817374338505	-173.592126212962	-49.6414391586768	-172.918831479976	-13.9767528197961	-60.6007948414066	
1529250000	-12.0135133776461	-76.9227004309412	-49.5135275828624	168.418413788652	-49.0045517785043	167.542881343191	-14.0226984581051	-63.688261282382	
1530375000	-11.9860838642597	-79.7901771810922	-49.3034992566037	147.579675111338	-48.4337432956551	153.858065465693	-14.0157923962529	-66.6398787389334	
1531500000	-11.9876404810022	-82.791678612457	-49.2992314558467	135.037790103119	-48.3056867605809	138.448458425203	-14.0518742605741	-69.6014638746289	
1532625000	-11.9609575788056	-85.6189694635079	-49.1357952848209	122.80605619605	-47.9154410526415	123.995524787242	-14.0716692014373	-72.5741114323531	
1533750000	-11.9372525529765	-88.5649120466576	-48.727148094817	114.697695807577	-48.1519333091217	119.408237223573	-14.0828268697081	-75.5188324789468	
1534875000	-11.8988757724239	-91.5251980486292	-48.6031511249129	102.205799786837	-47.6264360867368	109.175069327327	-14.093218846011	-78.5773582823874	
1536000000	-11.862091443618	-94.6307044096506	-46.9467357547468	93.3811950644756	-46.9071149366359	98.075686875701	-14.1239769148537	-81.4980714206008	
1537125000	-11.8460128730369	-97.7448905526036	-47.793061319368	84.4932970922415	-45.8142702786584	86.5034461384054	-14.1387419886144	-84.5333871289032	
1538250000	-11.8406115373347	-100.811714926494	-47.1891610639579	76.2064243289565	-46.6731917500639	77.6038226555326	-14.174741207505	-87.5491543046768	
1539375000	-11.8152999294765	-103.894931558337	-47.6811778076028	68.0050624297702	-47.5513233409056	70.1958816135076	-14.2022829199458	-90.4793671727063	
1540500000	-11.8193113459009	-106.971922144112	-47.4193968919564	67.6269130648838	-47.5642486806497	64.7637575530342	-14.2348638020563	-93.1856370533295	
1541625000	-11.8099294452206	-110.10889107085	-46.7636781334233	58.9075583758015	-46.8938781456669	62.0523528545007	-14.2532160012168	-95.9218497671773	
1542750000	-11.8150621935185	-113.103323579333	-45.7682896731748	55.0701942481564	-46.0552107123412	52.0826132152433	-14.267279937973	-98.6891354732365	
1543875000	-11.8116590912443	-116.103258337194	-44.8956478160362	45.7162582934992	-45.0903250872355	47.4512999503836	-14.2739345918241	-101.461767060975	
1545000000	-11.8115229062212	-119.207981193437	-44.4117369160491	36.1299673263809	-44.3919644388362	35.4777207085153	-14.2598105811238	-104.194772501066	
1546125000	-11.8153201432508	-122.189785740807	-44.3816856860929	23.733208699484	-44.2429084192462	23.8331415507224	-14.2615961768446	-107.077571160433	
1547250000	-11.8206133005511	-125.109719134032	-44.3867328498499	12.3083491363547	-44.0471702088278	12.6245960289642	-14.2332554177909	-110.123030948126	
1548375000	-11.8021510797601	-128.135378177045	-44.286664616278	0.857841670753161	-44.9436248160177	3.9110619753432	-14.2281064943084	-113.018803818224	
1549500000	-11.7842489725278	-131.255385960422	-45.0018149515155	-3.10044161017277	-45.0168289834053	-5.74355907841042	-14.241412146586	-116.115058194131	
1550625000	-11.8031173351487	-134.248260023362	-45.0824117614644	-10.0088610217134	-45.174070028699	-9.76129528799855	-14.2256833026801	-119.186829358805	
1551750000	-11.8069970980449	-137.182766510697	-44.7351992227201	-15.0789105395425	-44.9629225429011	-13.713923451309	-14.2469524657958	-122.370525714067	
1552875000	-11.7982741276552	-140.241086168597	-44.3284710377521	-20.7773605186829	-44.5829853545713	-17.9583192423524	-14.2628254301844	-125.673955192907	
1554000000	-11.776484178594	-143.298800589462	-43.960645619864	-31.4036515224929	-44.5787590894465	-27.0476286717285	-14.2821698351396	-128.627662575866	
1555125000	-11.77478066133	-146.431030749196	-44.5494784670476	-40.9026902462155	-44.3012886551843	-37.6571205779956	-14.3119316650787	-131.777639059003	
1556250000	-11.752076609903	-149.65373140783	-44.1887546833437	-51.395339896299	-44.2905372265013	-51.1762089514658	-14.3638728549851	-134.961363273758	
1557375000	-11.76540899611	-152.91155159293	-44.6173041341339	-55.5534358829807	-44.5843633962062	-55.703303032627	-14.3980800315755	-138.18010638101	
1558500000	-11.7695166108457	-156.218812968711	-44.9206647242041	-65.1597157296575	-44.5892131074233	-67.6486598791615	-14.442674418619	-141.33056450711	
1559625000	-11.7890429143021	-159.449836179153	-45.3322528288958	-76.4331982300986	-45.3394625314829	-76.0529478045145	-14.5013622431204	-144.359551778396	
1560750000	-11.8207530540122	-162.620063820678	-45.6496463837635	-84.4441656481711	-46.0996654141227	-82.2148994669866	-14.5759345313625	-147.318676247777	
1561875000	-11.8554477394535	-165.812030408307	-46.5967504658994	-89.5644880256735	-46.7455597423781	-90.1038666874184	-14.6023002092817	-150.499583301731	
1563000000	-11.8609389530705	-168.939799567882	-47.6702248114542	-102.53142714184	-48.1860292844428	-94.5424545396473	-14.6340595483911	-153.474604035685	
1564125000	-11.8823450458267	-172.167532327639	-48.9499386798025	-104.807747610025	-49.3397426866569	-95.8196788778269	-14.6789585218364	-156.56221044436	
1565250000	-11.8997854427508	-175.50952277406	-50.0255876278983	-100.304436836916	-49.8323248000667	-95.3933965460001	-14.7508199082452	-159.72928717892	
1566375000	-11.9253137494996	-178.806650922016	-49.9650102304492	-96.8736105785985	-49.1113464329137	-92.726852598032	-14.7937110777464	-162.941152396743	
1567500000	-11.9909324868077	177.933099684454	-49.4233416155584	-100.093130338973	-49.6657402751977	-91.4654502646734	-14.8419944519365	-166.127036860169	
1568625000	-12.0386338286164	174.792661890816	-50.0329499982607	-101.861214496963	-49.5399995725421	-93.7313529054377	-14.8997826530615	-169.096396816449	
1569750000	-12.0795304021992	171.62985714143	-49.4837811726233	-96.6052737449325	-49.5378747154854	-92.7128292618795	-14.9794413846083	-172.145079266531	
1570875000	-12.1214108778433	168.414190912671	-49.4508068764481	-98.8977372780925	-48.7087972129482	-90.1520773354585	-15.0330639550707	-175.133444854643	
1572000000	-12.1525704253706	165.368389132935	-48.453710223143	-101.75785460467	-47.5848879897623	-93.3870813990448	-15.0680612264277	-178.075220105741	
1573125000	-12.1849606655901	162.333350737198	-47.563552333207	-105.780093898091	-46.5628343808061	-104.066557124326	-15.0893353315994	178.931554627612	
1574250000	-12.1940912770927	159.053451260329	-47.1853727749719	-113.100761620447	-46.7959164289184	-111.806804608963	-15.1374970019033	175.740710673417	
1575375000	-12.2312047861453	155.876659542677	-47.4481751115111	-117.135126361923	-45.8561493222577	-115.644861045836	-15.1444198369802	172.466709102033	
1576500000	-12.2524672733924	152.598318039419	-46.711123499737	-122.545157413114	-46.2419103988218	-123.870758529295	-15.1600291111841	169.277292460457	
1577625000	-12.2597165641187	149.283959919934	-46.6107519850522	-130.662095781081	-45.9182986184726	-130.232693650392	-15.1764755609118	165.936442046909	
1578750000	-12.294170661106	145.978747562536	-47.1098919993845	-134.270280430552	-46.0895267943789	-134.582705208059	-15.2336270957612	162.71124117968	
1579875000	-12.330295345342	142.632389114758	-46.370003660071	-131.456783515509	-45.6190004266804	-136.038801150596	-15.2826782486227	159.359986000285	
1581000000	-12.3650477359441	139.291040114839	-45.4409410337826	-140.077276474419	-44.7897065759472	-139.755874981933	-15.3032472609037	155.924384237474	
1582125000	-12.3826184285669	136.048934843814	-44.6711046951771	-145.615758256335	-44.2171737349518	-147.493954795733	-15.3283338323047	152.699749711751	
1583250000	-12.4196145283527	132.696095225532	-44.5294886193023	-157.047535232527	-43.5960372486483	-154.806356619362	-15.3568116071984	149.28513292904	
1584375000	-12.4303414183163	129.238769428125	-43.90673768452	-165.729044425475	-43.3103787001225	-163.850912680646	-15.3783237537416	145.902594594223	
1585500000	-12.4518153738158	125.772789672295	-43.8833658709197	-174.46510711493	-43.0039158069118	-173.040327604918	-15.3937819017621	142.526637866414	
1586625000	-12.4992293041465	122.285491452262	-44.0123740181789	-179.72365929039	-43.4639334615555	179.338599243293	-15.3810080058191	138.83208942258	
1587750000	-12.5431748953773	118.866116564681	-44.0103424417928	173.526605768559	-43.4676104487792	171.820605873402	-15.4095668450654	135.267731890278	
1588875000	-12.5678322341942	115.453429186745	-43.9078664329807	166.014048336984	-43.610372373452	162.463835464976	-15.4129451880679	131.38221470959	
1590000000	-12.6123465744629	111.914173368907	-44.2497298784479	155.931158667604	-43.7269771611006	158.674327668717	-15.455900158195	127.899703840511	
1591125000	-12.6445073353852	108.39089496979	-44.981744970896	148.360190819984	-44.1427138198144	150.055767559289	-15.4982618563983	124.091918188691	
1592250000	-12.6787733955369	104.854585352292	-45.0704684759487	147.341976123308	-44.8084785656354	146.511377266211	-15.5186591046846	120.385721447032	
1593375000	-12.7199504629321	101.441207154941	-44.901247928459	146.796193917344	-44.9309395855235	142.645606921632	-15.5838175754873	116.619504913514	
1594500000	-12.7557937055153	97.9854119762042	-44.9379637206547	143.596471510105	-44.860272376412	138.168189997521	-15.6397173719786	112.945898876362	
1595625000	-12.7934220506971	94.5570289565622	-44.8481136133464	137.310233595318	-44.2207873561627	135.66543046201	-15.6603556397375	109.471065828054	
1596750000	-12.8353614807986	91.1406204093295	-44.094547528253	131.415475909614	-44.1352072221789	129.461234243073	-15.7222543979679	106.048813286769	
1597875000	-12.8617155129444	87.7491529840638	-43.8113000996452	122.291645254909	-43.7214333049419	121.802879398397	-15.7151878910069	102.519319735144	
1599000000	-12.8736968697016	84.342247153524	-44.0334000163259	113.904383443518	-43.6001960553644	112.521545035201	-15.7098855322278	98.8486818597229	
1600125000	-12.8817121447794	80.7422697842483	-43.7357087446127	106.247723465427	-43.310746925114	105.635813520922	-15.6932262286581	95.3036891437244	
1601250000	-12.8905103263686	77.291349754174	-43.4074307498034	98.784991063463	-43.6009739396421	99.4549462873696	-15.6923913306093	91.4663036559421	
1602375000	-12.8804322960081	73.8574262559547	-43.8150464706486	90.7697881554958	-43.3269767501969	91.2303686423514	-15.7058514296317	87.8912701187926	
1603500000	-12.8877914504841	70.3150172221793	-43.7803400063831	85.7996156446254	-43.5924248917838	83.6726441238896	-15.6725302560635	84.0418257634838	
1604625000	-12.8865056378841	66.739554799941	-44.1909533149277	77.3467595621521	-43.7476373168295	78.6263718249082	-15.6409518656231	80.2775394814175	
1605750000	-12.8670096409144	63.283613198801	-44.3037155960177	69.1595445293899	-43.7693773033593	69.9819865053881	-15.6236027537159	76.3984682495994	
1606875000	-12.8567803210912	59.6284794046757	-44.2639819139413	63.8951125904799	-43.9674916977058	61.6275032385888	-15.6043447328387	72.6328208357851	
1608000000	-12.8307080042733	55.9269948690089	-44.5247006256273	56.1522395392549	-44.111242685119	56.2762201220819	-15.6062658462366	68.9115312719033	
1609125000	-12.7933098992499	52.1812747507968	-44.869501914262	47.0209047582178	-44.9020645800895	50.177905069414	-15.586909312974	65.2554261802001	
1610250000	-12.7868625715597	48.3293444044634	-45.4522945460546	42.1671944613142	-45.2504595436477	41.803772105708	-15.5383860334578	61.5220219286841	
1611375000	-12.7828313371446	44.4040871152243	-45.6776820241495	37.4870982363165	-45.521011501166	38.7771569362281	-15.4806469747155	57.9634771097066	
1612500000	-12.8012875941247	40.5495683968089	-45.831464697984	33.2033424416559	-45.5522987759872	34.4139858755748	-15.4118595109727	54.2155255643028	
1613625000	-12.8201107166588	36.9228334909621	-45.6940646026391	26.1854814003471	-45.0581844088578	28.0541587305344	-15.3477814714761	50.5431838775771	
1614750000	-12.841765529866	33.1780200176865	-45.7109636856306	20.3280605684617	-45.1875161720621	19.5023453418372	-15.2583659765165	46.7240048877438	
1615875000	-12.8561988827968	29.5092852740732	-46.1127975180885	10.8124401791912	-45.5599672363356	10.70501999184	-15.1839893152736	42.9863425511918	
1617000000	-12.8819303913478	25.9204259563364	-46.6099866303317	2.21218569972387	-46.2628134035679	0.644347557513039	-15.0742720211907	39.0621259534091	
1618125000	-12.874116507402	22.5119948293136	-47.8075208931082	-1.51382921176732	-47.0576782801411	-5.56600742762449	-14.9943519211113	35.2093169378562	
1619250000	-12.8820725762825	19.1613979454349	-48.4474419672254	-5.95841599306045	-47.8138845757497	-4.82823867961047	-14.9204450668131	31.1272673754583	
1620375000	-12.8636190680165	15.657605790599	-48.4570904858502	-5.3752630319318	-47.8108871073739	-6.83246024633452	-14.834118314986	27.2172943916039	
1621500000	-12.8452894101936	12.2622746071122	-48.3632794906251	-9.40051767123638	-48.1697910886507	-9.58319565322957	-14.7710225546253	23.369438378062	
1622625000	-12.8241922445186	8.94271187691321	-48.377915355638	-10.0528804312656	-48.0483069131654	-13.401707754082	-14.7062839350205	19.3864103179938	
1623750000	-12.7900901279776	5.61322109082229	-47.9124626641336	-16.5308168909064	-47.7816212098182	-18.7340501836166	-14.642122299875	15.544805546243	
1624875000	-12.7492701590086	2.26644894363725	-47.5841731968792	-27.1044462291367	-47.1786900895383	-27.5357902690954	-14.5922622234886	11.6337621913135	
1626000000	-12.6870198135801	-1.16041041135363	-47.8159210388108	-33.2343864541374	-46.8615572848414	-33.4204243578163	-14.5494226066452	7.8454062497471	
1627125000	-12.6202172767145	-4.57710814164238	-48.0921476323907	-44.706171452439	-47.001432607967	-45.4916742274507	-14.4919519329589	4.17652997958424	
1628250000	-12.5767326750282	-8.14214616149953	-48.2900791391484	-52.2443954036196	-47.4526669854207	-54.8132317219984	-14.4588902249142	0.425398342344944	
1629375000	-12.5234459642217	-11.6545167681831	-48.3314485130606	-59.1122863078816	-47.9469655481728	-65.104013170532	-14.4109296690554	-2.9672216838547	
1630500000	-12.4643121836711	-15.1165120192869	-49.0867473710636	-70.2984690928072	-48.3369153861678	-73.7622821923445	-14.3509846740485	-6.40490249636463	
1631625000	-12.4090046363378	-18.6816624175816	-50.7367963118194	-73.2031175200135	-50.0741213500078	-80.7207865811612	-14.2940631587445	-9.87241533846605	
1632750000	-12.3624895994956	-22.2139225037151	-51.8505385385208	-79.6930961535626	-51.0212200097931	-78.9094439155951	-14.2202427332787	-13.2365664409161	
1633875000	-12.3135714394646	-25.7159557497967	-51.9927672136631	-76.7339273257661	-50.89591924984	-83.2152473443691	-14.1303607561127	-16.4333103283375	
1635000000	-12.2753167756868	-29.231810449824	-50.8747031359245	-77.5799001672836	-51.3558957207664	-80.3541325741852	-14.041170952284	-19.9381333460277	
1636125000	-12.2501356599567	-32.7455189137379	-51.0247043328263	-84.5327340407012	-51.0576995282392	-88.419986342761	-13.9373333947386	-23.4873648591234	
1637250000	-12.2217849531808	-36.1020738309754	-51.4273432155683	-96.9112265498507	-50.6310916233414	-100.833337329024	-13.8421879485669	-26.9223759753393	
1638375000	-12.1778446676952	-39.5279192217848	-51.2867435224211	-101.128408961936	-51.4577907086392	-105.061985253233	-13.7667918116218	-30.4245725125711	
1639500000	-12.1353084773794	-42.8934942794733	-51.7507719117427	-114.665483697139	-51.1618119353863	-115.654815205006	-13.7236446927505	-33.9342021370181	
1640625000	-12.0920842821879	-46.3455060714905	-53.0207738898907	-120.34884419618	-53.0639323573158	-123.646204647055	-13.6424663976408	-37.2744063472771	
