!Keysight Technologies N9923A: A.08.15
!Date: Monday, 19 February 2024 15:53:07
!Timezone: (GMT-05:00) Eastern Time (US & Canada)
!Model: N9923A
!Serial: MY52412730
!GPS Latitude: 
!GPS Longitude: 
!GPS TimeStamp: 0001-01-01 00:00:00Z
!GPS Seconds Since Last Read: 0
!CHECKSUM:0592200047
!Correction: S11(ON Q)S21(ON Q)S12(ON Q)S22(ON Q)
!S2P File: Measurements:S11,S21,S12,S22:
# Hz S DB R 50
1500000000	-12.7682966229082	2.22652335242631	-51.3038320029506	-120.269566113537	-51.2530801072146	-111.586365412718	-14.0689527837412	13.3123784824966	
1501125000	-12.7314479972104	-0.746300227116827	-50.9980887831596	-129.628300969148	-51.1313559075983	-126.012839586238	-13.9947301396765	10.1838315347257	
1502250000	-12.6977367330207	-3.6691453956488	-50.2526307243809	-135.389756340387	-51.2405878924455	-139.385794030542	-13.9570413028752	7.02802075199077	
1503375000	-12.6585976940124	-6.86044889389766	-50.5035027088631	-148.499190634336	-50.598551193711	-147.280321539533	-13.9303246743805	4.07915859329131	
1504500000	-12.6477428304556	-9.93854604419149	-50.3900397383171	-158.428241324652	-50.8387643592642	-153.46942691027	-13.8842504737421	1.03968806792478	
1505625000	-12.6224473800393	-12.8564162360279	-49.5398845951128	-159.729971142986	-50.8350651733858	-152.882514282691	-13.8215795955372	-1.74525248033802	
1506750000	-12.5958945259404	-15.8108511083229	-49.2658317900304	-166.725669697208	-49.6470683496354	-160.644696494092	-13.7684656048273	-4.73295762853418	
1507875000	-12.5680108953348	-18.7706207413654	-49.1493787481757	179.077259851919	-49.5079171199963	-170.610958161727	-13.7225846082022	-7.76938151937559	
1509000000	-12.5191222316704	-21.7350817197305	-48.5326698568969	173.766322725462	-49.2519015616607	176.639641497015	-13.6297491102409	-10.6060231782097	
1510125000	-12.4688773621755	-24.7451003244165	-48.930581059714	162.800798830548	-48.8508025316985	170.701425844211	-13.5538531450651	-13.7454213524954	
1511250000	-12.4328352425101	-27.8813519839394	-48.633003082222	154.4346314968	-48.950019505552	162.695302557538	-13.498674414131	-17.0816478508761	
1512375000	-12.3967688853715	-30.8531702292214	-48.3473974971522	148.342443875831	-48.6157526266053	154.678665516705	-13.4362744020146	-20.2143228442894	
1513500000	-12.3791468745096	-34.0446353877758	-48.5042815730863	140.407786623249	-48.7663642318923	142.726631809628	-13.3827121330012	-23.3965711474338	
1514625000	-12.3471979699539	-37.2127835391179	-48.3198349845714	129.023616844318	-49.0224558577074	134.354304228736	-13.3460084365762	-26.576805859563	
1515750000	-12.3267528834541	-40.2213418279033	-48.9972894628027	123.000151220549	-50.4510189017472	123.194565970222	-13.3204332296663	-29.6567369761392	
1516875000	-12.2716442021785	-43.0917416062779	-49.1431726806468	115.069557459883	-49.525071688136	120.326118298875	-13.2689074169373	-32.8882623662965	
1518000000	-12.246744954271	-46.2239333907079	-49.6614192007231	102.735297031114	-50.1522927894746	112.701300537778	-13.2263223688995	-35.959220243772	
1519125000	-12.2271105342733	-49.3424965600122	-49.4093539229746	98.9930801069168	-50.9386829308184	103.618066682207	-13.1912572670191	-39.1945007072344	
1520250000	-12.219719419213	-52.3057274261911	-50.952604029697	93.0907429288536	-52.1120482010297	102.521303592266	-13.1450199118164	-42.5135400765188	
1521375000	-12.1943032548439	-55.4081198722326	-51.6997600039741	87.3785914408384	-52.2263794303802	97.4272975570214	-13.1072955466947	-45.6975695223552	
1522500000	-12.1647771805207	-58.4477192555283	-54.1759874341199	84.0596988940475	-53.4872441081462	96.951445770771	-13.0915667070668	-48.9622465791803	
1523625000	-12.1322795615338	-61.462625659236	-55.9927888765791	84.267124058055	-53.5098166158099	105.897056188655	-13.0657403033005	-52.237199522921	
1524750000	-12.130022628955	-64.5137637255824	-54.7621416353936	107.044565006264	-53.7096167078204	111.276358264661	-13.0688606382956	-55.6298901259877	
1525875000	-12.1146640497079	-67.5680213135165	-54.8145184997499	104.588944929299	-52.6019950923608	126.544644112754	-13.0610981706598	-58.9147916773892	
1527000000	-12.0989545403423	-70.6242524278774	-51.4911924280624	117.346889163241	-50.4617027428041	118.447665375039	-13.0873415782037	-62.1518779807721	
1528125000	-12.0715239319509	-73.7199335239494	-49.144421851076	118.826774302682	-49.6318881114404	123.67144763099	-13.098059541162	-65.4821077667995	
1529250000	-12.0683458810316	-76.6098030617024	-48.8255224181973	108.058286692942	-48.2231449032552	112.006307748165	-13.129405341175	-68.5310761113603	
1530375000	-12.0453423233557	-79.4946952809887	-47.3331792468509	97.4750342838406	-47.1601165324003	106.094618731694	-13.122683512852	-71.6329211245275	
1531500000	-12.0432557555814	-82.5459416923491	-45.8664026674135	89.4590436693575	-45.5448466155905	93.4940211126129	-13.148340395758	-74.6618296987393	
1532625000	-12.0196558176229	-85.4024934501466	-45.63514800606	79.3244471362675	-45.3000607696024	82.9088954883855	-13.1586873257332	-77.7403153281821	
1533750000	-11.9851420968416	-88.2880160984937	-45.3923348313745	69.6642342072555	-45.3493111926965	74.2654202770066	-13.1840848889042	-80.8471149881781	
1534875000	-11.954438201765	-91.3814594788047	-45.0027534048338	68.5898050805869	-45.1154265679198	69.2351284157128	-13.1958714105877	-83.9906108890908	
1536000000	-11.9168109046859	-94.3900568143552	-44.9203479981132	58.9607075541632	-44.8350491522748	58.8048553177836	-13.2184979378973	-86.9327778043138	
1537125000	-11.8905650453568	-97.554960597063	-44.1605773901557	51.5161114723973	-44.5158175743857	47.7582693952119	-13.2405457911623	-90.0498674625109	
1538250000	-11.8641907054144	-100.63949559616	-44.4740648270622	41.0611958693169	-44.123432723302	40.9907525265674	-13.2727150651185	-93.0716668075585	
1539375000	-11.8516211962226	-103.773320990015	-44.5958936649919	36.1574288640416	-44.5062340194096	35.2601920271015	-13.2884202857823	-96.1049641064227	
1540500000	-11.8449216854568	-106.921108161644	-44.6943112552703	30.1370342444549	-44.249139643505	30.1980596340325	-13.3384325366398	-99.0176089155777	
1541625000	-11.8650516911605	-110.134489385729	-44.4898367385083	26.5819552108189	-44.2008308098364	25.5393089620174	-13.352161702846	-101.846027208703	
1542750000	-11.8598775775654	-113.224875785167	-43.5184564383201	21.2709696848392	-43.5224438629075	20.3777101841615	-13.3900518306707	-104.769167899698	
1543875000	-11.8770047948032	-116.169563810588	-42.7108697614987	13.4674784896279	-43.1307125940206	11.271127788152	-13.4016489036418	-107.710502387917	
1545000000	-11.8822389510167	-119.211781323557	-43.322940834385	7.7189156434395	-43.0745838752451	5.50458051677376	-13.4040818147499	-110.532473349557	
1546125000	-11.8841300647041	-122.12151420281	-42.6130583186909	0.132708705331417	-42.7128956359189	-0.594852502014066	-13.4306942801365	-113.479072612608	
1547250000	-11.8863005765675	-124.963146350393	-42.4185680158825	-9.2838998951955	-42.5751470989427	-10.4657569207119	-13.439474468443	-116.484310551356	
1548375000	-11.8611889952272	-128.093205568842	-42.2047708171463	-18.5851501266	-42.1543572913286	-20.0661223323077	-13.4306732615472	-119.368091469312	
1549500000	-11.8538417328758	-131.200867813456	-42.3208998345523	-26.7332847457796	-42.6074905224458	-29.0159546281686	-13.4287966570859	-122.463482609048	
1550625000	-11.8604816828654	-134.10464848088	-42.8640227261974	-32.8694237464492	-42.7301114456817	-33.325348821864	-13.4411386353427	-125.601520086598	
1551750000	-11.864527172657	-137.125480703652	-42.456324704041	-37.3273930912736	-42.9139093520278	-36.3418295291919	-13.4543690155823	-128.811843005749	
1552875000	-11.8662354510807	-140.239354171402	-42.720246541953	-41.5161021953119	-42.3875219192955	-45.2633802834392	-13.484179625258	-131.931181297162	
1554000000	-11.8401414925201	-143.276742807483	-41.8702564087227	-51.8282329101214	-42.3382650946618	-50.7022933600282	-13.5192025011384	-135.013305297184	
1555125000	-11.8506120579525	-146.383479635555	-42.1977906206594	-59.9858415469981	-42.3699805730825	-59.7459196340295	-13.5521840192522	-138.305668325524	
1556250000	-11.8314149375989	-149.536257828178	-41.7853597468393	-66.6554819795939	-41.9453101497806	-66.4266756293061	-13.5991967483798	-141.468522119377	
1557375000	-11.8420468587471	-152.770960162267	-41.9532528944627	-72.7911339697361	-42.2045125635139	-76.7850366929329	-13.6420755737532	-144.554433220721	
1558500000	-11.8476864659	-156.032989748444	-42.1370040674468	-83.4045828625653	-42.2905872176703	-85.1903837061013	-13.6975130023382	-147.669605826586	
1559625000	-11.8657549874529	-159.287515638339	-42.4011826900203	-91.1899507745353	-42.4222703448549	-93.0901582351353	-13.734851450347	-150.775741910863	
1560750000	-11.8979872609775	-162.478964870333	-43.0805456384607	-98.3286760566494	-43.0401261877528	-101.93304149449	-13.7885980906694	-153.829160361545	
1561875000	-11.9287467862776	-165.693021752417	-43.4051335644133	-108.537360541759	-43.784895915293	-108.480556146938	-13.8282227581943	-157.193238831048	
1563000000	-11.9340195123038	-168.755780032805	-43.5823921199466	-114.292761503147	-44.4198353556968	-115.786990007192	-13.8886923080578	-160.124587725097	
1564125000	-11.9458348456799	-171.928289184307	-44.9105918295523	-124.528345669989	-45.0807112207142	-120.71983131128	-13.9583348739743	-163.241475239074	
1565250000	-11.9789257439128	-175.249498260112	-45.6490185834943	-123.372965180314	-46.3509534672107	-124.193199480094	-14.0142846239209	-166.253963184049	
1566375000	-12.0048431219572	-178.63722125448	-45.5634219218189	-126.420125700174	-46.0163785698289	-124.465346268003	-14.0645365458267	-169.409658627033	
1567500000	-12.0533916942785	178.256769570037	-46.0169571568355	-128.694176472132	-45.7924658635869	-123.67186099685	-14.1149457773368	-172.584026389505	
1568625000	-12.0984065710406	175.154588601004	-46.0074021683797	-131.825621712166	-46.0968216303748	-131.649077595984	-14.1832059465139	-175.6207481224	
1569750000	-12.1268429943172	172.066850877754	-45.6506248206048	-135.690827690717	-46.7420453044777	-135.749177913289	-14.2528587962922	-178.657757172277	
1570875000	-12.1759228788826	168.797196817832	-46.2917374088951	-138.127555682504	-46.5087798377069	-137.88163953927	-14.3011500937765	178.3077817994	
1572000000	-12.2070940088602	165.805583351213	-45.6790529380203	-144.284376542685	-46.6881346737431	-139.693498549219	-14.3421775519601	175.288548553461	
1573125000	-12.217902196261	162.712023460628	-45.6120129079434	-148.38734334098	-46.4810343210859	-143.186912363389	-14.388561026903	172.277876443835	
1574250000	-12.2575547856011	159.471971306063	-45.9921551980843	-150.108735752777	-45.9918196929781	-147.470323662677	-14.4183042791231	169.113526584867	
1575375000	-12.2751252369223	156.276505192829	-46.1553133328556	-156.611824063481	-45.9059365846384	-151.940130836736	-14.4383561624902	165.870034455192	
1576500000	-12.2946299520872	153.041262953871	-46.1920409113496	-161.533639152877	-45.5137091964231	-154.00959361194	-14.4751943788598	162.668411698883	
1577625000	-12.3138466459065	149.842900283364	-45.8433996679903	-163.517340341209	-45.5232948326771	-160.033937686613	-14.5129691934499	159.222004671555	
1578750000	-12.3454273602648	146.567227369824	-46.3607584294083	-169.027374791114	-45.5830979582888	-164.535915351498	-14.5586393466478	156.050108086846	
1579875000	-12.3616346938458	143.158649021627	-45.8619247011459	-170.723154546554	-45.6859678904482	-168.707797468389	-14.630180420872	152.557775793817	
1581000000	-12.4065316774206	139.960536765066	-45.4868608438836	-172.116929958126	-45.9257491705236	-170.801612584684	-14.6472852688501	149.359416564848	
1582125000	-12.4171444127052	136.659288790961	-44.7755360493196	-176.030937468543	-44.8762821921751	-175.983422285686	-14.6854800968339	146.204449460332	
1583250000	-12.4505961570533	133.315549066972	-44.528006678511	176.651416688041	-44.4415606210041	178.951421826821	-14.7130122884713	143.008434101595	
1584375000	-12.458085366273	129.961791367495	-44.4157698850708	165.726958694744	-44.0265452475304	168.894331481182	-14.7238667179755	139.587440340584	
1585500000	-12.48289998287	126.508935478012	-43.801071392901	160.92344609441	-44.152573270938	163.689041801949	-14.721704893226	136.269508700917	
1586625000	-12.514117810971	123.061655298262	-43.915319030222	153.679530887993	-43.8573249647173	157.220301969117	-14.7173363104087	132.627074201585	
1587750000	-12.5659782352594	119.665597439564	-43.7617038568641	145.751738331502	-43.9550871252797	149.234391710295	-14.7285427703539	129.14401109249	
1588875000	-12.5811067097046	116.179693249876	-43.7010461823417	139.860602942305	-43.6733440033127	142.792526543489	-14.752738669206	125.220538565647	
1590000000	-12.6066938195275	112.685735863294	-43.6769865597729	130.914161457438	-43.9782631884552	135.521005128491	-14.793218314742	121.722495466976	
1591125000	-12.6247001809133	109.282700950012	-43.9631016689746	123.766906236955	-44.1697705833462	128.770703170772	-14.8134564053152	117.894463686493	
1592250000	-12.6576413207637	105.704731324134	-44.5642629790495	116.51004676969	-44.3962339804435	120.870082645209	-14.8223995906519	114.311528843198	
1593375000	-12.6974470379572	102.233205576711	-44.9269622451007	113.551942298792	-44.5992509431976	116.177473614217	-14.8847113286192	110.47747283281	
1594500000	-12.724167408456	98.7544383913429	-45.0137458259553	105.576455877192	-44.64222569103	110.109190875034	-14.9513902307526	106.8426664418	
1595625000	-12.7473207137211	95.2650772273551	-44.8224284881722	105.882680054079	-44.8639591968168	108.981076875259	-14.965477039805	103.255049393321	
1596750000	-12.7626755866203	91.7725876692886	-44.3252074318334	99.2169883259188	-44.561608793596	103.68038923814	-15.0168138288832	99.7750143548163	
1597875000	-12.7904778258948	88.4300347675699	-44.0638742112147	91.9163400931851	-44.0855895936647	95.0323920676537	-15.0025483380601	96.2536679111475	
1599000000	-12.8238856731805	84.9282692267656	-44.5359481386231	85.9852455320573	-44.0942338228771	89.0007405258499	-15.0025676502554	92.6313851572778	
1600125000	-12.8234167269034	81.3136434358979	-44.3827272743608	77.4160130437883	-44.6528988437914	79.471942236119	-14.9839327153873	88.9207180510832	
1601250000	-12.8362341444365	77.8642179215806	-44.4411861577857	71.1937213939634	-44.7238668210577	75.4397891141058	-14.9987700668414	85.2684111533092	
1602375000	-12.8261005005046	74.33936005777	-44.6884888877297	64.6413007733459	-44.6952469565594	68.1632792745935	-15.0009317361082	81.4615541178381	
1603500000	-12.8405982045154	70.8388174197276	-45.057326505186	57.4853822742145	-44.8404514246768	63.2248170572798	-15.0003489386618	77.8625068275954	
1604625000	-12.8357762073896	67.2184539894795	-44.9623326320325	50.2489445932158	-45.0277003232534	56.9032222266817	-14.9628999866977	74.0962679326923	
1605750000	-12.7910372244882	63.7020174090184	-45.4865143840018	45.1530806698246	-44.9445531132257	52.5978827027827	-14.9362773241547	70.3916428758517	
1606875000	-12.7888883773811	59.9801231541362	-45.0695707373364	37.2637072849067	-45.1762350123331	43.9114448655726	-14.9147914783239	66.6135027574578	
1608000000	-12.7745317484293	56.1552864982022	-45.2199500472207	32.9690310647775	-44.7464302887841	37.8592054663401	-14.8916200234008	62.8583898668135	
1609125000	-12.7566320514508	52.3403002158406	-45.604255602737	24.3252054708645	-45.3626624387965	29.6326940331431	-14.8721469668772	59.0893043424963	
1610250000	-12.7549754834899	48.5077966767233	-45.9799891596877	15.1306084985513	-45.8277540405135	22.6506168361474	-14.8447928934341	55.3866364831385	
1611375000	-12.7677336201168	44.6945696904489	-46.8527316580041	11.5863405565558	-46.2712272000771	20.2790439188331	-14.7939045288156	51.8063999230533	
1612500000	-12.77626732915	40.7849049693212	-46.8386015492298	9.89524574034047	-45.7516786047867	17.0587005888433	-14.7347023292672	48.1456652818967	
1613625000	-12.7895939343248	37.1047655974038	-46.2849164796534	-0.176447130532178	-45.7703007931195	9.87876945369351	-14.6596033697963	44.5819445387346	
1614750000	-12.8264363137798	33.3667854162943	-46.4471167728257	-5.48172582817263	-45.6493704486613	0.51989881976428	-14.5782635507976	40.8494801932138	
1615875000	-12.8502640199255	29.7340593145966	-46.5252430137331	-13.3059637123603	-45.6622968867465	-7.61267615943795	-14.5059684254106	37.0854736755979	
1617000000	-12.8673340258285	26.2378033133623	-46.9884197996611	-24.0993054998667	-46.2256989336562	-18.568687199908	-14.3984154814815	33.245935925553	
1618125000	-12.8870246847536	22.7811187113255	-48.5119565273369	-29.364902056476	-47.2346975867008	-24.1779166400815	-14.3195877480696	29.3661102467381	
1619250000	-12.8871939253342	19.4458838979277	-49.5300773217054	-33.707122753658	-47.9138285008014	-26.209583851345	-14.2414778447662	25.4291016437732	
1620375000	-12.8327605731861	15.9509894086316	-49.3384330298949	-27.6446613596966	-48.509118117877	-27.0399910115994	-14.1478262236466	21.5379721546618	
1621500000	-12.8297292746351	12.5450753191034	-49.0271388251854	-33.2215727032587	-47.7298519807464	-33.1322388939392	-14.0928856571062	17.7256350741211	
1622625000	-12.7970765724624	9.13051837526925	-49.0110932141581	-34.5372967665956	-47.9240937665788	-33.9117077787422	-14.0120421557315	13.8912028200523	
1623750000	-12.7882434094638	5.76014014274803	-48.9960838198328	-41.2200004289352	-47.3402931585374	-39.4585786592037	-13.9328316424098	10.1023418327503	
1624875000	-12.7414290985568	2.31119649618895	-47.8376019326229	-51.4601685184457	-47.1590732932286	-48.1597105130819	-13.8741513828792	6.2234544311851	
1626000000	-12.645770380984	-1.22120725584165	-47.6127860185257	-61.4010707655154	-46.8670050703497	-56.772637816996	-13.8231424617942	2.39441222645374	
1627125000	-12.6008589675835	-4.63765098568178	-47.9558455546969	-67.7724947403783	-47.1337273320169	-69.0615445561915	-13.7505125222857	-1.31286567988988	
1628250000	-12.560239493602	-8.21500105839225	-47.6826561106973	-76.8025768220197	-47.4431820571139	-73.4679223170251	-13.7094658272866	-4.94800439311774	
1629375000	-12.5173319970071	-11.8165897453923	-47.7644793853321	-88.0608220223798	-47.7497112694607	-82.9235744282817	-13.6604127029645	-8.56316993363382	
1630500000	-12.460463011336	-15.3724657578721	-48.4529721120002	-95.8790136510466	-47.582941878417	-91.1426474760509	-13.6007556082587	-12.1477210884515	
1631625000	-12.408268479201	-18.9473277958503	-49.3144721480783	-105.984860252561	-48.1925659698246	-95.9146801376743	-13.5514256308173	-15.645802336441	
1632750000	-12.3759095752819	-22.5095382531005	-49.4766311720984	-107.720862020565	-48.427303672941	-105.418401476219	-13.4966938068949	-19.0540932808328	
1633875000	-12.3561172258625	-26.083080511799	-50.1266154941726	-120.681550962403	-48.3984154320271	-112.826378758398	-13.4278864002245	-22.2477787625563	
1635000000	-12.3354294627089	-29.4711996617356	-50.2767630876174	-127.226625148856	-48.7323822543264	-121.310294726989	-13.3523952965733	-25.724855428157	
1636125000	-12.3094186833688	-32.9988096696599	-50.005761414185	-136.051481349915	-48.7602965001995	-130.00576555209	-13.2693448052141	-29.2529030898094	
1637250000	-12.2744307758419	-36.4466338180463	-50.2225519085571	-147.45712111123	-48.728204956171	-136.997571326515	-13.1852524184552	-32.6051865639163	
1638375000	-12.2543510190678	-39.8068941788244	-50.2715876985086	-159.012560432965	-49.5263544870361	-151.284169738293	-13.1172132744265	-36.0614177937439	
1639500000	-12.2121402799987	-43.1449698518997	-51.2829253890835	-163.11151318728	-49.592334824242	-163.416606544173	-13.0615302028332	-39.4210911585899	
1640625000	-12.1709081530335	-46.4653746954473	-52.1208853892269	-178.715026193338	-50.9490592313519	-171.415561701936	-12.9925690741865	-42.6663504713291	
1641750000	-12.1384239586488	-49.6670143781099	-52.0349644562044	167.309547562453	-51.0501092385392	175.216511025496	-12.9246123002161	-46.0173226980152	
