!Keysight Technologies N9923A: A.08.15
!Date: Monday, 19 February 2024 15:49:46
!Timezone: (GMT-05:00) Eastern Time (US & Canada)
!Model: N9923A
!Serial: MY52412730
!GPS Latitude: 
!GPS Longitude: 
!GPS TimeStamp: 0001-01-01 00:00:00Z
!GPS Seconds Since Last Read: 0
!CHECKSUM:1162908266
!Correction: S11(ON Q)S21(ON Q)S12(ON Q)S22(ON Q)
!S2P File: Measurements:S11,S21,S12,S22:
# Hz S DB R 50
1500000000	-12.6638824639913	1.85964361177366	-58.2186435657736	-19.0540050377375	-60.764467297033	9.76048599487556	-14.9683330055081	17.3346929158658	
1501125000	-12.6433235641612	-1.09037067746349	-58.9185949074711	-39.9034085964525	-63.1126224548983	7.353101864842	-14.91734865435	14.0905248080285	
1502250000	-12.6010903551886	-4.10955863793036	-60.0682130977257	-51.1695397974483	-59.6488294744652	5.0651532036615	-14.8808592067208	10.9440656372826	
1503375000	-12.5819460001299	-7.23255194880535	-65.3249155971311	-58.4929618094759	-65.1846302667636	-26.3779512782807	-14.8387990952716	8.01978160452269	
1504500000	-12.5503931022693	-10.2797793352271	-62.6393566431231	-49.8443972433792	-60.7619199642263	-18.7343334292252	-14.7825960759418	4.95560770801796	
1505625000	-12.5258765851124	-13.223919750774	-61.1292966116295	-77.744604093354	-60.0625536040583	-44.4795090275415	-14.7260152253204	2.24574480072441	
1506750000	-12.4890051332785	-16.1938799183057	-59.517146099734	-110.145677959721	-60.8523382099802	-68.7271343714418	-14.6755910817752	-0.71511076804134	
1507875000	-12.4608196898862	-19.2401431808817	-59.7399543497223	-112.836111331181	-60.1803061750753	-103.267733829387	-14.6103326249996	-3.76382596653353	
1509000000	-12.4186060472839	-22.4146620220456	-63.244288691468	-151.714495428966	-59.1579285723807	-115.194299251065	-14.5145412941507	-6.57766653744639	
1510125000	-12.4091471712594	-25.3021408226503	-58.8356431723272	-150.736584078886	-60.192840728692	-137.990139687487	-14.4204942667415	-9.65549426787577	
1511250000	-12.3739297855438	-28.4046628139447	-60.2633943347843	-174.523593446504	-62.3881913744188	-173.459940630153	-14.3644586802019	-13.0419544484643	
1512375000	-12.3464795406688	-31.3394765442649	-57.7462052820414	173.984734612436	-58.4185412368311	175.395078402369	-14.3074883539555	-16.2810841436642	
1513500000	-12.3290571093453	-34.38465228763	-56.5046409777769	151.040124744263	-59.0306044163821	149.537920849031	-14.251813299249	-19.4932296550903	
1514625000	-12.2958750522053	-37.4664347333238	-56.6703372199937	122.915496652266	-58.995198479964	129.60798709764	-14.2318029730321	-22.5712628655115	
1515750000	-12.2544276078125	-40.4710791820175	-59.9297549220479	109.444112223488	-60.8338319167488	120.331663005908	-14.2027971970957	-25.4279289476088	
1516875000	-12.2057100899121	-43.4360373258112	-57.4523624562281	98.183956594749	-58.7056682476256	96.4185983525219	-14.1435686415534	-28.5347504705199	
1518000000	-12.1879845119781	-46.4390726266671	-57.0173509049745	69.4548352446563	-60.15033350273	77.8068730718562	-14.0834365873236	-31.7116457341382	
1519125000	-12.1608666976815	-49.5719505386754	-60.6903301373264	65.3587880784475	-60.1680427453082	52.9730012227219	-14.0358367594627	-34.9132224998315	
1520250000	-12.1297544207129	-52.4514738463604	-60.7868853120363	12.0850719211278	-62.2762075352162	13.7024743045138	-13.9997385291791	-38.1990352792817	
1521375000	-12.1109485599063	-55.6487181689934	-59.2760794186748	-18.2163581822075	-63.9292662320706	-16.1598019620495	-13.9537872213264	-41.3928177595606	
1522500000	-12.0929871103032	-58.6222872535842	-61.3138577631527	-55.3680247274469	-60.6667065202179	-51.9887757851111	-13.9272241081735	-44.5665758863099	
1523625000	-12.064917286939	-61.6750118565755	-57.9489956585659	-92.6860945159862	-57.6062285106823	-92.4626877449067	-13.9065012464518	-47.8527965026243	
1524750000	-12.0331312347182	-64.7473092342035	-55.2742204759519	-121.554994055606	-55.4384038529962	-113.178083871329	-13.8949616185626	-51.1786071212277	
1525875000	-12.0257153092148	-67.7001158677448	-51.7115943893518	-142.375551437135	-52.3174058308878	-138.931486309022	-13.8975835002861	-54.4981923907567	
1527000000	-11.9946000241042	-70.8776541875927	-51.7360174745543	-168.181272170832	-51.6745013747712	-161.515076342981	-13.9147231628695	-57.7149866755598	
1528125000	-11.9790032785579	-73.9598942964427	-50.7105450093961	177.168439359068	-50.2877193384408	-178.071422367554	-13.9437098456693	-60.9601212686918	
1529250000	-11.9866089835202	-76.8569073566476	-49.3710934421588	161.151124474986	-49.3597000837941	162.756531087632	-13.9742351460001	-63.9821769404742	
1530375000	-11.9590375022279	-79.8406142387517	-49.2922910759953	145.135832554904	-48.5908972288642	147.97454783655	-13.9849475768966	-67.0096617566226	
1531500000	-11.9404440651506	-82.7731882083022	-47.8734449077136	128.748622043456	-48.0020464895392	129.873512099295	-14.0143130823305	-70.0095840209978	
1532625000	-11.9191631051342	-85.7042924754617	-49.1394835675622	120.669273265182	-48.7801912076552	116.221268573707	-14.0341113423866	-72.904886088751	
1533750000	-11.9081910192505	-88.6183261370884	-48.1585848844847	108.111630363915	-47.7574623660972	108.371774411474	-14.0577417850409	-75.7611416595492	
1534875000	-11.8690492963083	-91.5873455598454	-48.4201699797461	100.09384296336	-47.8019181528495	101.006182904805	-14.0546383565453	-78.9459351358425	
1536000000	-11.8334294123765	-94.7188451323552	-47.5508524779888	91.2199700870008	-47.9805498681628	95.4772157770564	-14.081261731323	-81.8149603803066	
1537125000	-11.8153243917218	-97.76782685376	-47.2410877719565	78.5561475757233	-47.3335448579573	79.5169509985923	-14.0748272388455	-84.7909603543739	
1538250000	-11.7939951944381	-100.865171349921	-48.008414469034	72.0239925990248	-47.7923290612869	71.8606603014816	-14.1049886783946	-87.6748690336787	
1539375000	-11.7800530305432	-103.963950341215	-47.8086205769218	69.1669670893353	-48.0390927389544	66.8571040536274	-14.1565541401875	-90.6633339197322	
1540500000	-11.7888713591699	-107.135859901345	-47.7105637585347	64.8981148973572	-48.2270547839832	64.1846004152796	-14.1763272889689	-93.3602358583403	
1541625000	-11.7815062584596	-110.293709262829	-46.704944885961	59.424346777969	-47.585095513069	60.8331140241174	-14.1928918863967	-96.0390393913325	
1542750000	-11.7948666798807	-113.344270089441	-46.2032021628073	53.797883959177	-46.5048676264842	52.9319313222036	-14.2014576332495	-98.8251097633388	
1543875000	-11.8170720302821	-116.361466928752	-45.250889590658	47.7842990173164	-45.6004797659524	45.4682436863192	-14.1932782211894	-101.642771945803	
1545000000	-11.8118405446078	-119.266818331657	-44.9314782885288	37.8513758787081	-45.2672474378807	37.2380226528263	-14.183772487369	-104.498776219372	
1546125000	-11.8122270253183	-122.320676637064	-44.0701870091928	26.9232307493124	-44.7420982430333	26.1963811249143	-14.1912132969196	-107.48199368849	
1547250000	-11.8045983281033	-125.209882411939	-44.20796595226	13.0347529145973	-44.446833980032	12.3049637065365	-14.1842795320257	-110.358261863826	
1548375000	-11.7936597699588	-128.200547948847	-44.159874867993	5.17171339536057	-44.9372223202704	2.80264648993597	-14.1744318964999	-113.179245595716	
1549500000	-11.7798338161143	-131.363514003721	-44.9019405695639	-4.95440445891399	-45.5080239364047	-5.62447515963843	-14.1780380821323	-116.259506973202	
1550625000	-11.7899397070642	-134.378185885222	-45.1374592774959	-9.13187103388306	-45.7540719724374	-8.79403897312364	-14.1716785681115	-119.329061488647	
1551750000	-11.7965476483831	-137.389472996203	-44.806899381581	-13.5322101862745	-45.0059677772425	-12.1587834351114	-14.1963251593427	-122.507440946841	
1552875000	-11.7968427359891	-140.395281786147	-44.9382445327337	-22.3419361522562	-44.8311719370284	-22.0054089197524	-14.2070332257872	-125.627496524268	
1554000000	-11.7773339179842	-143.536812066772	-44.3943997142526	-30.075792276402	-44.9745120444561	-28.5942555927249	-14.2308089150325	-128.78030209596	
1555125000	-11.7845171298192	-146.585929018944	-44.9232621196299	-38.3051879752235	-44.7248738009513	-38.9415330342843	-14.2362947249733	-131.825639201464	
1556250000	-11.7670864841137	-149.844182441558	-44.6327859239274	-46.7695757564382	-44.4104573532602	-47.1864057802477	-14.2989023636114	-134.993409763087	
1557375000	-11.7831308119541	-152.981478494006	-44.6047095938974	-53.3617761419974	-45.0833749456193	-54.9868153024452	-14.3358819638366	-138.116926982973	
1558500000	-11.7777571118826	-156.271579841702	-44.7462769477661	-62.8738342632179	-45.3800031802584	-64.0023850693705	-14.3764737248951	-141.366177314898	
1559625000	-11.8101003200424	-159.543370797005	-45.2254604629521	-70.861631640136	-45.8132224085257	-71.6560927873858	-14.4252226767855	-144.3997146387	
1560750000	-11.8286804843808	-162.696900809419	-46.3442322228907	-78.5027625852365	-46.3158194716676	-78.9982201343527	-14.4845312073288	-147.392108529951	
1561875000	-11.8639590687107	-165.889785048714	-46.2266043159971	-84.108827823036	-47.303384094241	-85.5113137850934	-14.5412198758236	-150.447571118279	
1563000000	-11.8830579259185	-169.040382875319	-46.9873920246854	-91.2850052252057	-47.3459227372482	-92.1381348056971	-14.5823800043452	-153.34627341594	
1564125000	-11.8965132136658	-172.234657400381	-48.2706773720394	-91.0155093208849	-48.6271292087105	-91.1143950062543	-14.6322731299432	-156.379008138983	
1565250000	-11.9206028682501	-175.463009790497	-48.4621853652134	-92.3688527749705	-49.1009844832097	-91.7310573101306	-14.6904907433382	-159.494790860147	
1566375000	-11.9561330062812	-178.798287502288	-49.0114461601824	-94.5927297043901	-48.6644903996458	-89.7711768805653	-14.7407584950285	-162.61761298354	
1567500000	-12.0043211423652	177.875661098161	-49.0810714333507	-97.1039318559632	-48.4593347813436	-93.189317557103	-14.790517981653	-165.65183538586	
1568625000	-12.0494870553442	174.75887367372	-48.6127263075171	-93.0748447190666	-49.2931754495202	-95.6753892221002	-14.8449203564278	-168.698166621077	
1569750000	-12.0995417932853	171.687614449923	-47.5991840521256	-95.636844669583	-48.363642859243	-95.3639978890605	-14.9140686520291	-171.796741376291	
1570875000	-12.1409411707492	168.397317497257	-47.1335407709615	-99.9284056569801	-48.0442299906404	-99.0377026637537	-14.9609616644547	-174.808647646528	
1572000000	-12.1661862922944	165.362144695242	-46.2612147520974	-107.291725359061	-46.9160081866873	-102.077071580946	-14.9895676136245	-177.77667868591	
1573125000	-12.1957901144789	162.278798877927	-45.9235767925511	-111.078336580065	-46.7761318647238	-106.031913566713	-15.0192485771305	179.230712901364	
1574250000	-12.2222770420816	159.018822176679	-46.1032937708464	-117.817787774018	-46.9084920248087	-118.098196592463	-15.07445466134	176.154471877925	
1575375000	-12.2473606525985	155.77656131949	-46.0065091781413	-124.356765166489	-46.4340060850168	-119.135013909309	-15.082693098178	172.878084170446	
1576500000	-12.280697371227	152.554167702682	-46.0412315025175	-128.749551804569	-45.8975575076706	-124.3823261601	-15.101185911478	169.62634330008	
1577625000	-12.3032944653956	149.292195759008	-46.0400377414121	-138.333594175402	-46.325757472951	-131.159910973877	-15.1488481237741	166.328845140535	
1578750000	-12.3422677656839	146.022791340149	-46.559936563134	-142.896617038893	-46.6631977946747	-134.101696238141	-15.1993639632547	163.207967800261	
1579875000	-12.372591599648	142.636137763587	-46.4220070621839	-139.555889499549	-46.038501931345	-139.305387945939	-15.2310911978595	159.799831161607	
1581000000	-12.3983232290911	139.388673194208	-45.653398633704	-146.268400833373	-45.3073805585952	-141.832215613575	-15.2508750723939	156.371824897428	
1582125000	-12.4095929221219	136.119740819048	-44.3868274726993	-149.644904684679	-44.3679507372408	-147.763628845931	-15.3012173206711	153.109179380222	
1583250000	-12.4462735871908	132.853619040257	-43.8549523566004	-157.463606934327	-43.9861969582336	-155.271364166318	-15.332998694787	149.94946641327	
1584375000	-12.465745774308	129.394411874359	-43.3148984134541	-165.234093978682	-43.8031440291295	-166.06979172048	-15.3362922374736	146.503697013763	
1585500000	-12.4848424578606	125.909621649602	-43.3690820343211	-174.093636348397	-43.4205230315855	-172.992620833263	-15.3529942991081	143.074469736024	
1586625000	-12.5161619819799	122.469176131246	-43.9140937024459	177.26507147184	-43.5456858122107	177.198146302486	-15.3317251658502	139.398727934539	
1587750000	-12.5746994685347	119.048458990338	-43.5198768098074	170.985411181421	-43.7807609264135	169.470275073528	-15.3693572399065	135.87425750978	
1588875000	-12.5903281698669	115.473883403839	-44.0684787886449	166.361776482454	-43.7011073336755	164.842406157521	-15.3886864253731	131.960658409771	
1590000000	-12.6201232186231	111.963543195871	-43.9812227383125	155.135553280144	-44.2793272717299	156.708814625601	-15.436675550982	128.378319464796	
1591125000	-12.6579517117207	108.50643073454	-43.8804936823706	148.127072112233	-44.3842747639578	150.149646460343	-15.4752780133968	124.636335510685	
1592250000	-12.7041442848607	105.021208002752	-44.5149640177173	145.800264945238	-44.9111116466029	144.140611840525	-15.5037237258028	120.981125464012	
1593375000	-12.7533749259333	101.561215115046	-44.6555212838369	141.181715342527	-44.7713286511063	140.251459337133	-15.5674544037333	117.156332942384	
1594500000	-12.7698895751065	98.1420421429262	-44.4529599986856	135.994950219345	-44.6936675626585	135.754165318799	-15.6391218667717	113.394341419167	
1595625000	-12.7967434967564	94.7039799457638	-43.7332465319996	133.863171751689	-44.31953624943	134.955666192206	-15.6536721927415	109.920800472447	
1596750000	-12.8433576128698	91.2386732346872	-43.4138837511414	126.962493009526	-44.3782104096996	127.736411022363	-15.7265311142654	106.435493052545	
1597875000	-12.8659649203488	87.8841560186367	-43.6781384485729	120.13599164371	-43.7860519410213	118.803352617372	-15.7258475991721	102.828011532925	
1599000000	-12.8940858376883	84.4943888353904	-43.5708566188705	110.265342306863	-44.48010740262	111.653560925187	-15.7098935625655	99.3596488430896	
1600125000	-12.8897501948269	80.9507199436233	-43.5045443437266	104.454287593435	-44.086113323781	106.678075644771	-15.7054206848652	95.5749200252672	
1601250000	-12.8920238399345	77.5483080678179	-43.3807088585003	95.8940490180953	-43.8270126380486	100.187893253328	-15.7092888995847	91.8212273323335	
1602375000	-12.8713160959913	74.0687933924165	-43.37209565275	88.3275332418673	-43.76253893249	91.4282272872156	-15.709525468598	88.2559474436015	
1603500000	-12.8627970893291	70.4923858507126	-43.5443188813924	82.759801819891	-43.8599096662191	84.2343038141075	-15.6993278293361	84.4608456609749	
1604625000	-12.8622846940866	66.8839665177995	-43.738460986723	75.9345688698451	-44.0328668447285	79.3590497790945	-15.655330973025	80.567521134649	
1605750000	-12.8428218457068	63.3495364561523	-43.7035796917798	67.1129915891927	-43.7654257311647	71.8395245148002	-15.6489762061888	76.7353890464977	
1606875000	-12.8254506250828	59.6370082630675	-43.6222854589985	60.9108044207801	-43.7481079455019	63.8159678202039	-15.6202291387428	72.9047769629688	
1608000000	-12.8070877121502	55.9549458157349	-44.1356294085198	51.7000314296706	-44.2453004936149	52.716083074235	-15.646287644012	69.10695161876	
1609125000	-12.7812071235046	52.1981605798294	-44.6382433193349	42.4436660469894	-44.7812611219617	48.133832336696	-15.6224728462547	65.3865645043207	
1610250000	-12.7641777334842	48.3431873754796	-45.1080431412409	36.2612157667032	-45.6647347151769	39.6986036732647	-15.579890079543	61.7232828896718	
1611375000	-12.769265287107	44.4330704029363	-45.6044213502967	34.6155298783509	-45.9760553723856	37.1707761519154	-15.5265700854637	58.1228161263774	
1612500000	-12.7734809995938	40.575384925678	-45.2897386435267	30.8071055405398	-45.719886497438	34.7233626287694	-15.4677004215745	54.3770000053043	
1613625000	-12.797324391079	36.9098682077517	-45.3055268834002	21.99234881424	-45.3723526330174	25.1333300368255	-15.3814003191032	50.7955707877386	
1614750000	-12.8106617927489	33.1301190760479	-45.3368963181408	15.7077545179909	-45.3650221286595	19.1950133758095	-15.3035927634679	46.9504241076343	
1615875000	-12.8292875106008	29.5268508358331	-45.9764453472235	7.19414527742461	-45.6132699760211	9.20489325841723	-15.2184882904798	43.2222141109905	
1617000000	-12.8498540137445	25.9472830556632	-46.3966069452835	-0.517539600155751	-46.0305057287646	3.24989085822808	-15.1105832265237	39.211416508404	
1618125000	-12.8497871407705	22.5204315689194	-47.1622256790598	-5.68287270409778	-47.2302747950029	-5.76300626802947	-15.0241242311305	35.329496461523	
1619250000	-12.8544309501899	19.125911106721	-47.8694779165003	-9.73031209064038	-47.8278906837745	-7.9562484210264	-14.9424023774469	31.291592646022	
1620375000	-12.8205802242063	15.5763577157693	-47.1933880590764	-11.9255165005661	-47.7224408737144	-8.38169780840606	-14.8527900447406	27.2850892310713	
1621500000	-12.8208099423219	12.1745454219148	-47.6725031751555	-18.9631112537101	-47.709515969686	-11.5028469374836	-14.7902144666181	23.3251300150024	
1622625000	-12.8031364187539	8.77901092369269	-47.2310497730092	-19.742703177878	-47.7991121649919	-20.7783986630365	-14.7324087348087	19.4157221978168	
1623750000	-12.7605002324627	5.5730797116284	-47.2701056852819	-26.8167158901659	-47.68288302081	-27.7954001724272	-14.6664556544683	15.509696415555	
1624875000	-12.7303426338088	2.32431957250988	-47.5115367447072	-37.123034125257	-47.3627043932566	-33.3175662139609	-14.6029566937346	11.6051478435989	
1626000000	-12.6413931108137	-1.28123175897926	-47.8545837947767	-44.2135552855919	-47.7546615337708	-43.9701872560775	-14.5651815574648	7.81267967492107	
1627125000	-12.5917706816279	-4.68246457845854	-48.1248536383901	-51.3876909028264	-47.9650483784808	-49.8681899048614	-14.491951839013	4.0654054930618	
1628250000	-12.541408703545	-8.19267569302543	-48.4739572069385	-62.3081194946576	-48.2352377394285	-59.5445530570408	-14.4604912416707	0.323304782565517	
1629375000	-12.4922980086749	-11.8117845659566	-48.71080197641	-71.4950012492319	-48.949802990771	-68.017834983287	-14.4255015320321	-3.17585648446864	
1630500000	-12.4287063880617	-15.2536055192988	-50.2108537348301	-77.2355045594058	-50.6170365049881	-72.8356570670962	-14.3645043825963	-6.57142636297309	
1631625000	-12.3865756750704	-18.7314187498739	-50.921137848297	-79.823180015882	-51.1901204714732	-76.0682627384354	-14.2969644765601	-9.92254064116615	
1632750000	-12.3362228511023	-22.2683907670495	-51.2063162331767	-85.7100338885555	-52.214699507897	-76.8931581800642	-14.21094971603	-13.4204229368604	
1633875000	-12.2891009679228	-25.8865415985856	-51.5675544606814	-84.9403502392738	-52.2476797533389	-77.4302342756777	-14.1069585394212	-16.7445453890917	
1635000000	-12.2463290291337	-29.3679734984577	-50.4620305444112	-89.9794714327192	-51.6923264336707	-80.1553015000101	-14.0164729164849	-20.2672282799091	
1636125000	-12.2324380685456	-32.9102983403153	-50.9320153403258	-98.9656831097744	-50.9394623398655	-89.7658826968647	-13.9198851143355	-23.8651272817636	
1637250000	-12.1878714404881	-36.3220023078613	-51.3494175206989	-106.145762966703	-50.918075697425	-99.5458842164068	-13.8454196906313	-27.3087917269593	
1638375000	-12.1765462216376	-39.7451157164826	-51.3984454094982	-118.543360835513	-51.4246751827353	-106.200371211886	-13.7695008791868	-30.7900385973169	
1639500000	-12.1207233443523	-43.1030197462945	-52.273635416393	-125.779664828092	-52.3831354407013	-119.080452721525	-13.7154479545232	-34.2442555776089	
1640625000	-12.0808421175786	-46.5341141309373	-52.8978306925658	-136.518964599735	-53.2589763928249	-125.797227160126	-13.6476014814988	-37.580600169537	
1641750000	-12.0514817862081	-49.7203551759941	-53.4178379154281	-151.358984197115	-53.4930763113478	-135.284179467197	-13.5776848090228	-40.885203747742	
