!Keysight Technologies N9923A: A.08.15
!Date: Monday, 19 February 2024 15:52:01
!Timezone: (GMT-05:00) Eastern Time (US & Canada)
!Model: N9923A
!Serial: MY52412730
!GPS Latitude: 
!GPS Longitude: 
!GPS TimeStamp: 0001-01-01 00:00:00Z
!GPS Seconds Since Last Read: 0
!CHECKSUM:0281788363
!Correction: S11(ON Q)S21(ON Q)S12(ON Q)S22(ON Q)
!S2P File: Measurements:S11,S21,S12,S22:
# Hz S DB R 50
1500000000	-12.6950107312035	1.95280134358505	-60.5047696811213	101.556916287627	-59.2103967463199	106.646768293494	-14.9686297582433	17.1964976622471	
1501125000	-12.6659764669857	-1.06943689026764	-65.5782336772613	109.033048297633	-58.6422324180406	94.1851716018882	-14.8904552473681	14.1113064157324	
1502250000	-12.6276746148529	-3.94218372497559	-62.2242773680118	103.245819769072	-56.9804834479441	95.7118422366199	-14.8393241610617	11.1563075557958	
1503375000	-12.5962901144632	-7.09599688510589	-61.1656499027937	90.3766427924442	-60.5520246140787	89.2692344826624	-14.7849840992758	8.14897474079897	
1504500000	-12.573397153483	-10.1437592354892	-60.2321153374935	91.7723645183432	-63.3693654651622	79.0148306776744	-14.7190896072221	5.10028100425864	
1505625000	-12.5540442116237	-13.0956182161518	-61.6209959524004	96.8284521283746	-60.5588687755546	79.2496121720803	-14.6536042180745	2.18964967557781	
1506750000	-12.5272565604149	-16.1272409473691	-66.3167864080799	71.2282195321559	-64.5180610993315	72.8055290373991	-14.5958880116352	-0.70605654610102	
1507875000	-12.487199837475	-19.0896825495265	-62.8480915096942	104.020858507398	-61.8140044869195	57.417575307068	-14.5437380639259	-3.73684353625394	
1509000000	-12.4536422124767	-22.2691630873142	-61.9356623733386	79.0085413566458	-64.7097510711426	48.6340830210996	-14.4386575387116	-6.50205614782337	
1510125000	-12.4363862244782	-25.1447137491264	-63.5258615819702	100.581407367396	-65.378858829543	70.3550057635201	-14.3550221337531	-9.75111570248665	
1511250000	-12.4056602861169	-28.2981252069751	-59.3723513440862	102.401015159936	-64.2962981236048	89.4063397466037	-14.3045038051358	-13.1098722167492	
1512375000	-12.3693724613428	-31.1554331308337	-56.5742619069197	100.355936916408	-60.4964178065447	106.451546695471	-14.2452161320137	-16.3174346930162	
1513500000	-12.3644253905842	-34.2094950638425	-55.4725186368286	86.3658664323642	-57.9611103334595	94.4342547948612	-14.2038043898895	-19.4736202878128	
1514625000	-12.3172585507433	-37.2317451880281	-55.6082415373756	72.5595194372818	-57.1591639117663	78.3724474792966	-14.1732819385332	-22.5570197947644	
1515750000	-12.2878633848134	-40.2532976548611	-54.8337987580281	60.0723122002771	-58.5636889011629	66.3990236565785	-14.1431938507828	-25.5221680960955	
1516875000	-12.2357361766588	-43.1804311161581	-54.759715892492	57.2376153139528	-55.9671477040351	54.1796851959169	-14.0928614108885	-28.6287774574517	
1518000000	-12.208920361306	-46.2883018257533	-54.1672723201184	39.49261160092	-55.829752971019	44.7376849533542	-14.0443882607924	-31.748288687753	
1519125000	-12.1755853669372	-49.5265726211711	-54.0383251023731	13.6149995973066	-55.2821849495679	14.442246911347	-13.9991787941723	-34.9117422397216	
1520250000	-12.1674136334518	-52.342560906959	-54.2355747692939	5.27921979169595	-55.7557771558978	-1.5863938454216	-13.9392217651827	-38.2038609116434	
1521375000	-12.1418633540322	-55.4703705351425	-54.5505500315882	-15.7785848207268	-57.1831495722809	-15.1033794957176	-13.8960425660541	-41.305884392804	
1522500000	-12.113960464791	-58.4576104307239	-53.6248622306636	-39.2614043510179	-57.6691407514764	-37.8372503508649	-13.8772615999565	-44.5407862883594	
1523625000	-12.0829766955611	-61.5667288952673	-53.5386782484087	-64.9659264445826	-56.5401311334638	-63.0665178377966	-13.8581760710703	-47.9127514065836	
1524750000	-12.059905761969	-64.6023644350167	-53.9413332726015	-80.2762603294805	-54.0114255099654	-94.4204308751756	-13.8474716120992	-51.1799197463877	
1525875000	-12.0388083897797	-67.7156798948542	-52.2351551348574	-118.459985118756	-53.6098856704157	-118.968403266329	-13.8425245563362	-54.5008018299877	
1527000000	-12.0204350325485	-70.7566141789256	-51.8503185063911	-138.218362839668	-53.2093224202737	-146.963395254547	-13.8572372484703	-57.7200031070788	
1528125000	-12.009583232501	-73.876861825326	-52.0702304000259	-166.630393478409	-52.0171214637947	-159.992324649625	-13.8865844276676	-61.0138396890292	
1529250000	-12.0106897385627	-76.8552006174251	-51.8750491145045	175.475595061725	-52.5977767524817	177.438659905534	-13.9166127430589	-63.9998058350865	
1530375000	-11.9909107357179	-79.7254723483751	-52.0509385386199	151.031479055443	-51.2307654858832	153.41888990653	-13.9278941081024	-66.9709828359786	
1531500000	-11.9998326674588	-82.7284649373165	-51.8399292080238	141.452175353978	-51.0344363960109	141.501189113172	-13.9438459574228	-70.0574284641637	
1532625000	-11.9750455526563	-85.6190179880886	-50.7266654228549	126.973477342181	-51.5483318964417	126.695217926209	-13.9536176826234	-72.9989151126699	
1533750000	-11.9484120195257	-88.4789206828966	-51.2181266010602	116.170430137058	-50.3180346334463	117.501113754002	-13.9861092855105	-75.9509265904399	
1534875000	-11.9131454380904	-91.4231176632516	-49.8340531089877	116.673754119164	-50.0399895101809	113.548482797639	-13.9969087163039	-79.0491847367593	
1536000000	-11.8737218656267	-94.4715041321946	-48.9756756232133	102.174151586639	-50.0593306300018	101.289110341033	-13.9983356133159	-81.9380246695779	
1537125000	-11.8386822181793	-97.5715337518655	-48.9233736643098	85.7196289782034	-49.5404198323859	90.4675512815738	-14.0136957726726	-84.9655415095084	
1538250000	-11.8157338783122	-100.673745621349	-48.5402220421024	83.2687167632679	-49.7978534692586	76.9153485428192	-14.0357381885871	-88.0211031173554	
1539375000	-11.794237808252	-103.787173723179	-49.5065608017661	74.4425157312767	-49.5281647815847	71.5223174708883	-14.0599546958324	-91.0001053218866	
1540500000	-11.7801854652296	-106.971032975661	-49.314608620164	69.6229406624909	-49.8828161869787	62.49315157258	-14.0852101730882	-93.7676581323347	
1541625000	-11.7714544799799	-110.170825009372	-48.2066094890774	60.9396780978601	-48.1735114913341	62.6632712418917	-14.111432597044	-96.5114331557449	
1542750000	-11.7886134805659	-113.351092567041	-47.8170162955521	57.5333599742705	-47.3920291365921	54.0333089749069	-14.1395099497698	-99.4396486057354	
1543875000	-11.7990894971598	-116.338611745277	-46.9874230618143	47.820349597654	-46.8982859383488	46.2938999533113	-14.127847505482	-102.226123207095	
1545000000	-11.810890407695	-119.382273742673	-47.0684769171743	37.1492872722625	-46.6455947871189	32.3410897642852	-14.1213835814639	-105.070207074508	
1546125000	-11.8147897348246	-122.33751521386	-45.8086767700913	28.0986216819933	-46.4072913353138	27.9963179362881	-14.143427419458	-108.195374101137	
1547250000	-11.8112631653215	-125.241274214187	-46.1991190562252	13.9466364164064	-46.5423716456644	14.4049090803193	-14.1394410453465	-111.033439822711	
1548375000	-11.8009115866211	-128.221558777563	-46.0179316468968	6.93260842724229	-47.1399483268011	5.27009301191913	-14.1373631889671	-113.895968357214	
1549500000	-11.7952210086848	-131.357122696719	-46.9157632132499	0.95350972639072	-47.1259163139223	-0.289308816972189	-14.1579811764368	-116.867102096672	
1550625000	-11.7837550124369	-134.325415192471	-46.8692697081008	-4.81939237571578	-47.1070704799749	-6.93224813481008	-14.1523323506007	-119.97692499928	
1551750000	-11.8009830334483	-137.373691662778	-46.9170434414867	-14.3573435000078	-46.7584670605387	-10.8827854133156	-14.1774440510948	-123.158460740687	
1552875000	-11.7836663552418	-140.461439775171	-46.4082282550027	-15.437341832521	-46.5391991234148	-15.0691182488967	-14.1771469649991	-126.264135927856	
1554000000	-11.7663263844041	-143.598152162343	-46.5049153638774	-23.5490529297859	-46.1380890781549	-24.2289993379538	-14.2170812884094	-129.26511732569	
1555125000	-11.7837888294602	-146.719102183869	-45.6965589158228	-30.857758539712	-45.8944705045574	-32.6468066582135	-14.2352355690693	-132.474505216343	
1556250000	-11.7646205359213	-150.060721352221	-45.7595268904971	-39.9130014276072	-45.9052450946251	-42.9064494767653	-14.2714315130388	-135.527557568971	
1557375000	-11.7809235531095	-153.213687054551	-46.2256827855217	-49.4183905736104	-46.1624944601483	-49.2219182717462	-14.3280395854422	-138.721206931252	
1558500000	-11.7887583781701	-156.433358282011	-46.5094128903584	-54.2803980628074	-45.9924461925695	-58.9730928340123	-14.3600090019274	-141.841405872344	
1559625000	-11.8146548194947	-159.674566082251	-46.3569244652233	-64.8555367912704	-46.6192474362407	-64.5437496245796	-14.4092107516329	-144.842210510647	
1560750000	-11.8485645995051	-162.82778630153	-47.4016944514952	-73.4640650789957	-46.8724453048314	-72.6667753385577	-14.4717937981903	-147.844560958554	
1561875000	-11.871497157669	-165.930755910595	-47.985975342503	-77.8104096507006	-48.0341828814911	-79.304949792158	-14.4983698887496	-151.101790565946	
1563000000	-11.8891995262785	-169.121967096988	-48.4005431062459	-82.140715143915	-48.4696606956635	-87.0955148336448	-14.5452815187506	-153.872304885358	
1564125000	-11.9071529895258	-172.340836212201	-49.7445912299209	-83.546671647144	-50.4306805833488	-87.9553144556521	-14.6012577023529	-157.008867892342	
1565250000	-11.9244008174946	-175.580159422151	-49.5534147363699	-81.4879709665337	-50.8801190009353	-80.6453393098541	-14.6477903725013	-160.071418536953	
1566375000	-11.959401321514	-178.975447676424	-50.1597665558174	-79.617235668419	-50.1045307998166	-83.6430287646908	-14.6857509226097	-163.232634834102	
1567500000	-12.0215009048795	177.83131989881	-48.2887407750753	-85.3585650745001	-49.1607089960456	-84.9305648201947	-14.7458601586911	-166.316635666204	
1568625000	-12.0717498242275	174.706278130257	-48.7730043483534	-84.398750329641	-49.9821127335227	-87.5141504459223	-14.8081888390737	-169.381784331927	
1569750000	-12.1101192216772	171.587658389713	-48.8070845377035	-88.0708224806209	-49.3456072983256	-89.5884725723312	-14.8673208589943	-172.469961537197	
1570875000	-12.1447039015685	168.43841761426	-47.76697988481	-95.0254864101771	-48.3836485278438	-91.3943191106734	-14.9358590495992	-175.437588662568	
1572000000	-12.1712682838486	165.398079446727	-47.4176483546801	-99.6542123882919	-47.7103367168533	-95.4090986458123	-14.9666685569326	-178.277955064264	
1573125000	-12.1859194113538	162.286262712595	-47.2277037047826	-104.056346510171	-47.2518667282161	-105.948763485574	-14.9760928657349	178.738545218137	
1574250000	-12.2120411001887	159.032174756212	-46.7768312397842	-112.812102986161	-47.2524333998714	-108.436964642742	-15.0209480023583	175.504968683307	
1575375000	-12.2413801087062	155.773478760063	-45.9997012946027	-114.661587426452	-46.4485305832276	-112.873111142761	-15.023331787977	172.302461219821	
1576500000	-12.2804547788322	152.541105091933	-45.8773913507712	-120.995046196884	-46.3851658947443	-120.423276833237	-15.0555537331403	168.986508500063	
1577625000	-12.3039560733191	149.319754961287	-45.976423616076	-126.581262579718	-46.2476941023254	-127.717562249254	-15.0689645540256	165.681711373092	
1578750000	-12.3231320745458	146.05952909181	-45.8801979416237	-130.453257752873	-46.2303631732069	-127.35385403388	-15.1355233616086	162.328126237281	
1579875000	-12.3506424812485	142.687198098789	-45.8506453296099	-131.985377386712	-46.2132454687685	-130.243480635806	-15.1936212839619	158.960310788864	
1581000000	-12.391048301228	139.414022331577	-45.2959454436293	-138.028543946592	-45.1911618187696	-136.973343702787	-15.2244310069716	155.670326046508	
1582125000	-12.4158988621018	136.166831448663	-44.7622600826664	-143.676485834433	-44.5707068743931	-141.345355461236	-15.2589465878604	152.528516707871	
1583250000	-12.4399108647584	132.849960433406	-44.1510791986849	-152.066759301898	-43.5712897262459	-149.704001962527	-15.2930965767931	149.330707529161	
1584375000	-12.4523026651264	129.516581469946	-43.6739571518867	-162.15064124636	-44.0056910638958	-160.701080278665	-15.3214021987587	145.94568511825	
1585500000	-12.4779581238314	125.976301854253	-43.4959697574185	-171.494887825725	-43.7727021283571	-167.770970998228	-15.3164818185384	142.510265125029	
1586625000	-12.5125429744117	122.577555142441	-43.7072829700387	179.671724787009	-44.0701956630397	-175.807606263257	-15.3064753856713	138.879289164627	
1587750000	-12.5689910873158	119.127307860955	-43.6077988560609	175.730393253696	-43.8402593577395	178.590573652842	-15.3191354493552	135.260859359487	
1588875000	-12.5816710082299	115.674041386988	-43.7405354719868	168.580639078753	-43.7825036981109	168.649640686476	-15.3453029696759	131.283551711799	
1590000000	-12.5968910900286	112.227659746737	-44.0366306626024	159.681439674722	-44.0345925490305	162.118115229251	-15.3958688563733	127.870444092029	
1591125000	-12.6393769030139	108.73160644758	-43.9229498040889	154.331428694223	-44.206369836709	155.160113029642	-15.4454273790997	124.099850500223	
1592250000	-12.67936738189	105.205473414909	-44.538212607307	149.256378512869	-44.3698203336296	151.748571679002	-15.4559416391989	120.572910492527	
1593375000	-12.7081579276303	101.731496429467	-44.457837017067	144.89065486726	-44.7750692100319	147.716703400884	-15.5081723850034	116.736119670656	
1594500000	-12.7497086664035	98.2802188012712	-44.4763949321657	140.667334612652	-44.569399390065	146.987400042828	-15.5543541523397	113.068373314334	
1595625000	-12.7770645934416	94.8355607707315	-43.9359560535204	138.371702910669	-43.8379492434993	140.416961964065	-15.5698035999029	109.49871596835	
1596750000	-12.8185020942202	91.4151183196165	-43.4850862447136	130.356431552147	-43.8209678479094	132.005462714474	-15.6363305644202	105.944555877628	
1597875000	-12.8504327447304	88.0686713052418	-43.1991018231487	123.100880206213	-43.2334760451447	125.892454347103	-15.6460084332053	102.394375829512	
1599000000	-12.8688832105184	84.6619682029288	-43.2678090335628	115.921642179803	-43.2026477233231	117.000277111874	-15.6638327026515	98.7569432871512	
1600125000	-12.874717698941	81.0404427407742	-43.2563714996676	107.80188987522	-43.2547794698124	109.142696952993	-15.6273825048786	95.0916233516868	
1601250000	-12.8794120846462	77.6512388662113	-43.6869061654716	100.209558845416	-43.1820607023385	103.153768171543	-15.6447961476293	91.3410188057687	
1602375000	-12.8563186821581	74.2007564814424	-43.5609882196433	94.7136688925609	-43.3288024926273	96.3920509377509	-15.6550555669601	87.6748466067711	
1603500000	-12.8650026961637	70.6218245359967	-43.9299582569205	86.5465593352976	-43.4531658902882	87.5984447527288	-15.638663302259	83.9290994167484	
1604625000	-12.8585523280212	67.036260807426	-43.753533093375	80.8884379205538	-43.2660264912803	80.4287573435851	-15.6103580970787	80.0601090787237	
1605750000	-12.8377698039927	63.5184927460437	-43.8178895803289	74.7180089339949	-43.2570289846036	75.120916857802	-15.5960786666064	76.2506973616326	
1606875000	-12.827591198546	59.8542673607075	-43.5172215468936	68.3159272069764	-43.6523010467197	67.869484796757	-15.597187449548	72.4654223532621	
1608000000	-12.7957266219216	56.1167954647771	-43.8121434683094	57.9595662044378	-43.6978480149586	58.2147466799602	-15.5794545614636	68.6231003062022	
1609125000	-12.7747513854855	52.3253567203309	-44.5367602678141	51.5144950401867	-44.239356654442	51.3852653323561	-15.5694863831936	64.9307585415372	
1610250000	-12.7704177747264	48.4928330378504	-45.1072861652314	47.2487973897325	-45.0507414339788	44.9797632895758	-15.5309262442807	61.2931114875825	
1611375000	-12.7657171157532	44.5955941460838	-45.9396169064712	43.1246284989706	-45.5501244643989	40.7286040806726	-15.4866892451529	57.742448954949	
1612500000	-12.7847004493975	40.7636760039053	-45.2734173304249	40.2047828350291	-45.0039469920073	40.3986969552764	-15.4208839043798	54.131148971323	
1613625000	-12.789696531719	36.9883047157406	-44.9167673477173	34.4310823748062	-44.8128119149921	32.1955605911602	-15.344260059852	50.5286195286708	
1614750000	-12.8179989233584	33.2980648268169	-44.818347442815	25.4830003958824	-44.6276653100362	26.0315172987609	-15.2433848020776	46.7367164845207	
1615875000	-12.8390286466669	29.7040823006919	-44.8054685915041	14.5392655675968	-44.7852013286039	13.3441356271271	-15.1556980400397	42.8932801693214	
1617000000	-12.8575981509781	26.0652804080766	-45.3827390906527	9.14075515897467	-45.6602302347807	6.54107948402424	-15.0512594678263	38.9902397753536	
1618125000	-12.8561742211801	22.6902137068658	-46.4191406242234	4.32304380148813	-46.1120710870063	1.29083607767741	-14.9604913150404	35.0739335064435	
1619250000	-12.8410184994998	19.2368655112072	-46.5162933677945	-2.00872129410722	-46.1797181059431	0.86178054933094	-14.8879203127522	31.0146667876798	
1620375000	-12.8312029527216	15.7216296144283	-46.8128888765308	-3.98153734148964	-46.4060527367882	-3.65497603185571	-14.8074045462479	27.0034457436196	
1621500000	-12.8283806511544	12.3165239483425	-46.3984312152576	-8.0231439376657	-46.1107504435577	-11.1731951930084	-14.7251621755307	23.059165321105	
1622625000	-12.8016965875379	8.9279322220029	-46.4660272828706	-11.4671711219994	-46.2030270642719	-16.4724605611136	-14.6598478742187	19.118783647629	
1623750000	-12.7713262377753	5.59880665183382	-46.1646722874515	-22.6622166973866	-46.271641671348	-22.3679292765128	-14.5930355001028	15.2535855731449	
1624875000	-12.7344720858067	2.27513831469947	-46.3336271978369	-28.4702477694539	-46.2140821385881	-30.9788785470769	-14.5387387793516	11.3168810451218	
1626000000	-12.66644796571	-1.27832530434823	-46.1561885153331	-35.7617994115716	-46.1083345722839	-38.6514015811013	-14.4951742514622	7.425000137595	
1627125000	-12.6180266101845	-4.69177668722109	-45.8746627709178	-43.2481788510372	-45.8413240440423	-45.7146392368055	-14.4327876822393	3.71760882734163	
1628250000	-12.5548646256143	-8.15704366468492	-46.4989135874708	-54.9247841709149	-46.9413036670501	-52.1959500415088	-14.3799737358012	-0.0399720023884387	
1629375000	-12.5145088670974	-11.7089471799625	-46.8127684759449	-61.4551279546352	-46.9339614355604	-62.5633022181208	-14.3522757658844	-3.58239925649585	
1630500000	-12.459468192706	-15.2702399340221	-47.1758210737132	-70.8044180141932	-47.3142724233703	-69.2413729775943	-14.2868085245704	-7.09234502277182	
1631625000	-12.4175109354027	-18.7614822473274	-47.719996309792	-79.7469772447278	-47.7176492346997	-76.3117007059534	-14.224956202641	-10.5442040396674	
1632750000	-12.3574980541203	-22.3771011141444	-48.6846754597952	-84.2442164311361	-48.3918152211115	-84.0073861561856	-14.1664335772001	-14.0375009837782	
1633875000	-12.3159624969608	-25.8597027926661	-49.1061933335768	-93.0018814077452	-49.1507219755089	-92.6245067702266	-14.0686690762602	-17.2807252957776	
1635000000	-12.2877932771451	-29.3701345331092	-49.5515359630754	-95.2670175365173	-49.2190442198534	-94.1484931240841	-13.9880643134632	-20.8104567541207	
1636125000	-12.2582116989507	-33.0611105008344	-50.0262762707445	-102.910349796179	-49.7819925308247	-105.579388481398	-13.9056270385967	-24.3396866918501	
1637250000	-12.2303464099542	-36.4273990421637	-49.8841174808949	-105.363076703004	-50.2425445617789	-110.403664340128	-13.8230722372908	-27.6966458946677	
1638375000	-12.2056724822087	-39.8106309457483	-50.4898243043725	-113.581476793025	-51.4307176235308	-120.681434753584	-13.7441237218757	-31.200436781483	
1639500000	-12.1655543491788	-43.0999007531537	-50.9809340859561	-122.722953542053	-51.3578598221227	-125.26326532576	-13.6902627507511	-34.6009295671412	
1640625000	-12.1267372315995	-46.5224018688707	-50.9663908650795	-131.092951696122	-51.9616978688392	-130.24665284473	-13.6239783879016	-37.7654277578644	
