!Keysight Technologies N9923A: A.08.15
!Date: Monday, 19 February 2024 15:48:35
!Timezone: (GMT-05:00) Eastern Time (US & Canada)
!Model: N9923A
!Serial: MY52412730
!GPS Latitude: 
!GPS Longitude: 
!GPS TimeStamp: 0001-01-01 00:00:00Z
!GPS Seconds Since Last Read: 0
!CHECKSUM:0874157267
!Correction: S11(ON Q)S21(ON Q)S12(ON Q)S22(ON Q)
!S2P File: Measurements:S11,S21,S12,S22:
# Hz S DB R 50
1500000000	-12.6954812320062	1.80911451247035	-60.2227277496401	16.2945684610349	-59.3319788700309	5.44605041928349	-14.978150735513	16.9047141273107	
1501125000	-12.6640066615516	-1.28956872034424	-60.2047912589932	4.36026115168001	-60.2273182011894	5.50443462756339	-14.9138719734581	13.7177415137336	
1502250000	-12.6221651173942	-4.17949805437518	-62.4792798723531	-2.39578149642424	-60.9973638981377	-16.353681152602	-14.8716427506017	10.6491176601496	
1503375000	-12.5964184773661	-7.26591356999377	-60.2087921745441	-37.8623720889901	-60.7548035245087	-23.66838421952	-14.8258415418387	7.66736144211778	
1504500000	-12.5646272055545	-10.3038587708449	-61.3248418898463	-24.5188204511433	-64.3213438455306	-46.81175426501	-14.7849542830209	4.68260546997738	
1505625000	-12.5477049659912	-13.2162867761642	-65.1372627194475	-59.8869444298351	-58.9794395535496	-64.8006750678358	-14.7140401622222	1.80202287307434	
1506750000	-12.5204889859324	-16.3597240440099	-61.4902665547227	-67.509331859852	-61.8519277366889	-107.273429976577	-14.6567932162011	-1.11974385669155	
1507875000	-12.4697206920675	-19.2859300857581	-60.3924082349037	-128.817646616306	-59.2276947358358	-121.353326754375	-14.6036990625943	-4.08363210076232	
1509000000	-12.4346028458093	-22.3758870012722	-62.21435056926	-123.488337002195	-60.9423635815363	-130.988123523881	-14.5068488725819	-6.89886576423692	
1510125000	-12.3906379065746	-25.317996502682	-63.3117237387154	-152.65809984013	-59.8504134761567	-151.250281643488	-14.4195754605599	-9.97498099859265	
1511250000	-12.3810184088504	-28.4451385100764	-60.1660154016018	177.418139214948	-60.8740865187954	-168.492875198524	-14.3694012286883	-13.2174333472352	
1512375000	-12.3547248352114	-31.3930701911076	-58.2210111826512	160.766729312612	-59.9367648280022	167.163755582643	-14.3000632758957	-16.3567607164573	
1513500000	-12.334472144161	-34.4817567740588	-58.4213197174166	141.376575886459	-57.8965417483314	138.667459155178	-14.2398344334906	-19.5188364410031	
1514625000	-12.3015169477799	-37.4106602186851	-59.3062660167827	126.538867278484	-59.7296869872446	113.909345161594	-14.2088144230471	-22.7138078295398	
1515750000	-12.2750843774676	-40.4712053691432	-59.7139103342071	105.545364006377	-58.1168109676877	91.4621361538909	-14.1706682683041	-25.6081062041527	
1516875000	-12.2105760326985	-43.32293056555	-60.0204523094487	95.9477418693765	-61.0024154917954	80.51713866033	-14.115097995507	-28.6901648494116	
1518000000	-12.1848974986085	-46.4595211078519	-61.1681517370184	42.2937985504046	-59.5188245667804	56.3862862255657	-14.0595985506655	-31.8093187903775	
1519125000	-12.1669052065564	-49.5653891558414	-62.7169638793069	30.1137321550181	-64.304364660934	21.9109439065654	-14.0123315781803	-35.0297403710091	
1520250000	-12.1522385630002	-52.3970590067425	-61.5170293080125	-6.46988444455599	-66.1730500288785	6.17978136975835	-13.9613021688155	-38.3169369834202	
1521375000	-12.1118240078709	-55.5222050820531	-60.8150095491786	-33.1791835470301	-61.1424538270241	-18.9682909373106	-13.9125129222044	-41.3050988531421	
1522500000	-12.0767162437925	-58.5751620294022	-60.2160609138312	-48.1076114490498	-58.0939700179836	-65.0715624131589	-13.8894370662429	-44.526820453627	
1523625000	-12.0486365586887	-61.602291195322	-55.6845607509184	-91.9589514089005	-57.3877989828539	-95.8769020680754	-13.8595715485368	-47.7962233701798	
1524750000	-12.0207557045918	-64.6972609799405	-53.7582045611664	-116.069526276321	-53.5977911191436	-119.433017227117	-13.8308199048227	-51.1576344446129	
1525875000	-12.0162737415626	-67.6653714000467	-51.9896438780142	-143.278497296235	-52.8619469219635	-138.005386648657	-13.8347878808089	-54.4851068431744	
1527000000	-12.007380401844	-70.735401781004	-50.6242393041791	-162.648461060205	-51.055624678	-162.443452835983	-13.8442911277013	-57.6947630525593	
1528125000	-11.9807533110968	-73.8268867583889	-49.8718578302203	-178.288059847932	-49.3969283831397	178.405356571448	-13.8622805033372	-61.0000067812868	
1529250000	-11.9854567301247	-76.7323457609054	-48.9257498612099	161.024115542471	-48.4057591797471	159.256065523808	-13.9108402617308	-64.0852725957997	
1530375000	-11.9516734999823	-79.6266817349772	-49.2142248954868	141.156737859111	-48.3175893642225	145.444072907418	-13.9041189254514	-67.0475890988539	
1531500000	-11.9334965455485	-82.6010438014639	-48.6933161532342	127.569253994652	-48.5337912912126	132.063865301026	-13.9318578539939	-70.0409192570324	
1532625000	-11.9086813480569	-85.5517484539081	-48.0767992870064	118.45492118445	-48.2093876303921	117.205347480653	-13.9507873475629	-72.9133911878419	
1533750000	-11.8881154121331	-88.4237177655127	-48.1280647167798	110.040213356625	-47.9511885484695	109.293359730533	-13.9634902063628	-75.8481477796399	
1534875000	-11.8494288293884	-91.4653666671719	-47.8253397742776	99.1339672404664	-48.1290301230704	101.59291461308	-13.9689031544185	-78.8954804276036	
1536000000	-11.8109269133264	-94.5319150505404	-47.2892857167176	90.4615047029762	-47.5728237938159	93.5956558130555	-13.9610514878532	-81.8525032157943	
1537125000	-11.7962165073474	-97.5904868047575	-47.0783611926491	82.9565472378138	-47.1210699123707	80.6926306725017	-13.9923011628023	-84.8438467958917	
1538250000	-11.7704466700582	-100.69884218376	-47.7501459937524	68.8372435992313	-47.3445344932661	69.102100779594	-14.0223325292772	-87.8241930085904	
1539375000	-11.759671858712	-103.881486048427	-47.7977995575034	69.7631378081741	-48.2137171632542	69.5943430093756	-14.0556635435104	-90.8116739132248	
1540500000	-11.7593465060573	-107.080206490289	-47.3215434170014	61.1354426457663	-47.6267488112527	62.5137737889844	-14.086066500217	-93.5489265326474	
1541625000	-11.7676007384089	-110.163026852842	-46.5832730992445	59.8461729410556	-47.1926292984974	58.5175850411488	-14.1101809934236	-96.2557315516344	
1542750000	-11.7746505191328	-113.238093950816	-46.1927777628255	51.1260091711326	-45.8526937880542	51.8787954479002	-14.1245963172848	-98.9891524624662	
1543875000	-11.7759328387398	-116.226296290382	-45.3743563546901	43.0308426883115	-45.311315045982	44.1678695225212	-14.1225536344184	-101.777500077369	
1545000000	-11.7918395472209	-119.155656115555	-45.2804674895855	36.9270500266562	-44.4736821155036	37.3395307578065	-14.1031972092345	-104.753484395764	
1546125000	-11.7915283652503	-122.113294602945	-44.2994253152041	24.6623544490116	-44.7494790128891	24.7245214804143	-14.1125913310479	-107.712765192501	
1547250000	-11.7818448972425	-125.04005079055	-44.5877418392039	15.8315033017949	-44.3072529181446	13.8278763942311	-14.1065143055108	-110.638102045483	
1548375000	-11.7718870092306	-128.090817150228	-45.1591095507686	4.68064550399939	-44.4235821022811	6.28917185594339	-14.1192043602729	-113.555487157374	
1549500000	-11.7461173206023	-131.221954315921	-44.8885427690688	-3.82348868888717	-44.9227178474747	-2.11845526552975	-14.1069862485579	-116.57889570964	
1550625000	-11.749751269113	-134.263828339355	-45.0942764286823	-8.0745302811663	-44.8369727310353	-7.90205230547222	-14.1045787348352	-119.624337109664	
1551750000	-11.7621700606014	-137.280704505533	-44.8838250954354	-11.7124889714508	-44.9651996342731	-14.7745866946008	-14.1275671725943	-122.754928196083	
1552875000	-11.7545410951221	-140.365985275358	-44.5781161497782	-18.7786858012933	-44.7202995514192	-17.0867435733998	-14.1463047602418	-125.882972118105	
1554000000	-11.7365956135244	-143.515763856182	-44.3100640155627	-25.7806165267384	-44.1491338970082	-26.2743310850337	-14.17232708081	-128.999106012975	
1555125000	-11.7516112002482	-146.677606892929	-44.1093416338566	-36.5131387041132	-44.1305947519383	-35.6369631836081	-14.1967954922679	-132.013302721431	
1556250000	-11.7355707128202	-149.935317537739	-44.1228737140727	-44.7366485586874	-44.0481680871693	-45.0465278336165	-14.2402185337348	-135.168190877413	
1557375000	-11.7578507236607	-153.067774961506	-44.3903993996779	-52.7535430668043	-44.2777005361928	-54.9182785309616	-14.2732208794055	-138.300408615316	
1558500000	-11.7619107950342	-156.29745029141	-44.7568088290627	-61.768008804796	-44.5389252400608	-61.4684931393358	-14.3185528137446	-141.504541555281	
1559625000	-11.8006861233328	-159.633421798533	-44.7984962157498	-69.8754346963659	-44.694507325127	-74.2178399253314	-14.3663430002059	-144.602345024099	
1560750000	-11.8246448563275	-162.730621827687	-45.7183686646421	-78.4057782732228	-45.498310131693	-80.1143555618511	-14.4406779511094	-147.668646129157	
1561875000	-11.8486640676552	-165.971741566919	-46.0631803143368	-85.6065851535937	-45.9023883009384	-85.6900949283173	-14.4999333798553	-150.791433827865	
1563000000	-11.872132784329	-169.086653413436	-46.8591206776617	-93.5023252812282	-46.7903783079763	-91.0066478221215	-14.5228174589893	-153.645980031491	
1564125000	-11.888773710816	-172.262884853699	-47.818202388331	-93.2782182421947	-47.3416038785695	-96.6673013637296	-14.5705728028451	-156.703596271269	
1565250000	-11.9071956332983	-175.647490362831	-48.4874027855044	-94.5373811921761	-47.6373650813771	-96.3313926399575	-14.625976814384	-159.827127723691	
1566375000	-11.949880422495	-178.928922145805	-48.8378008831207	-93.6364638278427	-48.2016445800716	-97.8913156256865	-14.6706578439794	-163.027183027618	
1567500000	-11.9974128041104	177.863119644458	-48.1919070822766	-97.6934591690103	-48.2320327743828	-94.9500511850397	-14.7446520445323	-166.13175976918	
1568625000	-12.0622471066082	174.754136448311	-48.7367003692524	-94.9553597529255	-48.7634933792084	-99.8464081816363	-14.8299060519234	-169.138288854074	
1569750000	-12.0907204029976	171.694647812827	-48.5611538355267	-94.1428954719822	-48.0182263637304	-98.436979703704	-14.8904854870078	-172.131679081556	
1570875000	-12.1436969223623	168.332157117909	-47.5032654476043	-98.5891815782595	-46.8633392309162	-98.1995288451066	-14.9438319449169	-175.075594052007	
1572000000	-12.1838516307577	165.341043872003	-46.6304110164153	-108.165438968445	-46.6413315206827	-104.988445352161	-14.9777339224374	-177.99847512142	
1573125000	-12.1956746238208	162.21708895218	-46.3669181621103	-112.751508691022	-46.0187499632848	-114.917920646494	-14.9864326051489	178.964816510158	
1574250000	-12.2365669911192	158.969954489533	-46.0612786245697	-119.701198724397	-45.9873724083777	-118.962306026524	-15.03576817303	175.849150497066	
1575375000	-12.2538749643153	155.808265227537	-46.0038398817537	-123.862712895264	-45.8354257571512	-123.664435323594	-15.0606990684177	172.67127987664	
1576500000	-12.2830353331403	152.516192111319	-45.3350654433553	-129.66641038873	-45.4811848460125	-129.501943400796	-15.0794744875233	169.233963383218	
1577625000	-12.3058764442974	149.246616193703	-45.292014474485	-137.956984621976	-45.7936934037603	-136.216754028916	-15.1234201362958	165.978686423267	
1578750000	-12.3233858976647	145.966231606045	-45.7114786361197	-141.743034913928	-45.8398759046375	-142.666806606929	-15.1658691474964	162.787433301285	
1579875000	-12.3708758867949	142.636419603225	-45.9304925158597	-144.496183123886	-45.9103119058245	-144.055084074974	-15.2146969396587	159.473137987752	
1581000000	-12.4123326862509	139.242091230427	-45.0155539113198	-146.784245555528	-45.3091681818413	-147.462182952604	-15.2495160799852	156.068110680627	
1582125000	-12.4162490711476	136.104649357094	-44.52092634723	-151.853595340884	-44.5540201674159	-154.906253132992	-15.2819173946238	152.817572725656	
1583250000	-12.4522700552967	132.692958948116	-43.9858241037508	-160.076339319854	-44.0738982680938	-163.207300470317	-15.3140553255296	149.568215345674	
1584375000	-12.4652836295442	129.369973357751	-43.9488894961498	-169.510646623127	-44.0043070637901	-171.278695204907	-15.3381780993326	146.112465223037	
1585500000	-12.4886006501565	125.806896884633	-43.9633434748216	-178.858914582749	-43.8569033672681	-179.3815131124	-15.3556663610751	142.756529221478	
1586625000	-12.5305154571889	122.303143794056	-43.7535292873749	172.558430259354	-43.868840360701	172.9922220685	-15.3550510624811	138.991052217569	
1587750000	-12.5810364078414	118.90696358742	-44.1465277083117	166.008860690532	-43.5644276827298	165.225489213344	-15.3865178479413	135.608689304702	
1588875000	-12.5985511647224	115.428271493959	-44.2059695951818	159.929077765647	-44.1549758812323	159.388025324023	-15.4088367155041	131.770115280402	
1590000000	-12.6349622747899	111.874970640581	-44.3685765132652	150.692932824695	-44.1866885785834	155.219754871666	-15.4310401419977	128.209576838053	
1591125000	-12.6745619648305	108.386967129802	-44.5575606932862	147.046523817312	-44.3443510248515	146.289949032754	-15.4813768921195	124.378985822404	
1592250000	-12.7086539325242	104.81550941795	-44.7441933008079	144.638669412875	-44.9400500813848	142.604607849794	-15.4920007562988	120.817487765209	
1593375000	-12.7581770178247	101.446878394602	-45.1118473841901	137.474064029358	-45.0222610469275	137.992183125858	-15.5434633917876	116.937793388364	
1594500000	-12.7989983017615	98.034445574653	-44.9498329539649	136.724145618088	-45.2412294369511	137.411088190592	-15.6096388793519	113.184175831829	
1595625000	-12.8164603343779	94.618992343993	-44.2905926576457	130.521902126776	-44.4901195373229	133.048388056822	-15.6192327199575	109.506998944719	
1596750000	-12.8475167062616	91.1728153640058	-43.8504717081721	126.881856183593	-43.9847579100797	124.282758508276	-15.6929167207262	105.970930024913	
1597875000	-12.8863973402096	87.7265106527836	-43.9359992861562	118.076068838745	-43.7019129232664	116.580843866648	-15.7008178536161	102.319178227851	
1599000000	-12.8917053889756	84.3560151663507	-43.6612633865131	109.984002128701	-44.2047670611367	112.1071459834	-15.6896815118197	98.8716379844855	
1600125000	-12.8981658414173	80.797270410999	-43.8714943757746	103.769057489196	-43.8280195697134	104.354457859414	-15.6665937236355	95.1041037265309	
1601250000	-12.9081008713006	77.370788547323	-44.1184540403187	96.6315455232385	-43.9346736924433	95.7644912985109	-15.6817132715631	91.3987548746142	
1602375000	-12.8821823099335	74.0008257699922	-43.9039663755081	90.2132801704388	-43.8280841013046	89.1661041750216	-15.693310704061	87.5468760020258	
1603500000	-12.8863272529865	70.4302586810894	-43.9472305599339	81.7234029659644	-43.9303022750998	83.2626595649678	-15.6874904126178	83.7831380824934	
1604625000	-12.8801197278627	66.8450137480611	-44.1448097303131	75.7704195990037	-44.1717320120275	76.1300176429544	-15.6614935527475	80.0930921842183	
1605750000	-12.8377270748533	63.2970512267881	-44.0761911400716	67.9583814933556	-44.0866717269826	68.611877052128	-15.6536997843248	76.2292509975886	
1606875000	-12.8224453488223	59.6371522757888	-44.1676039969659	60.7370367035933	-44.2973867504731	60.9722379189525	-15.6188683935602	72.4734798636628	
1608000000	-12.8097575124834	55.8612631100387	-44.8781178871373	52.9418012217293	-44.5361946091863	54.3988356306882	-15.6176997837344	68.6179118084587	
1609125000	-12.7751903743298	52.0823978606076	-45.2942762738975	46.4610817272763	-44.6791139396574	42.46434372885	-15.6187054940806	64.8746167103571	
1610250000	-12.7787274467419	48.298272437503	-45.6848552191407	38.3348179909686	-45.3397868815456	38.1976661216461	-15.5796786075335	61.1648376473301	
1611375000	-12.7639822767879	44.3335026930579	-45.8692696382175	34.861407660481	-46.1178995648558	34.0241239800214	-15.534298103293	57.6074011029333	
1612500000	-12.7845871535157	40.4526978747634	-45.8174634848225	30.8704992016758	-45.7759708614938	30.1484818249343	-15.4629563891874	54.0111978717365	
1613625000	-12.7952376252742	36.7615503033456	-45.7455085657927	23.4526709494676	-45.6727382149037	24.8530940416769	-15.3885493119967	50.4952920574953	
1614750000	-12.8245683168546	33.0481545258012	-45.8622647821335	17.4735868699402	-45.7048674160463	15.9177017436234	-15.2948495380552	46.6546295273053	
1615875000	-12.8329764853475	29.3751807778566	-46.14115194391	6.32638187604297	-46.3933808119942	6.38447530931594	-15.2074495279093	42.8443088260414	
1617000000	-12.8632074868042	25.8787719211199	-46.7552147828944	1.36308267790307	-46.7389900544247	-0.982208935244274	-15.0892550304868	38.9373519805683	
1618125000	-12.8648919031316	22.413355915743	-47.834004655522	-6.58925859171702	-47.8048882131673	-4.24812316570612	-15.0066065247025	34.9320394755262	
1619250000	-12.8519254602149	18.9092789253636	-48.2853864590874	-6.19093139968111	-48.3547587125464	-4.73212760331506	-14.9265025415719	30.9176415921242	
1620375000	-12.8377756653141	15.5154373439754	-48.7061114776496	-8.64608282811215	-48.8498800074298	-10.3758701027879	-14.8301296509779	26.9952660193991	
1621500000	-12.8458572468953	12.2103015895386	-48.1961284914764	-8.0509038549659	-48.3318635194992	-8.80407325364462	-14.7613206148607	23.0430000335976	
1622625000	-12.803806245574	8.83499243851784	-47.9236265011336	-13.2761835889938	-48.0903834378452	-13.4422655972382	-14.6975319363426	19.1469979151544	
1623750000	-12.7760650630118	5.50573718149942	-47.5094487757469	-22.3962533632808	-47.4646396810742	-21.2027979593196	-14.6215879228239	15.2298131156873	
1624875000	-12.7431606741827	2.23630279274998	-47.6011989522076	-31.427342887367	-47.3726940529007	-30.8578759673406	-14.5742161352041	11.2367533030597	
1626000000	-12.6553731926596	-1.22584402404053	-47.6860453650254	-39.9237679364994	-47.4906678656979	-39.5816038144465	-14.5307792601685	7.39249519954693	
1627125000	-12.5975090747777	-4.58513814384281	-47.8853730008181	-47.4157803343973	-48.0862754738214	-48.7477873612578	-14.473980627164	3.73387829750559	
1628250000	-12.5461646170191	-8.13816825027611	-48.6883696356072	-54.5854256882959	-48.5001420215469	-53.5434854417569	-14.4209436483646	0.0836152281091327	
1629375000	-12.4984693842033	-11.6070235408015	-49.16469446645	-61.5968220953991	-48.900906618303	-63.826108922915	-14.3746762192361	-3.46401475941238	
1630500000	-12.4346688303455	-15.1473212825497	-49.6222117160661	-70.8440288329283	-49.5291748192491	-69.2552455339433	-14.3166597062929	-6.89137739740301	
1631625000	-12.3755875547828	-18.6458070680885	-51.0738655842724	-70.9528917524272	-50.5105560926894	-75.755384312235	-14.2513015609473	-10.3316802191786	
1632750000	-12.3308376758752	-22.2391059161635	-51.2695030166075	-74.3150178062485	-51.4017969946487	-76.259692352558	-14.1901720175031	-13.6406411140358	
1633875000	-12.2856108875663	-25.6877825488397	-51.4605349899851	-80.5117144048244	-51.4966708096076	-78.0534073951883	-14.0869085541551	-16.8951695108016	
1635000000	-12.2377893903191	-29.2724148862629	-51.4186857217335	-82.0878815667611	-50.9369833556183	-80.926777454952	-14.0049753826856	-20.4158238299869	
1636125000	-12.2190083528545	-32.8502053613289	-50.4813333952226	-88.9513673598137	-51.092156995137	-94.0932996812708	-13.8918089120808	-23.9835004182397	
1637250000	-12.181620085873	-36.2085833338905	-51.0740303287183	-96.4596983464757	-50.5731416252683	-97.9214798309417	-13.8083682325924	-27.3211398728772	
1638375000	-12.1511679598754	-39.617578878169	-51.4173313725985	-108.097938767067	-51.0353603336223	-108.360496431925	-13.7150252565137	-30.8684284921553	
1639500000	-12.1046401214312	-43.0385619382195	-52.1970844849947	-119.439286725986	-52.5263131345053	-118.938213802677	-13.6542453453224	-34.3315711982893	
1640625000	-12.0579536918306	-46.4444702821614	-52.7007976759471	-130.433110419652	-52.6034794288936	-128.07025730217	-13.5753838582663	-37.6771659401409	
