!Keysight Technologies N9923A: A.08.15
!Date: Monday, 19 February 2024 15:54:19
!Timezone: (GMT-05:00) Eastern Time (US & Canada)
!Model: N9923A
!Serial: MY52412730
!GPS Latitude: 
!GPS Longitude: 
!GPS TimeStamp: 0001-01-01 00:00:00Z
!GPS Seconds Since Last Read: 0
!CHECKSUM:1550921022
!Correction: S11(ON Q)S21(ON Q)S12(ON Q)S22(ON Q)
!S2P File: Measurements:S11,S21,S12,S22:
# Hz S DB R 50
1500000000	-12.6063741449797	1.67178736650756	-61.4465957125704	144.152300722008	-57.7729462189522	138.750537919087	-13.9779537349933	14.179363614422	
1501125000	-12.5924766693186	-1.4670823605254	-59.9504398609837	122.182741445901	-59.0106389783584	123.748788699366	-13.9059402644513	11.0144022470684	
1502250000	-12.5495185496236	-4.44021073514084	-60.9902332092236	122.969922175769	-59.3374506209569	114.709496795138	-13.8758432780646	7.99496714650658	
1503375000	-12.5434080206346	-7.62221100070436	-60.1244194674257	119.69202413693	-59.0078299449016	119.24901214203	-13.852376936789	5.04045678239258	
1504500000	-12.5210685707517	-10.6860250529748	-60.2175962482823	126.216398396919	-60.6361497382937	120.424392700387	-13.7985084889475	2.08203706914251	
1505625000	-12.5006998580395	-13.6723636858586	-65.0193364466003	109.538609334618	-65.3383930398407	102.228006544948	-13.739714448859	-0.807251771563083	
1506750000	-12.4784087452936	-16.6965017461103	-60.5052169783742	159.600249345244	-62.2320291722794	152.303020852583	-13.6833761251234	-3.7694497315068	
1507875000	-12.4552378511988	-19.6815176029614	-56.3745986889432	138.683718189355	-58.7196869631765	145.88970713268	-13.6302870680914	-7.00397325778111	
1509000000	-12.4125237676997	-22.7516628794716	-54.2209762718515	129.764486431864	-56.5796928295082	143.178169028372	-13.5454406188218	-9.84805380415802	
1510125000	-12.3885585974614	-25.8413940646501	-56.3266142108018	117.261434591786	-55.5166265766299	118.90799166907	-13.4831218668636	-13.0287594751426	
1511250000	-12.3664430070204	-28.8131650981133	-54.4767363227654	108.992412039811	-56.148473074235	111.597097225939	-13.4394929659024	-16.2880728838767	
1512375000	-12.3443809677038	-31.8277587019075	-55.6387731068789	95.1152042441359	-54.4911330960893	98.9382098126009	-13.3812945294092	-19.3991935229393	
1513500000	-12.3217643787094	-34.9755949982949	-54.6909341035874	100.132405646741	-54.908863256904	88.5586261144563	-13.3351296069746	-22.6504733945855	
1514625000	-12.2823680029752	-38.0661733710836	-53.6240028333652	80.625746195196	-53.8855279028822	78.0987755456883	-13.2947109791051	-25.7418973575678	
1515750000	-12.2716796716263	-41.1423513908461	-52.1006175507776	59.9270688378522	-53.432282769599	68.2636255273781	-13.2526034633129	-28.7884829929562	
1516875000	-12.2253511724766	-44.1706233434505	-53.3533882404215	44.066755464996	-52.8432440916662	50.1333153043545	-13.2022983586536	-32.0174621582291	
1518000000	-12.2190207857855	-47.266754992262	-51.3204818008559	33.3062783276949	-53.2543410836078	30.222719191516	-13.1336236722057	-35.2942048200446	
1519125000	-12.1962841945122	-50.4755168432705	-52.7758533049484	15.7319410772066	-52.6115248512096	13.9711226600845	-13.1093729986923	-38.585047648997	
1520250000	-12.1910567323164	-53.3410997441535	-51.9302482241823	-14.3880367930184	-54.7486867778501	-8.589322642091	-13.0842786870981	-41.9402095154455	
1521375000	-12.1834016633113	-56.5094408048064	-52.9684255712301	-32.6318110074076	-54.928305127472	-34.8186903575128	-13.0350880839107	-45.1781512061896	
1522500000	-12.1660414407644	-59.4900193293018	-53.8287280896026	-61.7152026259715	-53.9968679680296	-67.995718218899	-13.0153400434999	-48.5071729546698	
1523625000	-12.1445562157074	-62.4625535424558	-54.0945992208162	-80.5585184717839	-54.722545275818	-87.3615869278328	-12.9848455891115	-52.0126502352307	
1524750000	-12.1334730064772	-65.5979684055549	-52.6640225930313	-112.972965846811	-54.2718648944342	-111.483465409113	-12.9971155855663	-55.5111876998357	
1525875000	-12.1190621335608	-68.4851379466455	-53.5773641759331	-135.861792832395	-53.5076476174323	-144.059587185266	-13.0109600618421	-58.9593223779144	
1527000000	-12.1029405674559	-71.6273763484678	-52.2901339033862	-163.568841170298	-52.0733710228878	-166.078446532003	-13.0461884720093	-62.3274147862764	
1528125000	-12.0865803670624	-74.7096356926285	-52.3322722896746	178.912656469257	-51.3499901072449	176.443901989826	-13.0988437163609	-65.6351605573836	
1529250000	-12.1052783310105	-77.7632117167506	-51.399962771122	157.588709022585	-51.8768975874393	152.517155228387	-13.1442063132467	-68.6527593517486	
1530375000	-12.0880974633537	-80.6464598661349	-50.65042122497	139.515299181378	-50.8136875229131	139.884229887352	-13.1899984419843	-71.6863358965354	
1531500000	-12.0886228485067	-83.56374615503	-50.4637113793032	131.432365256556	-50.3922833440082	136.042856614596	-13.2000222263776	-74.7756604792438	
1532625000	-12.0639046474506	-86.4807846368897	-49.3540815908163	111.371278753296	-49.5295177726543	111.996630657076	-13.2300098332729	-77.7979889688201	
1533750000	-12.0373654725788	-89.3945384382019	-50.2660338693831	101.723600040895	-49.6750365704607	101.348813418735	-13.2520826484243	-80.7781671507142	
1534875000	-12.0202987304381	-92.459827677357	-50.0787154737179	96.6918465290639	-49.1496976125456	95.8438591436482	-13.2602206277657	-83.8262494470609	
1536000000	-12.0009652080515	-95.5038257994255	-48.9568297047093	88.0093184594472	-48.8719439945039	83.5786815489012	-13.2719695024024	-86.7633769738254	
1537125000	-11.9965723926281	-98.5238074867585	-47.9425282005223	76.1208351607778	-48.1162677015348	74.9967856700618	-13.2875500933658	-89.8570670867813	
1538250000	-11.9882932757759	-101.539055042537	-48.3856470302684	66.7497676854945	-47.7882305405056	62.4965803787519	-13.3056275075987	-92.8321538288518	
1539375000	-11.9804351623057	-104.554578222318	-48.219119482868	55.3189893285277	-48.4344902249675	59.9327115237234	-13.3411310334206	-96.0159491011055	
1540500000	-11.9700204941355	-107.664413185702	-48.0120567321775	48.6682925749271	-48.6084952403245	53.4020957751307	-13.3717108755642	-99.0172933465257	
1541625000	-11.9626828036079	-110.762111764462	-48.1817967256551	51.5862139300038	-47.41143573895	46.6327631908234	-13.3933424864233	-101.842652750156	
1542750000	-11.9729400421318	-113.727856563567	-46.9966632694002	39.17673578945	-46.5288513607624	40.574215215316	-13.4296768879978	-104.819640342432	
1543875000	-11.973531209799	-116.706017152024	-45.974848348027	28.6782560507313	-45.9556431421489	29.471898789073	-13.4338098592442	-107.85275300533	
1545000000	-11.9673850807141	-119.742752333832	-45.6601745311097	17.0509471680087	-45.4825820437399	16.510415838588	-13.4474204952739	-110.841052464803	
1546125000	-11.9700389575924	-122.757351489771	-45.9291545516118	6.02748616550498	-45.6484719510582	4.89943160644067	-13.4561102963939	-113.860487284444	
1547250000	-11.9753347000332	-125.728676103436	-45.5431095472617	-6.35872039627929	-45.9223093551836	-5.01495784354512	-13.45076824805	-116.908630347306	
1548375000	-11.9798749474977	-128.725235125208	-46.4703903665731	-18.6720816688754	-46.4681451925953	-21.6122399696814	-13.4736519009913	-120.021876133223	
1549500000	-11.9675538647017	-131.863348960727	-47.2511237829875	-28.0284409711289	-47.5818815566965	-26.1798472551591	-13.5083272180832	-123.18417708497	
1550625000	-11.9858172027247	-134.744183737525	-48.7073989730466	-26.9910295225457	-47.6090813613751	-25.6905323942293	-13.5190604560383	-126.209626229806	
1551750000	-11.9893299381992	-137.753107289063	-48.2739394712317	-29.2334175899469	-47.6701372609707	-31.7822876131207	-13.5518646613138	-129.452910857458	
1552875000	-11.9836987146291	-140.747244480025	-47.893996921477	-36.6534651905823	-47.091488785827	-38.5926363964703	-13.5648395202071	-132.5492294275	
1554000000	-11.9696871369795	-143.828899419833	-47.2447042729881	-43.3424755125064	-46.7982751423364	-43.9621207122425	-13.5976349640996	-135.700409909999	
1555125000	-11.9849664384428	-146.851084195465	-47.9575630591081	-48.5060712447386	-47.1946962008421	-52.7244509909013	-13.633100766584	-138.910148933087	
1556250000	-11.980141132784	-150.078120642008	-47.8967036586833	-60.1396567915237	-47.475059171404	-57.5103650765912	-13.6914455264995	-142.089560591993	
1557375000	-11.9914259780357	-153.199881470478	-48.2248619755384	-65.3583484401325	-48.0175366896156	-67.9438252736454	-13.7527714695321	-145.403140341141	
1558500000	-11.9923659914529	-156.332887242419	-48.2441653332456	-74.4413583533481	-48.0743541477149	-75.6727209730645	-13.8075800664934	-148.525360787763	
1559625000	-12.007674620177	-159.637700556983	-48.5347375842039	-81.8777194239345	-48.2193752662603	-82.6405705307816	-13.8471535058358	-151.619033337311	
1560750000	-12.041231049594	-162.655363661617	-48.6501029269033	-84.5778687473112	-48.8509764424476	-84.5725264424515	-13.8942555496032	-154.816700354971	
1561875000	-12.0717586688944	-165.84252355923	-48.9859314092661	-91.4915228596602	-49.5853526277228	-97.1248785629558	-13.9440332157865	-158.207075607595	
1563000000	-12.0710068182783	-168.843022616031	-49.6459025067392	-99.5805775430043	-50.1500826242173	-106.37076962867	-14.0121921342049	-161.162574776993	
1564125000	-12.0834012650831	-172.070238047546	-50.0063504088975	-103.027094685069	-51.335909818875	-105.88607657272	-14.1136378600687	-164.348184076052	
1565250000	-12.1126881158066	-175.291831887191	-51.9301782974416	-99.3883299156986	-52.2473820174576	-103.30519064956	-14.1836983750149	-167.426482139617	
1566375000	-12.1408307577465	-178.523657483911	-51.5387096482486	-91.0233526878443	-51.1351327232249	-92.354104675671	-14.2331897944324	-170.491781268413	
1567500000	-12.1876725447357	178.234464552299	-51.9590885576301	-102.0614218233	-50.8876659147931	-104.505312189207	-14.2738979637113	-173.697525471721	
1568625000	-12.2273573557388	175.223164355389	-51.0350584135244	-107.720192831929	-50.1868884727089	-108.250873183805	-14.3487774352349	-176.854228619381	
1569750000	-12.2667228245461	172.171988893249	-50.4536172858651	-107.919632235668	-51.6265620076873	-101.569173457165	-14.4399281588522	-179.98040950355	
1570875000	-12.3072809851521	168.999095723496	-50.4646993258648	-109.34283039918	-50.2855648461143	-111.225077873445	-14.5012011345234	177.065857151713	
1572000000	-12.3209577879115	166.024860494033	-50.3248682451541	-111.705822090588	-50.1148984747558	-105.736707224933	-14.5689640247488	174.112015787246	
1573125000	-12.3277727348693	162.956051005225	-49.7912510945887	-123.165651225336	-50.1739032010449	-115.536989085206	-14.5999969195408	171.142075708232	
1574250000	-12.3467760678741	159.753181641534	-49.7020384974324	-126.288182711594	-49.780583308896	-122.96388329788	-14.6318578314461	167.972859848816	
1575375000	-12.3686336523176	156.47742715643	-49.3621012375575	-127.19536336787	-48.7524690321179	-126.745325335563	-14.66562420309	164.705278893502	
1576500000	-12.4007617752733	153.314917321622	-48.6774835549781	-133.722142361239	-48.5668675800119	-137.001457574201	-14.6983837405526	161.419571950768	
1577625000	-12.4145137880428	150.06035237016	-48.8766221623948	-140.589414920563	-47.9092414159122	-144.366957908124	-14.7438018727844	158.199255616455	
1578750000	-12.4453540861908	146.825945323231	-48.6250712153589	-147.99512259362	-48.6328728890233	-146.764852719496	-14.8182172759975	154.953770431355	
1579875000	-12.4688959367788	143.520081765366	-49.3408839001274	-147.186525425435	-48.7665957879694	-150.971647857159	-14.8604850983388	151.845156245221	
1581000000	-12.4860096111527	140.184130865143	-48.9214757379993	-152.88393049186	-48.43814325984	-152.562917072891	-14.8927686398111	148.501218033865	
1582125000	-12.5078336242214	136.911460003366	-48.112928608693	-158.971000024653	-47.4165427335574	-160.011769735725	-14.9180713305958	145.376991875428	
1583250000	-12.5443429367948	133.583808332394	-47.0648769984561	-167.248411450792	-46.5888703866783	-169.179074303538	-14.9418474212091	141.911576947756	
1584375000	-12.5646691922126	130.220440541411	-46.8981198613179	-175.984352464503	-46.3637173076606	179.555482822647	-14.9917126466279	138.65175048927	
1585500000	-12.5803609117189	126.909254381052	-47.4013985152865	174.890934250569	-46.9131501187298	168.627005473389	-15.0074001352954	135.254787399362	
1586625000	-12.6189561115995	123.488641080129	-47.6459294034286	166.748032257648	-47.3108430170342	163.391492094869	-14.9847469329676	131.735577008913	
1587750000	-12.6549536022147	120.106537119069	-47.613345138716	161.701287611082	-47.4845524799758	157.784658943955	-15.0055733615504	128.199734089956	
1588875000	-12.6784519805748	116.691852742923	-47.7075967353956	154.330335902044	-47.3890808345616	154.264322291578	-15.0208003290181	124.295759678762	
1590000000	-12.6958304530161	113.257028261437	-48.0676968236531	146.961157362981	-47.7189431576819	146.29125300187	-15.0708808709676	120.577175204208	
1591125000	-12.7213796743614	109.784798293922	-48.3073501070407	137.41811023069	-48.0631553625105	135.626122523639	-15.1289964663858	116.76636232082	
1592250000	-12.7536254171354	106.327359706111	-48.5524055494715	132.70965780298	-48.7366055498224	131.608024732355	-15.1703821855839	113.234299265929	
1593375000	-12.7773099392652	102.880602720161	-49.1130722944119	134.819337669674	-48.8395759129176	131.812133309732	-15.2509687915053	109.499337708399	
1594500000	-12.8181041050078	99.3507629984928	-49.1112644195052	131.874030275284	-49.5098913953135	125.280116079302	-15.3332320466695	106.041111312309	
1595625000	-12.8339488211082	95.9465517474221	-49.0452132471097	129.099952968963	-48.8963304421551	128.900853114935	-15.3750616240214	102.699699121166	
1596750000	-12.8734550269457	92.501597034211	-47.6745662662114	121.346317461018	-48.0892181752766	117.50287551054	-15.4161184675927	99.5202975333337	
1597875000	-12.8861946660388	89.1629738655225	-47.742878456998	119.387202052863	-48.288368151613	107.729531894559	-15.4221195565155	96.1423139010814	
1599000000	-12.9063958735547	85.7974426065432	-48.5592842014215	98.6738942792256	-48.4765653435381	102.7877677299	-15.4285154129013	92.7413691131448	
1600125000	-12.9002216026399	82.1510749260808	-48.282490306237	98.9219119744695	-48.6071228897177	94.5310393278905	-15.393642301712	89.2317320051124	
1601250000	-12.9163484288723	78.6569866656601	-47.9007770289489	92.1541245861066	-48.4290527147947	86.6785387505807	-15.3897144467214	85.6878906050469	
1602375000	-12.914918459073	75.2949216462194	-48.2455539535856	82.9346074266627	-48.8062439603771	79.5516547815041	-15.3745394177611	82.0178279119618	
1603500000	-12.9235223949362	71.8278021458951	-48.7075865461177	76.7951184778665	-49.2994877097236	72.9689040677138	-15.3407650079451	78.4492886292195	
1604625000	-12.9018166562301	68.3587392390602	-49.051812407304	70.838667199489	-49.0187008538237	70.6392412258945	-15.2993796656134	74.7719450105977	
1605750000	-12.854955290421	64.7528546940672	-48.6375989751368	68.6674270124253	-49.6503687993296	65.3692953650917	-15.2526693238694	71.0780636494138	
1606875000	-12.8360839168424	61.0621444650311	-48.2849337616482	60.787494976843	-48.632036217854	57.5275947172021	-15.2287990387633	67.2767302078544	
1608000000	-12.8086085663895	57.3401549763186	-48.5816831191439	51.2313820233237	-48.6656141717953	44.6895472407329	-15.2068589816906	63.4926678236851	
1609125000	-12.7720712036103	53.5093869556863	-49.1131153640475	40.42300302819	-49.3372199076591	38.309333124256	-15.1860436474224	59.8691078890002	
1610250000	-12.7664665941254	49.6226680194329	-49.1453923974373	34.0149090867509	-50.1142293329129	27.8072323968418	-15.1246500949065	56.2667637394566	
1611375000	-12.7683617437578	45.7181863238722	-50.0739500185353	28.020532672986	-50.2425865419886	26.5649515804504	-15.0698679992743	52.6118435522386	
1612500000	-12.7678243067147	41.7962663691292	-49.9446268620118	25.2418513993555	-50.3306816909967	17.6141625695382	-15.0249277885098	48.9161551426076	
1613625000	-12.7984283342828	38.0040286221846	-49.7479632557133	18.4846350133256	-50.5232159214299	12.8113949497049	-14.9580590146583	45.291587850538	
1614750000	-12.8153174874438	34.3416666243537	-49.7868940905771	5.44470383488289	-50.3323914388295	2.96887387491756	-14.8722005956826	41.6064586846497	
1615875000	-12.8463174414622	30.6643499939486	-50.0492385593123	-6.95920280859232	-50.9700102120779	-11.2787202442004	-14.7930277956966	37.8423655649613	
1617000000	-12.8603953052123	27.1114571427123	-51.6256950936406	-23.2629583735647	-52.0807454998037	-26.5309238921285	-14.6936509438882	33.9394941510067	
1618125000	-12.8646927431572	23.6915380670302	-54.7531743354515	-34.9280821791509	-55.1038921078826	-37.7034707504049	-14.6275004590899	30.2017433998484	
1619250000	-12.8553491385913	20.2765848615164	-55.9267215534936	-27.4610613896033	-57.4523174991977	-25.9283368002694	-14.5479236675607	26.2597125634794	
1620375000	-12.8276698061657	16.6804363278972	-58.0579790001719	-10.8695829502435	-57.1948616951548	-22.1137151166452	-14.47880824292	22.3717088817433	
1621500000	-12.8317501721829	13.244185502512	-55.5711072745307	-8.41289217559105	-57.3688310696076	-23.5823591865576	-14.4103052431239	18.5881701530477	
1622625000	-12.8158818978653	9.87568883972894	-55.7852685845448	-8.24102018890793	-56.4350064878345	-21.3844511024961	-14.3559247952661	14.8669729965954	
1623750000	-12.7883394757276	6.54858406414005	-54.6109736288195	-11.5005807147903	-56.2087827649312	-24.7806986102219	-14.2945171208803	11.1147325635977	
1624875000	-12.740386684128	3.25504154767839	-53.1478595342708	-29.9072791308664	-54.6791818440991	-34.3125201136773	-14.2389535871622	7.33506959765174	
1626000000	-12.6541900598721	-0.329488352663448	-53.4044330362049	-37.4278157385918	-53.3824944320926	-41.3239223507288	-14.195952459496	3.70719546532291	
1627125000	-12.5923210449658	-3.65715805326962	-52.7464522882118	-46.626170128282	-53.8103317198998	-50.4275989261143	-14.1022137822157	0.186133218865714	
1628250000	-12.5479753275309	-7.28112486379247	-52.9647407021747	-60.415615279452	-54.234839076638	-63.2690069859632	-14.0376149044063	-3.476601033063	
1629375000	-12.4841419383793	-10.9244222871237	-53.2650746155564	-72.1383888338456	-54.7215358426722	-77.0035058553169	-13.9816385151727	-7.06323554919384	
1630500000	-12.4347903536976	-14.5011458389675	-53.673916830106	-85.2014610970581	-56.4801297117777	-90.2330117750771	-13.9166411586909	-10.5954093123203	
1631625000	-12.3900628571589	-18.1030527513903	-55.6178460364781	-94.781007363117	-57.3781416459693	-99.4300892129716	-13.8692866671053	-14.1151420258684	
1632750000	-12.3457878362745	-21.6578486721559	-56.1768187001092	-93.3880293264844	-58.6715713922908	-98.5972674649901	-13.8066749392072	-17.4744530709114	
1633875000	-12.2984940640184	-25.2183288226054	-55.947508926193	-96.4682166567497	-57.1099849589626	-101.223511202159	-13.7269801176125	-20.7862364771221	
1635000000	-12.2657781599389	-28.7034798030029	-55.8224743355982	-106.739861437592	-56.7814578304091	-111.543542727013	-13.6571134238312	-24.196691218599	
1636125000	-12.2444079913533	-32.2596267951813	-54.6955364349411	-115.134038876843	-54.6965225074253	-121.396199250674	-13.5663968387691	-27.6198179992236	
1637250000	-12.1962375696773	-35.6669129920395	-53.81255596636	-135.878254213199	-54.4700799047178	-140.52899855855	-13.4866505619731	-30.9758686399073	
1638375000	-12.1543323601044	-39.1084513182767	-53.438008902233	-153.500956094853	-54.3980510291093	-163.018659248645	-13.415197602097	-34.3829979589344	
1639500000	-12.1033720008972	-42.5436678556249	-53.823783223155	-177.533093086171	-53.7515893040567	177.462880095593	-13.3663685988536	-37.6942827836641	
1640625000	-12.0660372973478	-46.0142068708495	-53.9341490635559	163.790464221751	-53.489652935041	154.209985297265	-13.2783682721531	-40.8702598110462	
1641750000	-12.0411856670551	-49.3330827180522	-54.0945215145556	143.99886632291	-53.7032886712776	141.376181118515	-13.2059279831917	-44.2278271489729	
