!Keysight Technologies N9923A: A.08.15
!Date: Monday, 19 February 2024 15:46:54
!Timezone: (GMT-05:00) Eastern Time (US & Canada)
!Model: N9923A
!Serial: MY52412730
!GPS Latitude: 
!GPS Longitude: 
!GPS TimeStamp: 0001-01-01 00:00:00Z
!GPS Seconds Since Last Read: 0
!CHECKSUM:1163614214
!Correction: S11(ON Q)S21(ON Q)S12(ON Q)S22(ON Q)
!S2P File: Measurements:S11,S21,S12,S22:
# Hz S DB R 50
1500000000	-12.6525755375936	1.67867198089785	-57.1947011244511	25.654125788032	-60.7710972522583	16.9707116843496	-14.9652466430479	16.9434736552095	
1501125000	-12.6251217605477	-1.30575848116815	-58.5082720331128	8.36010943568126	-61.6814136766439	-0.47381205842498	-14.8969455223893	13.7524155730437	
1502250000	-12.5733954293578	-4.29273218955609	-59.7566001048077	-0.455474432201796	-64.2612832703788	3.44572956294042	-14.8546439535812	10.6098892256775	
1503375000	-12.5494704143094	-7.38222229987312	-60.5235302715388	-3.01092387426091	-69.0656987343548	-32.1462531694363	-14.8407224905731	7.69989932153366	
1504500000	-12.5408862104058	-10.488880952448	-60.0740825398159	-25.9025163445414	-65.3539415627146	-15.4579306937022	-14.8023009701676	4.70072639059596	
1505625000	-12.4975618690974	-13.3967873120431	-60.7388147480306	-51.5684233777323	-65.0300369057797	-49.481854070205	-14.7413817385485	1.91807648794001	
1506750000	-12.4725494847322	-16.4151297264173	-58.6451633838436	-58.9307255370956	-63.7230500581739	-74.5872286189213	-14.6864883792204	-0.947423657059637	
1507875000	-12.4475429034631	-19.4061552256288	-63.1992181946363	-75.4010626776222	-64.2443725489469	-126.703339566835	-14.6389552530075	-3.98315522159369	
1509000000	-12.3987190750041	-22.5226390844443	-60.5761435742655	-111.054798768225	-61.0032163102856	-144.520344453674	-14.5373319443117	-6.70966726690041	
1510125000	-12.3624010016135	-25.4873044848459	-62.1672134220746	-132.511671180574	-64.0821242426668	-154.592210548482	-14.4684797619365	-9.69976372812541	
1511250000	-12.3424057341602	-28.6083824875807	-64.3100885886268	-152.564590522384	-61.7861398201959	-178.80603244745	-14.3996761592692	-12.9314869812933	
1512375000	-12.3292534070899	-31.5587265315581	-60.3852523786229	178.440427702039	-62.3631238343147	154.061932777517	-14.3274837572021	-15.9696415754859	
1513500000	-12.3019262330562	-34.64592959416	-59.581330670945	148.680953989149	-63.3715855898128	141.223354431937	-14.2554605601255	-19.0706102995225	
1514625000	-12.2704352357231	-37.6255142062307	-62.5988668973544	116.117517031246	-60.4213809567252	112.575151783639	-14.2169917585106	-22.2037505338423	
1515750000	-12.239476158628	-40.5638176485422	-60.0983542602435	91.8057011037182	-63.4339612136623	89.5807727983746	-14.1866420023388	-25.240234589851	
1516875000	-12.1901524510689	-43.5471186791346	-61.8663576490962	74.0880024449099	-61.7530704278382	79.878397981161	-14.1139687725206	-28.3596164357317	
1518000000	-12.1516378080677	-46.5880212443646	-60.9356272173786	43.4982249343392	-63.5117456640355	59.4703155512127	-14.0560552154155	-31.428042567661	
1519125000	-12.1418780766655	-49.7584410408143	-60.4789487798494	32.0946963075363	-62.0560447747702	5.68293024951721	-14.0192249890686	-34.7220541306107	
1520250000	-12.1149796016194	-52.6886753097353	-60.0969308012161	-29.1758321348979	-65.1759561791624	-6.49457297663438	-13.945234127201	-37.9284920692761	
1521375000	-12.09368973772	-55.7652894696028	-60.4917915413953	-54.6307737717618	-62.0551805194093	-36.4967959926192	-13.89728258681	-41.1604675516401	
1522500000	-12.0795312844261	-58.8248011162317	-58.8982327272114	-71.7937877631711	-58.493351985282	-52.9501264358419	-13.8657115250637	-44.3115151701578	
1523625000	-12.0410870766397	-61.7527105759278	-55.9115798106821	-104.944143409749	-54.7036015854468	-86.0450874522697	-13.8569355614875	-47.7550556529783	
1524750000	-12.0200819808838	-64.8491707723642	-53.0573118438154	-123.594367283261	-54.9157308534023	-119.178496628966	-13.8284463560239	-51.1204481449688	
1525875000	-11.9912774052776	-67.7904771803059	-52.9991270466171	-141.704831371699	-52.9017768708798	-131.854911969631	-13.8340065079614	-54.5020078120721	
1527000000	-11.9850556883176	-70.9706075988053	-50.2324176575423	-165.204671183934	-52.3418230939953	-162.334144836897	-13.8685644027992	-57.7514854356616	
1528125000	-11.9672932586038	-73.9724873209622	-49.4531582886838	178.209263151162	-49.6942735687474	177.373807214656	-13.8876919364846	-61.0696272037583	
1529250000	-11.9642690561862	-76.8691080782018	-47.8759968141436	158.762314964413	-48.1817361149293	161.820518524583	-13.9330734838555	-64.1124076061323	
1530375000	-11.9390024989882	-79.7173835301752	-47.8988284797583	145.66936887182	-48.2612501413432	148.490548671983	-13.9604288628688	-67.0870966887144	
1531500000	-11.924140473348	-82.7557879376099	-47.6629994955542	127.360029440508	-47.6871623630616	126.105376493498	-13.9902858747451	-69.956869989181	
1532625000	-11.9010582913244	-85.7193946473147	-47.8840896887684	115.93304624212	-48.2668255679299	120.878980937668	-14.0142524395445	-72.9596375511188	
1533750000	-11.8803821134013	-88.541933094186	-48.1943658861163	104.598022645335	-48.4061874549729	107.231691184086	-14.0193001738041	-75.9700445746657	
1534875000	-11.8535484995383	-91.5378621592261	-47.606837964245	100.576414130627	-47.7184669160675	104.3170678757	-14.045135390442	-78.9104465795829	
1536000000	-11.8074441134464	-94.5457547002396	-47.5140301154169	88.7510228716354	-47.0817384569847	92.098391848232	-14.0483203346866	-81.8501133314745	
1537125000	-11.7980083400087	-97.7203942064453	-47.5391577087603	81.8858745866532	-47.2854229511714	80.7119318257432	-14.0810181484577	-84.8339059511125	
1538250000	-11.7821778923617	-100.718782045746	-47.9710057257225	70.5406445592632	-47.2110046903794	72.4788167925142	-14.1173384110802	-87.5887795262197	
1539375000	-11.7712822031615	-103.83645749974	-48.1916776112219	65.9803334664769	-47.112465983281	64.6840283662184	-14.1371890951557	-90.6618813639232	
1540500000	-11.754878141853	-106.970447675078	-47.6350017713819	63.9800208304363	-47.1666729217516	58.356983645058	-14.179707447572	-93.3781258414506	
1541625000	-11.7580209550549	-110.097589121036	-46.9348683768228	57.750228717445	-46.3046462092684	56.7041318076758	-14.17566194336	-96.035590030253	
1542750000	-11.7623989973429	-113.173032717271	-46.2775452596315	52.2358332595043	-45.5326693795528	51.7985897791228	-14.1959100183339	-98.7903525874401	
1543875000	-11.7738802530714	-116.189931872587	-45.8070946611837	45.0123426333691	-45.6210618087637	39.9944829161934	-14.2113616383845	-101.616270015457	
1545000000	-11.7895508623477	-119.147291542242	-45.5642543609495	34.7962214789601	-44.8237566988217	33.8692300653975	-14.2027666505982	-104.512281662006	
1546125000	-11.7833251835235	-122.111784442066	-44.5596742921334	22.450597488334	-44.6748835220134	21.371417409716	-14.2032453717756	-107.317858718118	
1547250000	-11.7683877773959	-125.048108127863	-44.692241784745	10.5900605800493	-44.3948121901548	9.7533323815559	-14.1866771887514	-110.273595184304	
1548375000	-11.7682525050458	-128.128137155649	-44.6645056767798	-2.52291636672317	-45.1053737645081	-0.485319374838346	-14.1941389542195	-113.139009341388	
1549500000	-11.7575300890965	-131.16590289572	-45.0716140514479	-5.30910483121121	-45.1325048441896	-7.25300767957626	-14.1881497247908	-116.402687369677	
1550625000	-11.7710356416523	-134.156233922724	-46.0448446272753	-10.085685619981	-45.4004345256221	-11.2197392499886	-14.192663046168	-119.38190475877	
1551750000	-11.7777720966574	-137.18817881295	-45.3399862255964	-13.8442363594619	-45.1907621637445	-21.076782571833	-14.2150499588052	-122.523395100206	
1552875000	-11.7669459708685	-140.228252801913	-44.9682683358055	-22.1672758744071	-44.8833381906898	-23.0323277036157	-14.2317594862261	-125.659196999134	
1554000000	-11.7544573369229	-143.33382350942	-44.6658992725231	-29.248270322	-45.1532653803722	-32.9377589494818	-14.2784532125752	-128.759790201241	
1555125000	-11.7690192281499	-146.505882549691	-45.1123741378407	-34.8954509859968	-44.7613844520714	-44.723065851573	-14.2886493490978	-131.83150546494	
1556250000	-11.7410158987626	-149.78497120664	-44.9382241167302	-48.9076820738215	-45.1237854321145	-51.2636990699881	-14.3466790420042	-134.884049965188	
1557375000	-11.770581145163	-152.947005460691	-44.780425854872	-52.7012238327885	-45.6691296474959	-60.229609037342	-14.3822737219722	-138.019354409734	
1558500000	-11.7799058750142	-156.176726240863	-45.8027637192449	-61.5270104000127	-46.1090480311634	-68.0842257240316	-14.4285874538258	-141.120426797169	
1559625000	-11.8191113693347	-159.420425412972	-45.64625962568	-70.3044859596591	-45.926591019489	-74.1704936201153	-14.463113042715	-144.097553666172	
1560750000	-11.8470224597723	-162.50656353672	-46.4147602531911	-80.4092670731255	-46.5091602146761	-81.4085637382831	-14.5151954832412	-147.247327881618	
1561875000	-11.8843477189399	-165.731635372704	-46.6052268764373	-83.7149457592851	-47.7062143670031	-87.8003735341746	-14.5685687106049	-150.346210225118	
1563000000	-11.896855202365	-168.843087857688	-47.8611798257823	-90.2435159377875	-47.8729372826903	-92.1562856385273	-14.603141085042	-153.324019042047	
1564125000	-11.9148562723692	-171.986981938136	-48.0936525819209	-93.2011726457942	-49.7212454081275	-92.5719065202476	-14.669772735675	-156.366687435843	
1565250000	-11.9465308683958	-175.275217562002	-49.4213439105958	-85.7930282430886	-49.8020034651406	-87.0326366162737	-14.7172511794209	-159.567751787444	
1566375000	-11.9595685049526	-178.594684933858	-48.4966469967791	-88.9964077080769	-49.2770507002014	-95.4816992943076	-14.7600968928782	-162.663408171181	
1567500000	-12.0167247165592	178.146221293945	-48.5132360839117	-87.8313776450749	-49.8821455557176	-96.7189449951878	-14.8128145010803	-165.841505608768	
1568625000	-12.063556336561	175.018303230436	-48.9621999802958	-90.7776156393393	-49.2690217315835	-94.6672994249519	-14.8879486724184	-168.802166461677	
1569750000	-12.1007611786063	171.910253525121	-48.1934921762985	-92.8998749168267	-48.8311837446777	-95.4354016071854	-14.9473670827969	-171.953832964657	
1570875000	-12.1477595945499	168.623245557141	-47.2367178334258	-96.8558915741901	-48.0286386343674	-96.3593138232502	-15.0093575750263	-174.889484048282	
1572000000	-12.1704069711211	165.559016285515	-46.3863801825037	-102.218693629486	-47.7106319076802	-103.708047149422	-15.0527931924087	-177.85596809392	
1573125000	-12.1920727892795	162.481905068078	-46.4853316918157	-108.691311953942	-46.3887815994559	-105.877373867067	-15.0565339994999	179.13971870894	
1574250000	-12.2295678710054	159.186159269112	-46.3741608117266	-114.995428817548	-46.6250103547135	-111.761949841319	-15.1122818294864	175.99477439542	
1575375000	-12.2450806407192	155.984455736055	-46.1153633647524	-122.458176353459	-45.9534651097398	-117.238532517824	-15.1196813028702	172.732600119731	
1576500000	-12.2962490238909	152.770251001592	-45.6554731156509	-131.940538983119	-45.6750083903572	-125.608464665208	-15.1460150522923	169.347234679268	
1577625000	-12.3089960439035	149.533296936919	-46.1266589273834	-139.07585819714	-45.4502628995344	-133.848562794427	-15.1811331362086	166.043184089468	
1578750000	-12.3455952830535	146.257912220988	-46.1104573116367	-139.572530345067	-45.8189956080637	-137.442132048044	-15.2388588549723	162.729378237672	
1579875000	-12.3776239972402	142.879831418177	-45.6995534803378	-140.256482842005	-45.8845822247334	-137.216935736012	-15.296826555873	159.272363785636	
1581000000	-12.4090307941411	139.632815551784	-45.2704936621252	-146.25524861758	-45.3220723743001	-145.162719352483	-15.3366713871072	156.073159433786	
1582125000	-12.406906637041	136.28437360735	-44.7471705567608	-154.393060687615	-44.8645699905182	-150.071153006606	-15.3737598294572	152.890850552309	
1583250000	-12.4488491381793	132.907910223807	-44.1986012249421	-160.653186706478	-44.1133378458535	-158.436899789051	-15.4005674049114	149.639840463193	
1584375000	-12.4523145179357	129.525926512522	-44.1281631445995	-165.988629064928	-44.1785080144667	-164.790099172097	-15.4071069523413	146.258059282046	
1585500000	-12.4685540733218	125.912811925041	-44.2386252658998	-173.952491857731	-43.8389733595214	-173.741299551948	-15.4314979419253	142.786178678415	
1586625000	-12.5140492273309	122.410441771636	-43.9731781087251	177.802693182609	-43.9446329693571	179.64933890156	-15.379896052879	139.071895530567	
1587750000	-12.5668377211346	118.995796630161	-44.0652537787441	169.874771925829	-44.5214340776387	172.432846282603	-15.4271506938844	135.569680091978	
1588875000	-12.587851970704	115.502889183231	-44.2179613223377	162.270794035814	-44.0287536835282	164.636723476999	-15.4467839240339	131.738797152903	
1590000000	-12.6262122790746	111.987223998526	-44.5917605930375	159.115826755819	-44.1749743043656	158.56990161664	-15.4683174306982	128.199895836435	
1591125000	-12.663299650021	108.447322282447	-44.98597529574	147.76263324173	-44.5866066337359	154.782003692397	-15.5153054755206	124.43214187666	
1592250000	-12.708385177116	104.944125894131	-44.9910091954393	144.218386265279	-44.8180674583843	144.225980038545	-15.5310107705033	120.742969915165	
1593375000	-12.7400958219943	101.493526122245	-45.330340485754	141.791226304358	-45.1067960547921	141.957429825332	-15.5948889940344	116.894401710005	
1594500000	-12.7878972575657	98.1190662880599	-44.7167326600514	140.541657676408	-44.9780805790011	140.70623448467	-15.6434868230993	113.173613657029	
1595625000	-12.8005530828282	94.5106461277837	-44.0510993203915	135.381169941073	-44.8109161459932	134.712555386284	-15.6563273247013	109.690829780099	
1596750000	-12.8404605644583	91.2046288608321	-44.4169434675452	130.288410983629	-44.4995804834494	130.601531632824	-15.7202793011816	106.059659224936	
1597875000	-12.8647770443529	87.7313092172038	-43.9644509720545	120.182677744421	-43.8254773537558	119.469558504762	-15.7187373379578	102.475543619936	
1599000000	-12.8678357455377	84.3489010172367	-43.9386700041601	113.977446971273	-44.0952184318213	112.709543476603	-15.7316476448233	98.857110161864	
1600125000	-12.8845091420948	80.8303678136314	-43.8201960340243	108.585222606589	-44.4300919955427	106.984516421319	-15.7126494351867	95.144859769858	
1601250000	-12.8783461864007	77.4261864110854	-43.7767141479639	100.999993931719	-44.1389470085122	101.292926275765	-15.7137761339653	91.4806369536833	
1602375000	-12.8668974808737	73.863371469206	-43.2833955546968	91.6872086888009	-43.9406936691196	94.9962772132143	-15.71064990228	87.8716652267292	
1603500000	-12.8658870654269	70.264637425091	-43.6730924905604	83.7892182391065	-44.0923544066166	86.1727613094268	-15.6788627149982	84.0424896897102	
1604625000	-12.8593909108787	66.692934915674	-43.7165118610025	76.304932820138	-43.9893488594209	78.7942787077528	-15.634732287257	80.2034372619224	
1605750000	-12.8244276452301	63.1593078833068	-43.9123375133242	69.5788830060419	-44.0676497719667	72.8878556523407	-15.6273781089933	76.3482614948207	
1606875000	-12.8151174404012	59.5452409055832	-44.4192906298176	61.7677275875084	-44.1072534402392	63.8177436828429	-15.6039633818524	72.537453219271	
1608000000	-12.7856492581552	55.8159212501294	-44.4263018109214	54.3738119106804	-44.4872859792854	56.5712050796738	-15.6034048318905	68.7279885323355	
1609125000	-12.7592777273234	52.0486943794239	-44.5841789295359	47.6044860352648	-44.8053247917414	48.6495897443344	-15.605933675905	65.0433620475816	
1610250000	-12.7489880186948	48.1879817348538	-45.3088421051304	38.0097144984332	-45.2499114245083	42.3509622872851	-15.5576774957953	61.4524414934535	
1611375000	-12.7511968163776	44.2410374523549	-46.0474483387225	34.2897029895597	-46.1932582292037	36.5968611743376	-15.4958429756431	57.8240624087914	
1612500000	-12.7533942788187	40.3766820168548	-45.8518403687761	32.7851546809383	-45.5730246011224	33.2992379094685	-15.4230551386046	54.1573752722344	
1613625000	-12.7731532401642	36.7238953786394	-45.8873220914193	27.2645680653962	-45.6928534452296	27.1836341313755	-15.3416986291282	50.6293732918008	
1614750000	-12.787112277818	32.9053235623595	-45.7904500089875	17.8053131627138	-45.7069091848446	17.6150944497093	-15.2484638510383	46.7021773716641	
1615875000	-12.8106836217772	29.3181484431904	-46.0503905610419	8.40307576558363	-45.9855320417529	7.6852340207216	-15.1742282177832	42.8952806288785	
1617000000	-12.8392477071069	25.7387897114057	-46.7710986415824	1.68878819427505	-46.9041634153466	0.911231554554313	-15.0688081780228	39.0127656182859	
1618125000	-12.8263008595134	22.3320556793409	-47.630135376287	-5.98768977991583	-47.4431463014772	-7.29650281639335	-14.9821212840885	35.20488373038	
1619250000	-12.8393093651254	18.9907020318679	-48.5655166926124	-1.12135707063866	-48.5023465106994	-7.92138922882825	-14.8944792130583	31.1012195531362	
1620375000	-12.7940723289346	15.4134714934594	-48.3538847521196	-7.0603570199859	-48.6202106176735	-8.45090533090943	-14.8299155156029	27.1801057053372	
1621500000	-12.7982909166009	11.9878131829608	-48.0848126415213	-7.25305617216447	-48.6675893923338	-7.11081428686782	-14.745687991173	23.2889887694168	
1622625000	-12.775730448094	8.58420165660267	-47.5918076968155	-16.1610952802558	-47.8962493620623	-10.3569229441721	-14.6734012219436	19.3117765912671	
1623750000	-12.7613297989876	5.43732517421207	-47.5710988580378	-24.0213746813741	-47.7024107371817	-24.308468411595	-14.5918697462849	15.4729771960086	
1624875000	-12.7152981364549	2.13036865116004	-47.8580760237845	-32.0159249308968	-47.9214722631146	-29.8717401779852	-14.5557615958951	11.5027200814917	
1626000000	-12.6296800492366	-1.28916288331092	-47.8603581260289	-37.0353067716017	-47.6594321660861	-38.278283742299	-14.5161638193784	7.58805025684872	
1627125000	-12.5507662603907	-4.6887648337089	-47.9424322562617	-47.5758084739503	-47.9787665157875	-42.684240498293	-14.4659351490944	3.95345571551009	
1628250000	-12.5073799559536	-8.22101125919969	-48.5397755941508	-56.4645962259152	-48.3380109805632	-54.0125938429958	-14.4259495722188	0.333172198279715	
1629375000	-12.4542005120884	-11.8067644018741	-48.7791012058452	-64.2085800322351	-48.4213261655246	-63.4916197107664	-14.3985370304379	-3.12648105462294	
1630500000	-12.3970182671193	-15.3069708708684	-49.7389115881213	-68.9477998295273	-49.5299621896242	-72.25287693188	-14.3326776356817	-6.5185345175711	
1631625000	-12.3478641137272	-18.8364850824867	-50.4367400426718	-72.9182314361631	-50.4507457628763	-73.6044965954681	-14.2697556437406	-9.89529833573559	
1632750000	-12.2884873506555	-22.370758830358	-50.7733672298109	-79.0132599769734	-51.3993955409806	-76.4775284305892	-14.1961548294645	-13.2404078250673	
1633875000	-12.2583935978757	-25.9687521697699	-52.0524208428311	-82.3663478438168	-51.6317551316153	-77.1585630693499	-14.0842027195687	-16.4751637823355	
1635000000	-12.2288245626832	-29.4550569438674	-51.3954290453774	-91.5293927179278	-51.2005731813946	-81.1308174410835	-13.9925222264044	-20.034490442856	
1636125000	-12.2069642678697	-32.9780507080765	-51.957781526252	-91.1647490245394	-51.9638877337558	-90.8201248687548	-13.8945786812519	-23.6020559869081	
1637250000	-12.1696331850535	-36.386186594235	-52.5274174232743	-92.4788399580224	-50.9032010045044	-97.2532930617391	-13.8191123988997	-27.0231121791123	
1638375000	-12.1511461296855	-39.7381020563067	-52.1327931933659	-103.948900139058	-51.6537506535048	-106.962874253749	-13.7405371720231	-30.4996662929927	
1639500000	-12.1092039781292	-43.0895183453295	-52.6649287580591	-113.174933883303	-53.2079066741404	-122.82145650431	-13.6773291516181	-33.9034050886879	
1640625000	-12.0641352446883	-46.4063897655452	-54.2307867156176	-126.828734968609	-54.0311734011393	-119.898882543135	-13.6105617617325	-37.2641572142177	
