!Keysight Technologies N9923A: A.08.15
!Date: Monday, 19 February 2024 15:44:01
!Timezone: (GMT-05:00) Eastern Time (US & Canada)
!Model: N9923A
!Serial: MY52412730
!GPS Latitude: 
!GPS Longitude: 
!GPS TimeStamp: 0001-01-01 00:00:00Z
!GPS Seconds Since Last Read: 0
!CHECKSUM:0757324482
!Correction: S11(ON Q)S21(ON Q)S12(ON Q)S22(ON Q)
!S2P File: Measurements:S11,S21,S12,S22:
# Hz S DB R 50
1500000000	-12.6930617487097	1.52400784550279	-67.8855971105305	-32.5018316497259	-70.7121780178106	-18.740634481802	-15.0139553341797	16.8389314940118	
1501125000	-12.6722313350078	-1.45157876313983	-71.8215227202553	-18.9679553755944	-74.9961847094597	17.1018951687427	-14.9287091128396	13.8487684316705	
1502250000	-12.6314262916762	-4.3222983368516	-71.6867360583289	-68.1484141867682	-69.4234499529276	-0.777070219356161	-14.8934870857325	10.5773427515257	
1503375000	-12.5833724945719	-7.47131583886005	-70.5568774687213	-35.2524050038062	-86.0293191137558	-37.6241446714892	-14.8447625687377	7.60022351720812	
1504500000	-12.5636788483856	-10.5435659263268	-68.7190960048415	-34.9164906253779	-86.8655462491383	-50.9605675933795	-14.8179476148624	4.63026911893778	
1505625000	-12.5220534937573	-13.3756464492584	-67.7647757368751	-103.195026474995	-66.6415043735171	-89.3009445015221	-14.7546592020721	1.86346220521684	
1506750000	-12.486165849208	-16.3545268985503	-62.6384892073171	-97.7634563346886	-65.1772962799478	-105.158125299276	-14.6982637945451	-1.00728308705624	
1507875000	-12.4526355930491	-19.4289228954448	-60.941299983616	-124.724132123953	-61.7663908126193	-137.28411309543	-14.6344796601171	-4.11616085034729	
1509000000	-12.4099774413406	-22.441351595813	-61.4850532303811	-170.411585292829	-59.2465919512798	-160.19364106526	-14.5446951019365	-6.81578152891483	
1510125000	-12.3600430193861	-25.4457319805438	-62.7846091161817	-176.678880271323	-61.3027612464034	153.461069469075	-14.4563350848317	-9.86137798096835	
1511250000	-12.333537700231	-28.5971948210893	-59.4481479389153	157.171716064463	-61.7851212620544	157.356374512555	-14.403499740525	-13.0241237882309	
1512375000	-12.306347205301	-31.6182679425726	-57.9450589827449	149.348604572551	-59.7034655764344	154.233049490047	-14.3156418318621	-16.0072910278469	
1513500000	-12.2931950446024	-34.6721771700747	-58.1311537487123	132.095672756334	-60.3688775604761	128.718853469357	-14.2555267991988	-19.3722060976551	
1514625000	-12.2563780754892	-37.6623485389036	-56.9019375754598	118.726865440884	-56.6990365471617	122.51396857708	-14.2004391371678	-22.4158946888712	
1515750000	-12.2225908499199	-40.7019346000577	-59.874151142115	105.238662801119	-59.5793296150047	93.2802912270416	-14.1680632851503	-25.4067271390913	
1516875000	-12.1713183307005	-43.6077975652296	-62.667093883275	85.9341950941086	-59.61836269348	97.0632618824152	-14.098290717211	-28.5724792014902	
1518000000	-12.1523801126331	-46.6400033427852	-57.7565376057627	84.0734600836058	-59.1332237111058	61.8767712763305	-14.0474989178295	-31.7167367930304	
1519125000	-12.1135444925145	-49.8045600292084	-60.055072266839	37.2047951607934	-60.1634176757848	45.0214404090621	-14.0067745704532	-34.9342635750231	
1520250000	-12.0999763317752	-52.6741935066727	-62.6418305682865	18.5991758367225	-59.0256212441069	18.5222182000761	-13.9583080944871	-38.156915564132	
1521375000	-12.0729797151112	-55.7772493540545	-60.3953209223486	-4.69864284507646	-59.8611842836267	-26.3068617261943	-13.9196978915636	-41.3183461913552	
1522500000	-12.0573164211684	-58.8131681865761	-57.7911055663212	-46.0322942844989	-58.4430148098274	-51.1883386931023	-13.8863245752598	-44.4648260887612	
1523625000	-12.0227866695534	-61.7640341948558	-57.54717634367	-86.5084948342181	-56.9011565541906	-83.6497460064597	-13.8607627495226	-47.8334952391453	
1524750000	-12.0138744656415	-64.8156702534199	-55.3547852031049	-107.352883148168	-54.3351469779573	-109.780699838289	-13.8427368102818	-51.1467729054897	
1525875000	-11.9807532011906	-67.7438636690998	-52.3738646380342	-139.472061686467	-51.847509307916	-138.024596345582	-13.8337558710411	-54.4514316051504	
1527000000	-11.9531906571337	-70.8382187616747	-52.1359546979483	-161.155596773142	-50.8957994996703	-154.438289634386	-13.8389835122541	-57.6295069420138	
1528125000	-11.9307037090475	-73.9429308369354	-49.5217988977872	176.431565977612	-50.101507472067	178.799600057251	-13.8722373498148	-60.9342899303143	
1529250000	-11.9363271316573	-76.9001989774469	-49.4752305341039	158.151906409761	-49.0132364916715	156.728335856373	-13.9135924731908	-63.9280371750744	
1530375000	-11.9099998206292	-79.795758152713	-49.1752718721719	142.836855016024	-48.428969588814	146.729589956361	-13.935334506044	-67.028904852261	
1531500000	-11.9068644487224	-82.8212172184605	-48.465045062718	129.054288353233	-48.8678973920083	128.775775372027	-13.958370527886	-69.8930371691684	
1532625000	-11.8878514413995	-85.7275100053911	-48.1155670380193	115.684353509289	-48.2852457779853	120.436907914267	-13.97257501535	-72.8324165999852	
1533750000	-11.8724492670656	-88.5316613057528	-48.4986741333306	107.308493841489	-48.6398521027371	105.141434995869	-13.9794627698933	-75.6986933797064	
1534875000	-11.8269087916711	-91.5048552671806	-47.8788042799147	99.2175741137057	-48.3461522094329	99.0274401627865	-14.0056124936341	-78.8123207603045	
1536000000	-11.7986284699137	-94.5608249558047	-47.9480419467626	90.6293612880421	-48.0582693621999	87.6838789349892	-14.0130093183896	-81.7149678191413	
1537125000	-11.7895572388831	-97.6964639313572	-47.4298245229761	81.3157515582075	-47.6267571272653	79.6663266624573	-14.0282917832483	-84.6700894585367	
1538250000	-11.7657038517436	-100.658795396803	-47.551770252371	75.2189575914795	-47.4748140138923	73.3720972613755	-14.0529064381951	-87.6618735406425	
1539375000	-11.7599642045902	-103.762605026161	-47.5140896438011	63.8844443976676	-48.3481067956194	67.3528484981195	-14.0882821396125	-90.575654568821	
1540500000	-11.7589966842793	-106.871622712064	-47.5730837189322	60.3375055569709	-47.1755589074003	59.1235328719753	-14.1221647907524	-93.3518497413654	
1541625000	-11.7492647896056	-109.973030551237	-46.5906612981968	57.2648746292505	-46.9925724699902	55.4057518928588	-14.1399779910892	-96.0831661301186	
1542750000	-11.7588208232981	-112.969746578588	-45.9957831893094	44.7326720424317	-46.4840289052349	47.946763382693	-14.1641440177525	-98.810617442111	
1543875000	-11.7639493682423	-115.952622936446	-45.3298395034993	39.285653728788	-45.4773301510253	39.6552090349902	-14.164327452989	-101.712120721724	
1545000000	-11.7629437428809	-119.026659832925	-45.0594167691691	30.0104970351277	-45.4094666602847	31.7231522163731	-14.1768163310996	-104.325251253677	
1546125000	-11.7741152102075	-122.013339837729	-44.5251097455663	18.8192616532903	-44.8297157425727	20.8839243439392	-14.1825704428183	-107.345850859936	
1547250000	-11.7795342258662	-124.973400891582	-44.7696632977402	9.2952628186766	-44.5071276600726	7.75848881174102	-14.1418961043417	-110.298040317316	
1548375000	-11.7727944670538	-127.876518885812	-44.6977743743695	-2.11908926811946	-44.8465219641364	0.428264180792451	-14.1452946716942	-113.198430145362	
1549500000	-11.7546196940012	-130.951445308975	-44.4387841631606	-7.07578978195149	-45.3566837380873	-7.79177882594612	-14.1548496948613	-116.255546851999	
1550625000	-11.7681323619422	-134.01618378134	-45.277397605354	-12.4495190435384	-45.4971547465	-10.8971225738754	-14.1564111636603	-119.260708813951	
1551750000	-11.7798843729266	-136.905543917227	-44.7918431811389	-18.7071269914322	-45.3680173151872	-17.3266691405069	-14.195002911679	-122.405865129619	
1552875000	-11.7702045445879	-139.92937536522	-44.863859953409	-27.0401109752949	-44.8764616441073	-26.579742629554	-14.2002567154296	-125.635478080801	
1554000000	-11.7435721638556	-143.001249508778	-44.7637720446833	-35.1635466506802	-44.6476855766409	-35.313299966542	-14.2355115697355	-128.610292119239	
1555125000	-11.7429366235337	-146.202108953823	-45.0887284011298	-44.1404482294077	-44.8150091586244	-42.6536080087689	-14.264454009853	-131.64109219546	
1556250000	-11.7214661868932	-149.442160269212	-44.8044688845157	-56.0495385869923	-45.1254288034224	-52.9699418494623	-14.3047513981086	-134.775448246438	
1557375000	-11.7418695256032	-152.68240618301	-45.7295444903676	-60.5858679011921	-45.7405918876899	-60.6538702157064	-14.3494195620205	-138.005447135484	
1558500000	-11.7423492331649	-155.899070220711	-45.7925197620699	-68.3066546690275	-45.6049687609908	-67.6646685402226	-14.3981458806653	-141.102153698116	
1559625000	-11.7765610253061	-159.221422575304	-46.0211673741366	-72.7423285496732	-46.0138465165604	-80.1224308032291	-14.4507409556722	-144.138880676603	
1560750000	-11.8130751908648	-162.380991366469	-47.1741586547723	-85.0088866028368	-46.9915732111333	-79.2468034656429	-14.5079843735571	-147.176592981218	
1561875000	-11.8455466381039	-165.614462735719	-47.8151756838701	-90.9964410735747	-47.588259212941	-90.9359755427746	-14.5516913882353	-150.375726864724	
1563000000	-11.8690912988603	-168.768561742412	-48.540921976092	-96.7231789167284	-48.1689306986109	-93.2500657717864	-14.5872605925651	-153.287637937882	
1564125000	-11.8819351378981	-171.936457041231	-49.6607895635563	-94.8887688474225	-49.8610099839162	-96.9030163285871	-14.6629146207785	-156.334335768824	
1565250000	-11.9197458276969	-175.192318480905	-49.5612928388931	-97.2237386278729	-49.5428127646604	-90.9192552128791	-14.7197666171182	-159.428001700279	
1566375000	-11.9520096307974	-178.470179083169	-50.0115351213488	-89.1752358118266	-50.5370094377652	-95.4637742204439	-14.7538883287967	-162.595662717616	
1567500000	-11.9965064733471	178.237082762143	-50.0737245335059	-93.3336362920125	-49.5717542050898	-86.8464269449715	-14.8367703719753	-165.610712991013	
1568625000	-12.0594330643491	175.117581509107	-49.4264535422086	-96.0808672204036	-49.7637389500062	-93.7893275268409	-14.8921273876521	-168.650685055215	
1569750000	-12.0979108472394	172.054275976911	-48.0745465227376	-93.1727249354869	-48.7676403253284	-92.3126633840463	-14.9538871758013	-171.865032577943	
1570875000	-12.142030565201	168.825818006016	-48.3926372740547	-97.7685495787799	-48.4837253005868	-92.9372214361681	-15.0084762117707	-174.825616206063	
1572000000	-12.1832284582034	165.716394582344	-47.3870987585836	-101.784309891778	-47.9530449647895	-100.949156041328	-15.0596997091441	-177.725396007966	
1573125000	-12.1981765500243	162.598227216328	-47.0192740928311	-107.546342503867	-46.9190248134594	-106.063692440619	-15.097006895187	179.233802198399	
1574250000	-12.2169463186256	159.355964298767	-46.4292560842091	-112.792912942778	-46.4911690544136	-112.161415573458	-15.1488307806574	176.065921840933	
1575375000	-12.2451134458714	156.017496994329	-46.7945974858603	-118.888958451027	-46.5697956664868	-121.640250473986	-15.1425170167629	172.991727263322	
1576500000	-12.2794580301923	152.789552454633	-46.1292791991293	-121.174775265019	-45.9246954656026	-122.957371687908	-15.1730068780078	169.593555710044	
1577625000	-12.2955723473088	149.446675691642	-45.8888178620333	-134.039955882345	-45.8198204063174	-131.630190096587	-15.2065202333317	166.193267912704	
1578750000	-12.3250904108219	146.204042630113	-46.3234539803403	-138.14364080588	-45.9505429133703	-134.936234478351	-15.2591636138806	162.974009187504	
1579875000	-12.3549410442939	142.791019730557	-46.0619600255706	-141.76036240594	-46.1400355530546	-139.291064215044	-15.3158679883781	159.662349253864	
1581000000	-12.3956554063904	139.418271087898	-45.3632746216172	-145.994285369848	-45.3265545494399	-143.05664541034	-15.3438071975211	156.335215189287	
1582125000	-12.4208436497989	136.13090523312	-44.1838316116582	-149.549517529655	-44.672555996135	-151.618509017041	-15.3757843017485	152.994766231215	
1583250000	-12.4548213299257	132.727133969288	-44.7004448343621	-161.324906754277	-44.4017525981366	-159.885844063256	-15.4119616285118	149.757266208846	
1584375000	-12.4794427690493	129.339170786504	-43.7832931832906	-165.952011056386	-44.0526793678955	-167.717359627505	-15.4478286928795	146.378575660368	
1585500000	-12.4875026180554	125.799919834313	-43.6690283061482	-174.189290433153	-43.6791343822637	-173.919758215612	-15.4482373039401	142.927236004492	
1586625000	-12.5324720596447	122.390776515369	-43.7878402135859	173.98694076333	-43.9935992674996	175.550479195557	-15.4255475700844	139.228658790042	
1587750000	-12.5793132014502	118.874647843414	-44.0521229096221	167.447113305229	-44.2041798580861	165.954634644586	-15.4670346364248	135.716355907065	
1588875000	-12.615317632435	115.393058597262	-44.4798794237468	160.482267190447	-44.4319940856069	162.267348665088	-15.483692754227	131.756644837835	
1590000000	-12.634594481644	111.993684127383	-44.9163920682634	154.10804623201	-44.3910293627933	156.332967756034	-15.5143964229909	128.316089279657	
1591125000	-12.6649605902546	108.437111152068	-44.7305391690837	149.612620302234	-44.9478096338897	151.346954587808	-15.5636280336379	124.515830545932	
1592250000	-12.6986214412583	104.859607813981	-45.2972431964228	144.15820069188	-45.2093110614295	142.816099420728	-15.5606571618959	120.810358410619	
1593375000	-12.7315823135584	101.379550034599	-45.300294083162	142.529854840548	-45.5663247906176	141.642496876072	-15.6166467290746	117.003783217367	
1594500000	-12.7672684539287	97.8318443329075	-45.4639363016983	134.927737821388	-45.6129287499682	137.136908098386	-15.6742051581983	113.37367001111	
1595625000	-12.8049818886167	94.3510450500249	-44.8821431608269	130.304001263233	-45.1052613958889	132.906309490518	-15.6647268667059	109.743225071273	
1596750000	-12.8380223610213	90.9204937594361	-44.6041059552881	129.264843774062	-44.5458759181677	128.184605560489	-15.7335037261939	106.201387445166	
1597875000	-12.8638814523315	87.4656965117191	-44.5964553540919	122.784740949385	-44.649869978696	120.953787301637	-15.7352950614191	102.475649634763	
1599000000	-12.8938619055448	84.0768516116488	-44.5140302958168	112.677525994405	-44.416035344029	112.912346092207	-15.7396579849214	98.9279163679293	
1600125000	-12.8936246909901	80.571506011909	-43.9601225793539	106.157296960454	-44.0670342707943	107.754324214065	-15.7297845129283	95.1778115626222	
1601250000	-12.8860504474978	77.0538190061279	-44.2433442773085	97.1368037265016	-44.1424587636128	99.8251757807402	-15.7273569622517	91.4930191155758	
1602375000	-12.8735387085031	73.5634036367165	-43.867900383629	91.7900360277008	-44.2449655943712	93.9199581158167	-15.7280749095848	87.7947700484515	
1603500000	-12.8796660981292	69.9401115544017	-44.1224567608368	83.4932230847833	-44.3877653279457	86.7194931449026	-15.698521539106	83.918858238308	
1604625000	-12.876171656094	66.3906636220114	-44.180422820082	76.62731324687	-44.319188067497	78.2121373936121	-15.6667223446467	80.1149367574505	
1605750000	-12.8568133417125	62.837206114734	-44.0862657291982	69.3788149006372	-44.2385259889283	71.0109076295783	-15.6536639339759	76.3167778451326	
1606875000	-12.8363754610975	59.2162883565432	-44.36826910704	61.764015885252	-44.3255980383938	62.877919942398	-15.6336636958872	72.4713699030843	
1608000000	-12.8087238710288	55.4396008610696	-44.6233008596982	53.1969962552303	-44.5515967364016	54.4181205447915	-15.6234806498592	68.6771509945757	
1609125000	-12.7910623822616	51.7394853209123	-45.1310489261917	44.5024860702699	-44.9754885733528	46.9525777126579	-15.6100878062848	65.0357124375414	
1610250000	-12.7731938360109	47.8983020342905	-45.3751525805314	42.1542869360894	-45.3600797639551	40.0086310126643	-15.5713784072576	61.3481825158021	
1611375000	-12.7731339125875	44.0251033858736	-45.7260350618468	36.4455081244218	-45.9069829650782	36.2924395260901	-15.5083916715914	57.8044808402557	
1612500000	-12.7813439880405	40.1161378245675	-46.0997728188585	27.659354752413	-45.961863761208	32.2772253363324	-15.4389223126716	54.1626029563944	
1613625000	-12.7931478556035	36.4845855355496	-45.7993890706886	23.500568839275	-45.6654051366386	24.1358069437954	-15.3563643225872	50.5924504604957	
1614750000	-12.8049080799815	32.7606441317574	-46.0222475211493	15.0828059547491	-46.0028972665033	16.3984349284914	-15.2633144724419	46.8144373206216	
1615875000	-12.814182067079	29.1018579425923	-46.461165553518	5.11819874974625	-46.2930824889288	7.46784741533579	-15.1647022572907	43.0316739819603	
1617000000	-12.8479915903551	25.4876601295416	-46.966793558708	-5.63544944197615	-47.1851635232185	-2.5315749726784	-15.0554767016285	39.0761853532102	
1618125000	-12.8505029890052	21.9962475620531	-47.6769630978693	-8.87581670062639	-47.9590809881966	-8.11406449881396	-14.9535462189174	35.1536937563909	
1619250000	-12.8552712432619	18.7903753144169	-48.9180835895694	-6.45191361797321	-49.1090942886339	-7.79424040328568	-14.8834979523457	31.0393412463858	
1620375000	-12.8407370797035	15.2339612995077	-49.3376249893867	-8.29000084710407	-48.9547659336924	-8.50881932559306	-14.8053418638667	27.0777980650631	
1621500000	-12.8379230477325	11.8803759196385	-48.6169681517931	-13.2610107127249	-48.581116420547	-11.0814138467725	-14.7210213784364	23.2011266848674	
1622625000	-12.7956625106004	8.60205412487693	-48.127752202145	-19.5959912006661	-48.6899029447829	-15.664714478582	-14.6606897526888	19.3312887775044	
1623750000	-12.7769529489008	5.43089007764845	-48.6905284706668	-25.8300848055463	-48.343406236819	-25.2955982500012	-14.584131449039	15.3993641192268	
1624875000	-12.7323888682434	2.14589838878199	-48.3102353641473	-34.1583998274866	-48.9461496234699	-29.8779720042382	-14.5461804806014	11.5556894415857	
1626000000	-12.6486996421324	-1.22340083280252	-49.0090235880425	-41.1416437751799	-49.093399257251	-40.4864271649072	-14.5084004653979	7.59879005010177	
1627125000	-12.585824821102	-4.54907258659263	-49.533433196458	-49.1506330003295	-49.5419069247693	-45.3804542728294	-14.4440760460036	3.96018406644512	
1628250000	-12.5164143504802	-8.11365256294486	-49.570580822264	-53.5615836410044	-49.3048391690911	-54.7898789579392	-14.4123885577116	0.369821152107354	
1629375000	-12.4558129649943	-11.7213192539699	-50.5971279817304	-64.8348047083114	-49.0682131518149	-62.0541272857927	-14.3787942770652	-3.05440414404726	
1630500000	-12.4084772290441	-15.1470833331771	-50.6593563913438	-72.4831025665925	-50.7547150345516	-66.912301569595	-14.312369646974	-6.4429136103852	
1631625000	-12.3554281516794	-18.7274121047066	-52.2111255819408	-74.0537923676183	-51.5761713623059	-73.0011700858115	-14.2382328906858	-9.76311714553198	
1632750000	-12.3140403947783	-22.1946337931337	-52.3385196361028	-76.2353297971144	-52.5686186060003	-72.3255324569709	-14.1515507171114	-13.1723888457925	
1633875000	-12.2716590295427	-25.7276933634239	-52.1730888746818	-77.7637837939492	-52.2642012312902	-78.3141368523182	-14.0703131578383	-16.5455964162201	
1635000000	-12.2338302106219	-29.1734326426621	-52.8587140484675	-87.4128390079631	-53.1357488586962	-80.1745950289737	-13.9888035151176	-20.0417217276664	
1636125000	-12.1964325947284	-32.6971349017163	-52.7689608453208	-92.127018010633	-52.5098189877531	-88.9128749117951	-13.8798736807619	-23.5819094326068	
1637250000	-12.1626906524547	-36.0469898223166	-52.5485099724144	-106.646351857492	-52.602498139521	-97.9629275918877	-13.8003943137313	-26.9073096828173	
1638375000	-12.1320293817259	-39.3959490724733	-53.5915480361348	-113.763524401354	-53.4721066351656	-109.737506879873	-13.728761260085	-30.3783261761639	
1639500000	-12.0830342603491	-42.7418112597873	-54.6088733079156	-120.188658304153	-54.6760590670374	-112.62652955702	-13.6672793567081	-33.8131155680202	
1640625000	-12.0393258188456	-46.1363273186508	-56.6681182063524	-119.895354633216	-54.7305147077623	-116.695137833892	-13.5805958420727	-37.2140938690085	
