!Keysight Technologies N9923A: A.08.15
!Date: Monday, 19 February 2024 15:54:59
!Timezone: (GMT-05:00) Eastern Time (US & Canada)
!Model: N9923A
!Serial: MY52412730
!GPS Latitude: 
!GPS Longitude: 
!GPS TimeStamp: 0001-01-01 00:00:00Z
!GPS Seconds Since Last Read: 0
!CHECKSUM:1396250083
!Correction: S11(ON Q)S21(ON Q)S12(ON Q)S22(ON Q)
!S2P File: Measurements:S11,S21,S12,S22:
# Hz S DB R 50
1500000000	-12.7638872990698	3.26485038360169	-52.2765842641672	-161.703755101715	-51.826586965019	-152.412761696893	-14.2242527778722	8.95306843819391	
1501125000	-12.7271568835769	0.136970866241441	-51.2554979972693	-149.636584213672	-51.928820338052	-149.812458426426	-14.1647908493798	5.89206399634233	
1502250000	-12.6865089875263	-2.89171293511563	-51.3730447162993	-150.914102349969	-51.0227585716287	-149.516086318606	-14.1445114380304	2.73237370924518	
1503375000	-12.6396148801652	-6.01024827766293	-49.7361437915034	-153.951704306011	-50.6160036853673	-154.975606662107	-14.1499856135753	-0.208315467819232	
1504500000	-12.6076554181285	-9.16166153788257	-48.7698408673284	-155.878356622052	-49.283789801851	-157.841019548414	-14.1506579424003	-3.12523278700427	
1505625000	-12.59531231991	-12.12259362325	-49.4376388666557	-163.735617324462	-48.2778269016401	-161.949754885517	-14.1126218610458	-5.86301339603729	
1506750000	-12.5583272471937	-15.3128116361403	-48.2318315533672	-167.817047340358	-48.4116636897661	-168.579375367272	-14.0802753114163	-8.78270736017399	
1507875000	-12.5089690106104	-18.4078381526138	-48.1924109242774	-171.502060311749	-47.7586373969891	-170.305631457466	-14.0442085653587	-11.9208377182346	
1509000000	-12.4879543952203	-21.5604518392568	-47.8593048161488	-179.940979383922	-47.17072843544	-179.374611253708	-13.9901065315774	-14.6931403986238	
1510125000	-12.4688609620646	-24.6324241647251	-47.3699560168214	174.017457637536	-47.4905109204731	175.94606079063	-13.9386465281064	-17.8189349584229	
1511250000	-12.45787504374	-27.6829594162332	-46.6540840145323	171.497924977712	-46.261428869487	173.68032223308	-13.9226832340677	-21.0335209549884	
1512375000	-12.4542486889377	-30.6838444181843	-46.0841266029096	165.695281621813	-46.0183064891081	162.476139645805	-13.9003534078466	-24.184243328756	
1513500000	-12.4363140839834	-33.7198627570299	-46.0637150512053	153.162604358893	-45.3435716447077	155.431880619138	-13.8820343371523	-27.1967159085478	
1514625000	-12.4127650049187	-36.6822348868156	-45.3941898590538	145.119437879979	-44.7436019838487	144.885956686563	-13.8726928351924	-30.1577963944533	
1515750000	-12.3723199987699	-39.6843135677343	-45.6901502256633	134.017613887793	-45.0680042738654	133.270751294257	-13.858660782583	-32.9789387067219	
1516875000	-12.3268832947467	-42.6847292737211	-45.6314660965185	123.054972722187	-45.9032265128911	126.979189375187	-13.8306444509096	-36.1487883740178	
1518000000	-12.3166458552116	-45.7987361012603	-46.7311935665472	116.529276228754	-46.3475642726354	116.766096856851	-13.8076038414818	-39.3216041837846	
1519125000	-12.2927425472692	-48.836203066328	-46.9986389437283	109.722385770491	-47.1332420293168	111.039035089108	-13.7834233765095	-42.4230712206342	
1520250000	-12.2888353413415	-51.5875613242761	-47.9534787240898	105.050551183468	-47.7481695409119	104.808639861712	-13.7935373647259	-45.5494083554046	
1521375000	-12.2661227162633	-54.6190677749405	-48.6195790623078	100.15461008094	-48.5679331332661	96.8443090123654	-13.7639891827214	-48.543593051467	
1522500000	-12.2329015813231	-57.5514833754354	-48.8036585841965	98.0506087528429	-49.2441746634975	96.8736487100771	-13.768052190313	-51.6974103342184	
1523625000	-12.1788880302195	-60.4630538437467	-50.021512042864	96.8736016233222	-49.7211300182273	98.4925320781233	-13.7796004060945	-54.8759381268099	
1524750000	-12.1337632874254	-63.5347415780835	-49.871813807267	90.1496002954405	-50.3240930362124	95.4587788216043	-13.7751203634335	-58.0444566437771	
1525875000	-12.0820864064793	-66.5806179337054	-49.6612171051381	96.3492482568729	-49.8635128410548	97.2773846130213	-13.7911583965822	-61.139043341367	
1527000000	-12.0591473958894	-69.8208668895282	-49.8920901556009	96.1226798593755	-49.4281071165153	101.545939429766	-13.8294778127688	-64.1742992731498	
1528125000	-12.0258301834174	-72.9451466836479	-49.3100507293471	96.1936030177543	-49.2523027286755	97.5653972157558	-13.8329100425784	-67.3730991179162	
1529250000	-12.0184368820803	-75.9607111529316	-48.0134720734019	94.1987336853187	-48.424687822952	97.5655915667195	-13.8684808122574	-70.3387308805339	
1530375000	-11.9808771900627	-78.9332882218588	-47.4101782025102	93.8998418946947	-47.2880187446415	92.8057252720063	-13.9031252418184	-73.2377185063689	
1531500000	-11.9705671324137	-82.2523677179771	-47.3626030478216	85.5630582479018	-46.9355683172329	91.0778602216826	-13.9205227476379	-76.2847430090762	
1532625000	-11.9528660767086	-85.1978843988624	-46.7952436094984	83.3689146081385	-46.7278854706278	76.6112617668297	-13.9525548212207	-79.2221371048796	
1533750000	-11.9435345763315	-88.3171707920551	-46.981527023303	74.4590341909908	-46.6181725740441	73.9653942259392	-13.9630964300212	-82.1518803269053	
1534875000	-11.9218639227002	-91.3606880314135	-47.4596658950638	68.4803702511209	-47.125091265467	67.9233682360073	-13.9857533992985	-85.3260026573325	
1536000000	-11.9185816218184	-94.4198582077003	-47.1363038655525	64.0431006779357	-46.8090491702919	66.0877244780319	-14.0232216515891	-88.193003067991	
1537125000	-11.9120221848531	-97.5606792423728	-47.3208478527673	58.2481270959714	-46.4043962499355	60.8665555628727	-14.0753954208132	-91.2095435660855	
1538250000	-11.907067365449	-100.583463798265	-46.9728197845775	54.9568321161216	-46.3392592794669	55.6158400370079	-14.1167304786161	-94.0471050583339	
1539375000	-11.8899532983713	-103.464972888105	-46.859717548693	54.6831605392053	-46.7150915515029	54.6194865313385	-14.1532218169453	-96.9646622233568	
1540500000	-11.8827535221715	-106.570707924029	-46.5227400689317	55.6446201343107	-46.7220712475146	54.9053218122926	-14.1994679162312	-99.723380872963	
1541625000	-11.8620799453869	-109.729671608662	-45.7045762381894	53.9360712483818	-45.3844982077694	52.5557727603208	-14.2346320277963	-102.39016811045	
1542750000	-11.8738818404559	-112.698028442915	-43.9039389089806	49.5154357732286	-44.5740721627391	48.398724293379	-14.2798638707334	-105.157339271184	
1543875000	-11.8591609996792	-115.741863122075	-43.4672229062324	40.1230311107783	-43.7214907646327	40.7633206639763	-14.3100957905252	-107.869058886508	
1545000000	-11.855505340446	-118.82786555709	-43.0182327901116	33.5668643598583	-42.858926871917	30.267672304951	-14.3221625187341	-110.628122824382	
1546125000	-11.8609878142752	-121.8746322367	-42.1585592025706	19.9292602353923	-42.0776772240844	20.3712410422323	-14.3493465692553	-113.408056732636	
1547250000	-11.8590441487756	-124.853458462604	-42.2540700170476	10.5515585916832	-42.449570876736	9.96966140637228	-14.3391197284034	-116.244387233999	
1548375000	-11.8509118992563	-127.866678864258	-42.1514967946936	0.098745808824749	-42.4600781294775	-1.97318273304421	-14.3767101128045	-118.955406266686	
1549500000	-11.8415445129739	-130.986588883487	-42.9947403149314	-13.5231630512113	-43.1025924624595	-11.0723566702767	-14.3997460769645	-121.827588257487	
1550625000	-11.846176263805	-133.943226159297	-43.7268315623939	-18.3797762583565	-43.7780480828387	-17.0853154598243	-14.3966993872535	-124.526779285414	
1551750000	-11.8495556688392	-137.000635925355	-44.0763527441572	-18.98456888739	-44.0204295748987	-18.794108277072	-14.425571608145	-127.609335580574	
1552875000	-11.8466861067299	-139.934324357221	-43.8636630442224	-24.3468574753729	-43.7705516114388	-22.7607054616042	-14.4118815774683	-130.45229781308	
1554000000	-11.8214112369956	-143.110033395475	-44.2263262018578	-29.4527659795791	-43.4788777991797	-27.8291883317085	-14.4336215690818	-133.330632653993	
1555125000	-11.8225241627951	-146.149478409382	-43.7113647232207	-36.418358716137	-43.6731305495379	-36.327775408072	-14.4400617135391	-136.340301275539	
1556250000	-11.8008725381249	-149.480945354593	-43.5522778441044	-44.1775811541383	-43.5198234868358	-45.8465638621568	-14.4731057077501	-139.355602220434	
1557375000	-11.8154380331037	-152.702612807821	-43.92752526952	-51.2999270271573	-43.6721323445724	-53.8524281656783	-14.4904000745844	-142.56808154544	
1558500000	-11.8199244364787	-155.959502805779	-44.3503630798891	-61.895390845175	-44.0592312862701	-62.2939041446743	-14.5255402487357	-145.563562999593	
1559625000	-11.8471355979916	-159.208643207816	-44.6372533349622	-70.1359195665565	-44.5123173360454	-71.4942629730337	-14.5790335568382	-148.482137519711	
1560750000	-11.8739225999252	-162.342297473761	-45.2953397020739	-74.4160234966845	-45.3093678267974	-77.795017129093	-14.608953509137	-151.412501084454	
1561875000	-11.9045852092305	-165.543565799663	-46.4276740450479	-83.3383861090451	-46.1306886913019	-83.9868908551953	-14.6377232209078	-154.520576330583	
1563000000	-11.9238570671882	-168.668923966909	-46.4125501902847	-87.6627405241939	-47.5908323728139	-91.8059308654464	-14.6856763153416	-157.525268695087	
1564125000	-11.9348658998172	-171.789710250752	-48.0977533597206	-88.1602678168626	-48.3299646543304	-94.3789249861807	-14.7379038525986	-160.45200653617	
1565250000	-11.9758568123082	-175.014083189632	-48.5752002501053	-91.3760696425135	-48.4439475122352	-83.8696360057308	-14.7849183953519	-163.480264519867	
1566375000	-12.0034452980176	-178.229407394811	-47.9669395010111	-89.1764636405272	-47.9671466979663	-89.8717424613238	-14.8245462138722	-166.45373295749	
1567500000	-12.0434756285125	178.651118788076	-48.4256043284197	-93.8500610155552	-48.2169675978191	-93.4943880793019	-14.8607778487044	-169.546888142777	
1568625000	-12.0826447842293	175.528983522528	-48.6651964928715	-99.1802072767439	-48.9296124478037	-94.3759735125204	-14.9090409004006	-172.522642824393	
1569750000	-12.1043671090338	172.491346682629	-48.7118425434309	-95.8535253181828	-49.2761356036298	-100.73866752442	-14.9723644917807	-175.657919528528	
1570875000	-12.1508584065737	169.308081820716	-49.4637547706583	-91.9903580739237	-49.3879326317234	-93.9714522981813	-15.0304410580143	-178.56076889294	
1572000000	-12.1593712297929	166.321922255909	-49.176665015067	-101.939268224865	-48.8017386292906	-93.768808623013	-15.0572273190714	178.655129619228	
1573125000	-12.1866192190327	163.222517414183	-48.3145048186675	-98.733065028403	-48.2252075984566	-96.3526880709575	-15.0841104362041	175.626901343853	
1574250000	-12.1894409213324	160.07775973835	-47.3250078261051	-106.244412789937	-47.5049327723161	-103.807810739164	-15.1079223763277	172.614527715701	
1575375000	-12.2069098748461	156.816455885753	-47.4789268118791	-106.006285758071	-47.6043154767131	-106.501831361348	-15.1180263205796	169.37168610847	
1576500000	-12.2305402819511	153.614402619499	-46.6274218019013	-114.98008321942	-46.7089152675157	-112.534910050547	-15.14286033319	166.064247511872	
1577625000	-12.2284701545068	150.35805669477	-46.5669092036854	-123.224601981807	-46.5325356441011	-123.101098124819	-15.1908520096971	162.847499357347	
1578750000	-12.2532654151252	147.021458305087	-46.9676425826102	-127.04201681783	-46.4732026270073	-128.055434430813	-15.2498277910786	159.92787400598	
1579875000	-12.2748823485449	143.704413655073	-46.5003227135468	-130.182016743597	-46.5278449220511	-132.146076232232	-15.2985872960361	156.698079008147	
1581000000	-12.3046465801927	140.388860762562	-46.5282409321808	-136.497268055056	-46.109726905304	-133.518210455058	-15.3137234312079	153.565050506582	
1582125000	-12.305786516659	137.055319259884	-46.3613148930454	-139.960522129946	-46.6564334908107	-138.1466045526	-15.3267673874959	150.591120921779	
1583250000	-12.3262633500586	133.761822321729	-46.22304462454	-143.89752077093	-46.4768115775162	-144.435060551019	-15.338559470041	147.512320016293	
1584375000	-12.3350681898264	130.347055729663	-46.2604577876539	-150.748072042093	-45.7853715499564	-150.192626003938	-15.3231294576607	144.147908607459	
1585500000	-12.3568278588889	126.878467314662	-46.3458964035513	-155.448805487619	-45.8832330328197	-155.609993435482	-15.3231155183753	140.877916692214	
1586625000	-12.3923317284563	123.371459364725	-45.725956178981	-165.370398466232	-45.956389569424	-162.214741291025	-15.2932099044001	137.21548122126	
1587750000	-12.440102273634	119.803816605366	-45.7274491950225	-167.645852035614	-45.7036125977322	-168.67981876084	-15.3204977542838	133.726113585584	
1588875000	-12.4608785912432	116.38288223203	-45.6663036671501	-176.753304038665	-46.2764564849385	-174.444976828287	-15.3101551546667	130.160199556672	
1590000000	-12.4897542273635	112.930206186263	-45.3329379720123	179.241908663264	-45.4513304198888	-177.949956423523	-15.3121559927095	126.654827192886	
1591125000	-12.5040461712164	109.40841294684	-45.3056837214226	171.04733653902	-45.5187483598653	170.992915638613	-15.3347402187222	123.211592472022	
1592250000	-12.5392220747485	105.801350762898	-45.480194463396	162.876579856778	-45.7540093124875	164.002383429737	-15.3332932772331	119.523029262932	
1593375000	-12.5768551908442	102.251338337738	-45.57834484597	157.086149699968	-46.4467966264771	157.892051970204	-15.3584171672648	115.902431113124	
1594500000	-12.6217302069616	98.7409341851588	-46.1608320444071	152.812701246065	-46.1511344839217	151.970470312821	-15.3958475570289	112.220730398072	
1595625000	-12.652094224065	95.2728066158335	-46.3398581628199	149.858308783555	-46.0287134597923	148.580246169854	-15.3634325494772	108.657198604015	
1596750000	-12.6952928516729	91.8066581086579	-45.9759425625029	138.711651838504	-45.6585651402907	139.378077749207	-15.4065568874458	105.189806781432	
1597875000	-12.7430678240769	88.3438279203873	-46.1385968572014	128.157090592941	-46.177175966275	129.360034343683	-15.3858312241406	101.549394893266	
1599000000	-12.7634045142059	84.9498481898321	-46.8370824701539	120.602441869657	-46.7457061803198	121.159310804867	-15.3724015767235	97.9049134594618	
1600125000	-12.768381902266	81.477625356501	-47.551740330368	113.761755050481	-47.3806512053663	113.869361086948	-15.3437654585319	94.3310528166471	
1601250000	-12.7810150824552	78.0387649925605	-48.0925354108976	107.095604035054	-47.6787714563017	111.582971750225	-15.3476586714841	90.5144192669714	
1602375000	-12.760358605378	74.554195573165	-48.4627651202958	99.1245899705109	-48.641932996911	100.453523330499	-15.3361477292851	86.8298501016423	
1603500000	-12.7813098221802	71.0177077842041	-49.5749789039094	95.1514723380614	-49.4479754471731	96.604960617165	-15.3393158659232	82.9883594285321	
1604625000	-12.7741401512713	67.4521426595897	-50.0607368323691	92.7699120713014	-50.3890671974437	92.6909881110275	-15.2984292822187	79.2155591319373	
1605750000	-12.7518624223637	63.9466663872612	-50.7432118443345	86.218599313591	-51.3573873124958	87.4447258925439	-15.2808975185887	75.5374057678654	
1606875000	-12.7339974006125	60.2505750256376	-51.7331430901761	80.1650722454584	-51.3723511747276	85.1876257641271	-15.2476443446334	71.863198112439	
1608000000	-12.722014086971	56.5656114017272	-52.6391249475935	82.1391629667783	-52.7110171099711	79.1212851398051	-15.2211524270575	68.0244111448594	
1609125000	-12.7174225713958	52.7729010757742	-53.6380903312746	76.5605438426745	-54.3179042344967	80.0293543808484	-15.1949202123761	64.4011588220376	
1610250000	-12.7109039441966	49.0461616143792	-53.771877411705	89.8209679112822	-54.1521105535516	87.0802511590018	-15.1344458135316	60.7280815598284	
1611375000	-12.6972488480375	45.2258680112924	-53.4885920743456	86.8313992404279	-53.472345554597	91.675152812036	-15.070871221747	57.0115731650275	
1612500000	-12.696598587785	41.3602007597918	-52.389825892401	86.4394669926814	-52.4224155737219	86.7692923584938	-15.0096971622272	53.3404566163147	
1613625000	-12.7024189637781	37.6984130218627	-52.4241552399822	77.2673204890047	-52.0930091002366	80.0611589790416	-14.9451705247916	49.5793267020927	
1614750000	-12.7135579338728	34.0195593478913	-53.1639698117565	72.2667590450286	-52.8796822351269	73.2666402930979	-14.872394617061	45.8549265787231	
1615875000	-12.7209414475051	30.2935640071342	-53.5578044512786	67.0213022404388	-53.9879848721382	68.6236635939304	-14.7966983028483	42.1279099389127	
1617000000	-12.728966822253	26.6017979663762	-54.6959055379812	72.7873171334627	-55.479455119343	74.0702209762252	-14.6909091982205	38.211073323612	
1618125000	-12.716624367294	23.0638235452987	-56.0426025235064	79.1752110932189	-54.7672461643528	80.0446604723679	-14.6299394742429	34.4466866207775	
1619250000	-12.7088364628493	19.5911653644379	-52.6704653743976	75.3082983969054	-52.5006026750137	77.8311814838148	-14.5555492480418	30.5904765418857	
1620375000	-12.7019536766213	15.966981173631	-52.0443674275087	66.6385829652107	-51.326209448251	68.2652554847095	-14.4655947498453	26.7946827599274	
1621500000	-12.6930119130659	12.4813820451385	-51.2233595499029	58.4255543400145	-51.5237005628707	60.032604717245	-14.3865572998949	23.0755297912287	
1622625000	-12.662841630344	8.9944918760269	-50.7101312514231	51.4507716492986	-50.4909425319111	48.6440696232372	-14.3012738399169	19.2498885762817	
1623750000	-12.661296092062	5.5694326890208	-51.2548461935998	38.166751795797	-51.0140877016164	36.2971765377679	-14.2099527899389	15.509283319827	
1624875000	-12.622899658856	2.07288567669906	-50.9997590372589	28.9780790524156	-51.261422733303	31.0561449503567	-14.1309751176972	11.7400462010953	
1626000000	-12.5621920529512	-1.48938544811537	-53.1486594650112	18.0611124872686	-51.6860192496359	18.7224910020319	-14.0598719972688	7.99913358832179	
1627125000	-12.5166443042511	-4.88270077272939	-52.4406205044833	5.03077238057928	-51.9769676290691	9.16142624725539	-13.9619325069962	4.26426754931506	
1628250000	-12.4855100730198	-8.44976373899237	-53.3334107724533	-1.15090803675134	-53.0507751701582	-3.12519565412107	-13.8729958836929	0.526596108333987	
1629375000	-12.446621671593	-12.0331283300395	-56.9747218059437	-20.3378747247739	-54.9399456406427	-12.2213036435581	-13.7993012988734	-3.05876942314273	
1630500000	-12.3936423247168	-15.5729975607681	-60.9957827109191	-29.1563378390373	-59.3519143721039	-12.6629970434173	-13.7124500178268	-6.83537210651328	
1631625000	-12.3528559536469	-19.0426677735163	-64.8637636406553	8.0456837972806	-63.4699635642506	14.6959072851536	-13.6461229964694	-10.6116119557681	
1632750000	-12.309907278837	-22.6059274696738	-61.0634502523146	50.5656636634491	-58.7894856522408	20.0502891722547	-13.5922598841963	-14.0871750421742	
1633875000	-12.2769192990353	-26.1794864294265	-57.7084533959675	16.9866909109834	-58.3833290959694	9.49041070446289	-13.5236478485731	-17.4453066787687	
1635000000	-12.2317129207544	-29.7237632298522	-57.7457004640667	1.39850990293098	-56.4292676857406	-4.62955285868914	-13.4558312883125	-20.9991095941298	
1636125000	-12.2096789634984	-33.3417968870719	-58.8132434442806	-17.4271614049375	-58.3974590686804	-22.4613835649946	-13.3629588068394	-24.4851455945024	
1637250000	-12.1736764722863	-36.7351440785284	-60.0672679904238	-8.93219862316496	-60.0256306013243	-21.777971933415	-13.2720266072681	-27.8642636563054	
1638375000	-12.1557192343966	-40.1689380668582	-65.6127548243455	-9.57405670647137	-64.3713394203869	-33.1513170163943	-13.2072927701734	-31.3543763443721	
1639500000	-12.1284898122532	-43.5248726270467	-63.4848537909691	17.9071022622323	-68.8327874286969	19.5103758491241	-13.1455003403622	-34.754868552424	
1640625000	-12.0894989108888	-46.919195075656	-60.1772114448725	40.1956333393921	-63.4079786750129	39.1542644818498	-13.042386478322	-38.0926287780079	
1641750000	-12.042598122427	-50.2138326415319	-58.6193855699873	25.3683714275433	-60.9189493035862	50.7488533319674	-12.9747826367198	-41.4827242725729	
