!Keysight Technologies N9923A: A.08.15
!Date: Friday, 16 February 2024 23:08:55
!Timezone: (GMT-05:00) Eastern Time (US & Canada)
!Model: N9923A
!Serial: MY52412730
!GPS Latitude: 
!GPS Longitude: 
!GPS TimeStamp: 0001-01-01 00:00:00Z
!GPS Seconds Since Last Read: 0
!CHECKSUM:1136096852
!Correction: S11(ON Q)S21(ON Q)S12(ON Q)S22(ON Q)
!S2P File: Measurements:S11,S21,S12,S22:
# Hz S DB R 50
800000000	-7.63958880261438	86.3153759215561	-38.0567424360392	-37.400804689596	-38.609502902316	-38.5836302875355	-13.46345183448	-65.1045725997296	
800520000	-7.64946517269594	84.7703254430306	-38.3296996868385	-39.0809738711356	-38.6442252828943	-40.3558532529922	-13.4424721842166	-66.8593236209531	
801040000	-7.65734428406131	83.2389862619195	-38.3884449049165	-42.5409395454257	-38.9304226813745	-41.7647399293306	-13.4067761548678	-68.6455673168815	
801560000	-7.66422602301569	81.7782967663377	-38.1634971214906	-43.566826571179	-38.56313483927	-43.9629740241735	-13.3923067280579	-70.2752908997813	
802080000	-7.68055166004636	80.2832038129357	-38.5323394834826	-45.7702294985005	-38.5488145166772	-45.9898980104521	-13.3955854402328	-71.9846126830964	
802600000	-7.69819339207881	78.7823750102491	-38.1232334042666	-47.9959096824047	-38.451054199838	-48.4187246881376	-13.3751440125001	-73.6008253753615	
803120000	-7.70722167976818	77.2818707857897	-38.0966142468163	-50.1901573507846	-38.5304201990274	-50.1154618890741	-13.3864203520021	-75.1180219143168	
803640000	-7.72874084540794	75.8347028685511	-38.0393135684807	-52.5696457632082	-38.4381878008734	-52.5095733384728	-13.3705760554889	-76.599660442207	
804160000	-7.73923997976596	74.3959760403038	-37.9598868734933	-53.9659040818964	-38.252084572864	-54.8975227319725	-13.3518108185254	-78.2105122212142	
804680000	-7.75107883612126	72.9203173460491	-37.6778684945204	-57.5431410843019	-38.1672863330022	-58.0363073553349	-13.3455632071166	-79.7913721251443	
805200000	-7.74380934522485	71.4436307920905	-37.5269943117397	-60.814488835602	-38.1868180890842	-61.1767314205273	-13.3383791684104	-81.3492100059687	
805720000	-7.75499727655704	69.9354849654053	-37.518356382235	-63.9803092578744	-37.8237577857602	-64.4879995044946	-13.3606037264195	-82.909849952447	
806240000	-7.76235800069185	68.3972525380424	-37.5142846431861	-67.3483678369797	-38.0097542411634	-68.0563660519876	-13.3490591501302	-84.377989905486	
806760000	-7.76806738408648	66.7938531532345	-37.5251335547794	-70.658749396764	-38.0132571282493	-71.6693783344714	-13.3418663994565	-85.7910143136158	
807280000	-7.78047171627055	65.2615307714554	-37.6070667921452	-73.9248752667938	-38.1159398402785	-74.2490576332904	-13.3433779955609	-87.224942129549	
807800000	-7.80234153437043	63.6402564357032	-37.8149012084055	-77.6799594103005	-38.2021478391583	-76.006109353706	-13.3306177451206	-88.7217745369041	
808320000	-7.81302867140979	62.0780165748229	-37.8623305682376	-79.6818829540754	-38.4976124262465	-78.4894139465964	-13.3311227707712	-90.1304285764531	
808840000	-7.83802704380758	60.4886920952528	-37.9693973653853	-81.1859449119444	-38.4825585206998	-80.0868172190695	-13.3017368207812	-91.5886908964963	
809360000	-7.86255752727135	58.918494971251	-37.935831850374	-83.0727972496835	-38.4381791130281	-81.7570931193327	-13.2863513467019	-92.9431367247964	
809880000	-7.89879330849782	57.3539840664575	-37.9342477507263	-84.8733521496102	-38.4596805227909	-83.2353279790493	-13.2936162879952	-94.5702897696791	
810400000	-7.92639788276406	55.8290445828204	-37.7318261889431	-86.5575803289335	-38.1546389624098	-85.9406435692815	-13.2966412355345	-96.029539193391	
810920000	-7.96552484349842	54.3796501894808	-37.6544744562281	-88.7127045022988	-38.073810675628	-87.3460278493871	-13.283953591181	-97.4518162611381	
811440000	-7.98722853570965	52.8201366002754	-37.611520579641	-91.6286832163877	-37.8160502455524	-90.6101985005686	-13.2761404974969	-98.8192119683909	
811960000	-8.02365554794033	51.3475350071514	-37.2691180026773	-95.1942050190005	-37.5502490214044	-93.070607406676	-13.2860734161019	-100.086004839031	
812480000	-8.05086766599937	49.8252148052936	-37.4692755859784	-98.4396071025958	-37.5851526767544	-97.6939106832379	-13.2602774792695	-101.507188213536	
813000000	-8.0781361115487	48.3461173628929	-37.3310537414474	-102.802212270766	-37.6521956240717	-101.37876269056	-13.249051129009	-102.82204920808	
813520000	-8.10766212528202	46.9008476482232	-37.3814409904158	-106.23630965703	-37.6398656011638	-106.004576226989	-13.2261662152527	-104.285916578389	
814040000	-8.13337862446448	45.4666663914577	-37.5346927767746	-109.212130011097	-37.7479373467747	-107.742376972224	-13.1952159346536	-105.676320647796	
814560000	-8.15295483498105	43.9141462000709	-37.5584010403478	-111.623570038758	-37.8438638231591	-111.195086527098	-13.1686911305096	-107.117740571213	
815080000	-8.19068864925821	42.4889701198907	-37.6130350917942	-114.502803981125	-37.8397620024586	-114.087170282468	-13.1403104390536	-108.502571919485	
815600000	-8.207577587954	41.0162506791609	-37.5656053176202	-117.097969845891	-37.814557120384	-116.216241861764	-13.1270927833852	-110.094562773368	
816120000	-8.22915038876043	39.5329978606647	-37.6377128509531	-119.331036573507	-37.9930687451372	-118.81130030158	-13.1065006451235	-111.620978700964	
816640000	-8.24612113626268	38.0630981096172	-37.8422285592264	-123.052341984702	-37.8409182327992	-121.933003661075	-13.0933564052323	-113.155960600981	
817160000	-8.27353293605422	36.4946580937473	-37.7325813018415	-124.841391370541	-37.9697526499835	-124.298582779942	-13.072063904342	-114.685823396653	
817680000	-8.30284077657432	35.0824293594507	-38.0574228336962	-127.524231537876	-38.1636803628486	-126.945123961759	-13.0772399975847	-116.103807197592	
818200000	-8.32984627879449	33.4766033710439	-38.0405237472998	-129.414704075724	-38.2058510579865	-129.432895181471	-13.0790059208298	-117.588677479196	
818720000	-8.34956442382423	31.9520846107594	-38.212253903206	-131.067664900408	-38.2921816519601	-130.775997922665	-13.0594863401041	-119.05780286937	
819240000	-8.38207365304851	30.6013816546928	-38.0382180550887	-132.757261508696	-38.1661875489191	-131.48168302876	-13.0582295226699	-120.507610835833	
819760000	-8.40015185718893	29.0556400482836	-37.8344501850594	-134.377772769643	-38.0544088124057	-134.297006395663	-13.0383355090923	-121.891689438966	
820280000	-8.43467779972791	27.5295407509765	-37.6490949143013	-137.65959519925	-37.923630969098	-136.275209574479	-13.0327310692753	-123.30279501874	
820800000	-8.46155122137254	25.9635275624124	-37.259378987848	-140.968764222454	-37.679852760764	-140.034679591714	-13.0180573470063	-124.64659146693	
821320000	-8.49315513962094	24.5394417359499	-37.1276915809121	-143.27976563168	-37.5009590635204	-144.413558286198	-12.9984737407332	-125.982185426773	
821840000	-8.51926526081017	23.0179430511151	-37.298683432363	-148.341294234702	-37.5236164493696	-148.192168181679	-12.9728714722317	-127.412504173929	
822360000	-8.5564543870701	21.4774751801196	-37.347626111529	-152.521734300025	-37.4926762368833	-152.208507071521	-12.9532010376764	-128.754998771493	
822880000	-8.58224972292947	20.0189030408942	-37.6439863766681	-155.576773414307	-37.7647249773631	-155.031792536104	-12.9451210523439	-130.211730126709	
823400000	-8.60535151810465	18.5762171279687	-37.5884531296229	-159.221839877558	-37.8287296573377	-157.981640169008	-12.9083188974057	-131.677794260886	
823920000	-8.6351188712377	16.9822132171597	-37.7047913427966	-162.202505164047	-38.1578819084672	-159.787008369184	-12.8847460443804	-133.182761909072	
824440000	-8.67118359034368	15.4633658523035	-37.7432629765055	-164.319791922252	-38.1619316340435	-162.435205725259	-12.8625533890503	-134.630293079859	
824960000	-8.69763259280865	13.9311393233819	-37.950865765517	-165.435886510383	-38.2811028211072	-164.377816981738	-12.8350622443574	-136.229838062667	
825480000	-8.72706019485371	12.4180329391679	-37.9322460396908	-168.158325874575	-38.1793061351607	-166.704092949979	-12.8153789180346	-137.605545116533	
826000000	-8.76165394871873	10.8615234413155	-37.9535146739224	-169.706849283673	-38.0698029831674	-168.766119792723	-12.7988196717223	-139.071452434813	
826520000	-8.80296523465237	9.33598333048783	-37.9284646133759	-173.428510441364	-38.0915790470029	-171.339088642274	-12.7600328305025	-140.564668741561	
827040000	-8.83702007837327	7.78837059444889	-37.9827510340674	-176.059194371868	-38.2616008231461	-174.388451191427	-12.7521733280397	-142.113259480629	
827560000	-8.86935612898359	6.29259620923395	-37.9589961277911	-176.993947680123	-38.2949207836026	-176.319010834867	-12.7176732966467	-143.507917893321	
828080000	-8.90467283847391	4.71704289294306	-38.1165448878797	179.374032336205	-38.1478366703612	-179.153780980892	-12.6950743059769	-145.14413239129	
828600000	-8.94136719529312	3.21948130983351	-38.1926778786474	178.182974933025	-38.1441288070599	179.393087324134	-12.6751084920463	-146.670743171468	
829120000	-8.9837883782468	1.71781598077511	-38.0244010832236	175.11329952721	-38.159644800228	176.005728768362	-12.6655625056391	-148.142183723517	
829640000	-9.02807795265957	0.125162363692325	-37.9599035971973	172.060485308687	-38.0938329894147	173.361075505744	-12.6657424241801	-149.728765777449	
830160000	-9.06451442156884	-1.43395022429876	-37.9180374112019	169.554180771554	-38.1749150261032	171.312963536144	-12.6418013100644	-151.26843627581	
830680000	-9.11422578059134	-2.93005551712723	-37.750430675713	166.663397446738	-38.0391348968302	168.153637978242	-12.6273754718098	-152.712315329238	
831200000	-9.16129620483805	-4.51224480975733	-37.7502240969835	162.589597968513	-37.9418113208099	164.908032594848	-12.6000188129125	-154.192261894693	
831720000	-9.20925963381073	-6.0297729675178	-37.8137444927322	160.686109255135	-37.9756848868111	160.933814435237	-12.5996416104811	-155.580132779782	
832240000	-9.25201267648468	-7.4827726470186	-38.0112974347501	156.938557564451	-38.1316909464841	159.147411075584	-12.5561831953364	-157.176072709058	
832760000	-9.30642071804263	-8.98656767691465	-37.9892774157542	153.49447824603	-38.0943281935968	155.939285074823	-12.5489590197064	-158.693832790703	
833280000	-9.34814755076277	-10.5277045899377	-38.1474745539622	151.779056917219	-38.1528044917624	153.765178665443	-12.5329943450291	-160.261032432032	
833800000	-9.38357915959475	-12.007168835996	-38.067872312573	148.715549106578	-38.081719151903	149.779743709047	-12.5205738053859	-161.834402734619	
834320000	-9.4479930265669	-13.5388582128374	-37.9608709313176	146.25353217619	-38.1819597823057	147.963702644131	-12.5064555211393	-163.417423423389	
834840000	-9.48589932119121	-15.0854999569726	-38.0820793983196	144.234672086708	-38.1608345689592	144.721421262238	-12.492128212195	-164.856542378249	
835360000	-9.54367378197037	-16.5868089452434	-38.0540002671942	141.652264574552	-38.2874410049296	142.842505191402	-12.5016785224843	-166.373868020109	
835880000	-9.60671671351533	-18.1302461130456	-38.2737823921947	137.789997942114	-38.1487240264112	140.824672920131	-12.4770650033526	-167.87181519713	
836400000	-9.64986901731762	-19.6379683903944	-38.1155636721017	136.422544432681	-38.2511523598066	137.486848398332	-12.4660382972567	-169.339916099037	
836920000	-9.69998758404352	-21.101181080771	-38.257209337664	133.610380583437	-38.1632875817831	134.509366516505	-12.4479793852488	-170.829819961763	
837440000	-9.75181338784784	-22.6408142049662	-37.9629900948775	130.584521297726	-38.0610984888836	131.630250867962	-12.432806892925	-172.379589714615	
837960000	-9.80526038054145	-24.2023936522292	-37.8489382566009	126.786710359771	-38.0885522922681	128.100475006327	-12.4154089990217	-173.859063941365	
838480000	-9.84557273707776	-25.7037419600159	-37.8697555757632	122.713889007529	-38.0876646011518	125.859417917649	-12.3895678739379	-175.249581723437	
839000000	-9.91456395544531	-27.2802001322345	-37.939576998125	118.837110327604	-38.1173955011374	120.927294146978	-12.3608936129715	-176.733769695347	
839520000	-9.97984812000335	-28.7956465997641	-37.9211099700734	115.19733895384	-38.0314628047299	117.735751437826	-12.3468945066042	-178.275614228807	
840040000	-10.0497178225424	-30.4397980886682	-38.079249407111	111.737636066393	-38.3408278377892	113.669194582808	-12.3142056959453	-179.962042290108	
840560000	-10.114538059184	-31.9524778476542	-38.4022711560046	107.438029437167	-38.4629929644187	109.293388311162	-12.2954034862052	178.451626654181	
841080000	-10.1941148146632	-33.4237583963383	-38.66203806448	103.92432936238	-38.8594068377887	107.309480166209	-12.2927591773652	176.83186790854	
841600000	-10.2611749467301	-34.89082366326	-38.875616175037	102.77132029803	-39.0606106722215	104.735750049234	-12.2773038843336	175.325273928382	
842120000	-10.3411224232677	-36.272225037019	-39.109791063758	101.029891127363	-39.3251612514261	101.424184329472	-12.2721279198803	173.847626619827	
842640000	-10.4177859428531	-37.7519996867235	-39.422125756168	98.1906519803221	-39.6930456742187	101.252058909704	-12.2686096976995	172.349112919434	
843160000	-10.4719042983101	-39.1638418853675	-39.5613401370895	97.7685723409534	-39.8292852686019	99.7732095158148	-12.2540629344081	170.78587380871	
843680000	-10.5427230109083	-40.532121073772	-39.5793174215759	96.431013616613	-39.69105373685	98.6951751227355	-12.2373809670119	169.302315183414	
844200000	-10.6225006170817	-41.9355778869541	-39.5016198782965	96.2546443153508	-39.9127962842549	98.7423288938931	-12.2273593636686	167.770867767327	
844720000	-10.6921809574724	-43.4031837075567	-39.3752336243923	94.2230517323541	-39.7275414554284	96.2062476288846	-12.2237300849102	166.211079262268	
845240000	-10.7426017328664	-44.7735215103718	-39.5743344169369	90.7477070993394	-39.629072342164	94.6240342349295	-12.1909032658746	164.778972111495	
845760000	-10.8195155557889	-46.1498887483128	-39.6388072297745	89.4490535408661	-39.5854412476799	91.1201477442416	-12.1834529302396	163.240455687754	
846280000	-10.8909107196821	-47.581174366067	-39.3047174849619	87.8749844896737	-39.600271967771	89.9671296455662	-12.1684120555644	161.790426830273	
846800000	-10.9475012661866	-49.0257029249674	-39.4744383438809	85.6854301625467	-39.3430793976892	87.6023349499958	-12.1652513849307	160.304531823368	
847320000	-11.0074526912588	-50.363019352926	-39.3640428996026	83.862482170754	-39.1891320306669	86.8177787646798	-12.1396355585301	158.823549722248	
847840000	-11.0665412383391	-51.8352317532957	-39.215387341891	80.8383703277405	-39.1004097344304	83.3290995229102	-12.1190716479799	157.370505645994	
848360000	-11.1317566555254	-53.2077973553435	-38.9144286880678	78.1264970839756	-38.9646391507849	79.6155871080808	-12.0984544249812	155.908256902105	
848880000	-11.1954686163575	-54.6754927745216	-38.8852244683789	76.1427842770028	-38.7014850228518	75.9102716783621	-12.0766633661581	154.30018660989	
849400000	-11.2653676254861	-56.0483790132599	-38.8259707152397	71.0646839423691	-38.6604327922459	73.3515401263802	-12.0413842355954	152.700685629283	
849920000	-11.320329847086	-57.5493192858636	-38.7713648854586	67.7163555785707	-38.6785093502438	69.8770433248647	-12.025387638832	151.187304302236	
850440000	-11.3966330086133	-58.9659372047241	-38.6638714042789	65.8045742664746	-38.7245984874976	66.3364825247613	-12.0119048979195	149.51191372132	
850960000	-11.4649267717956	-60.2657181937368	-38.7626288503345	62.9479567874452	-38.6556216066857	63.388441871725	-11.9893445955478	147.896873434969	
851480000	-11.5163360319995	-61.7739731016097	-38.7138466889378	58.1082522498039	-38.6429889634228	58.9149562153253	-11.9769910994836	146.287516797324	
852000000	-11.5703590413104	-63.1599051610274	-38.584296555624	54.3765752078509	-38.7762565739195	54.3760522569379	-11.9647565597615	144.761736654205	
852520000	-11.6366100911627	-64.6532773948016	-38.7184225281305	50.1012706127409	-38.9094292637755	50.6718824947137	-11.9514249621195	143.161650743784	
853040000	-11.6984807348168	-66.1888978804689	-38.9794532115791	45.8697600241061	-38.9660184116596	47.0412423270836	-11.9483214033113	141.701994083618	
853560000	-11.7608210054418	-67.7243685689985	-39.2411260113368	42.7377441872013	-39.3006884757853	43.3808420398957	-11.9412797327066	140.128609699279	
854080000	-11.8288756229589	-69.3114154344486	-39.2936940354193	39.1741089391012	-39.5448902940611	41.096417012993	-11.9273652098674	138.617920836458	
854600000	-11.9017111342092	-70.8110608401652	-39.6736256680865	37.9835193108154	-39.7418003101184	37.6303715446805	-11.9234830818408	137.026156386801	
855120000	-11.9717693393508	-72.2417190303658	-40.0932335535292	36.5938969753716	-40.0002243336975	35.1804539448177	-11.8975739181925	135.498875207931	
855640000	-12.0510851760516	-73.7809098106785	-40.0548837638969	33.7729946065464	-40.1600906673887	34.8404814412824	-11.8815421615754	134.075404633138	
856160000	-12.1090828023935	-75.4175514771069	-40.1273242805269	31.9598444269321	-40.2374229543523	32.2689124758269	-11.8674497551282	132.506793714783	
856680000	-12.1993922309792	-76.935337155359	-40.0473530457253	30.150438967996	-40.2122550135476	30.6351705968736	-11.8715183342012	130.94467771648	
857200000	-12.2735550154383	-78.5496177258518	-40.0795271290685	27.1461812195135	-40.1669018413287	27.787790502269	-11.8614123901647	129.43697440313	
857720000	-12.3655120715875	-79.9929138444188	-40.1061925160059	25.5671226074408	-40.3686171541411	26.4693803388495	-11.8492433153994	127.898883696206	
858240000	-12.4359400801297	-81.6185715661611	-40.1591518609809	22.9524714216208	-40.3355890752638	24.7159381388529	-11.8254253062844	126.382908162298	
858760000	-12.5227606463771	-83.2627510914585	-40.2258584496316	21.5410432793156	-40.3449554461942	22.4691205081148	-11.8193356739553	124.857709769657	
859280000	-12.6185376592839	-84.8053416570284	-40.241181265269	17.4446015851995	-40.2551399015459	19.1425410017655	-11.8045036009552	123.249411532865	
859800000	-12.6914605537355	-86.4753252460778	-39.9453328435787	14.8359146482738	-40.0621270484852	15.4354141016506	-11.7867800929708	121.794670965764	
860320000	-12.7669019100287	-88.0191715166365	-39.9787327185109	10.9186175590836	-40.3916651108491	12.5089502034573	-11.7650366486912	120.238926220058	
860840000	-12.88191163422	-89.7392313882456	-40.0898208240148	9.76448307338631	-40.288352379995	10.3814436812634	-11.7637594153783	118.721156320642	
861360000	-12.9806595715336	-91.4674387903945	-40.132110601471	5.2268664304765	-40.3657310906513	7.04183729139195	-11.7469763096043	117.197779384667	
861880000	-13.1013383446388	-93.066140167036	-40.483366201862	1.42723905764304	-40.4771054348119	4.01301819253661	-11.7325773578831	115.688576872333	
862400000	-13.2150927001833	-94.8488983712538	-40.448523646135	-0.363941037826448	-40.540510830832	1.16253666249506	-11.7312461400833	114.179988649594	
862920000	-13.3491086277612	-96.4073294082554	-40.6082662636519	-3.22436243430324	-40.9870371511853	-1.40147393210596	-11.7109090111875	112.690970265264	
863440000	-13.4838780370425	-97.9563729725715	-40.622946035466	-4.03251053591097	-40.8991223924874	-4.27949888756261	-11.6993179121348	111.280841940341	
863960000	-13.611600307906	-99.4616931214107	-40.6281829626172	-7.85532333148025	-40.8671577600395	-6.5527323107864	-11.6798789248064	109.755131406842	
864480000	-13.7389493131478	-100.995557573241	-40.6440319090113	-10.8240159141999	-41.2541299577388	-10.1308488962536	-11.6523635144331	108.266654136152	
865000000	-13.8607245581659	-102.535200500201	-40.9711953974966	-15.2832319025816	-41.2486400028234	-13.8032833209325	-11.6263737848015	106.701834152174	
865520000	-13.9904735674679	-104.062726398087	-40.912337576746	-15.7760902560647	-41.5857322961371	-15.6665928433601	-11.5985962585764	105.264568718456	
