!Keysight Technologies N9923A: A.08.15
!Date: Friday, 16 February 2024 22:50:42
!Timezone: (GMT-05:00) Eastern Time (US & Canada)
!Model: N9923A
!Serial: MY52412730
!GPS Latitude: 
!GPS Longitude: 
!GPS TimeStamp: 0001-01-01 00:00:00Z
!GPS Seconds Since Last Read: 0
!CHECKSUM:0735242323
!Correction: S11(ON Q)S21(ON Q)S12(ON Q)S22(ON Q)
!S2P File: Measurements:S11,S21,S12,S22:
# Hz S DB R 50
800000000	-0.907823179852339	8.75031202663459	-10.4056229681745	80.7308114611525	-10.4197463874689	80.8300241087958	-0.910069732790791	-26.9305710542175	
800520000	-0.903640796177566	7.78027853513759	-10.3843088032811	79.8339380445444	-10.4032527185204	79.8992340682779	-0.904597181806779	-27.889209545633	
801040000	-0.902088660322474	6.8839922820912	-10.3887924538638	78.9354010321241	-10.4002434909155	78.9049065179201	-0.906837576908926	-28.8339647097492	
801560000	-0.901541145838731	5.9312274102844	-10.3857180966569	77.9537080318128	-10.3969142453761	78.0012515726803	-0.906126468402143	-29.7954294163249	
802080000	-0.91049798572777	5.04458335087528	-10.3735554546153	77.0746913387471	-10.389198514388	77.0618653144549	-0.906614984180299	-30.7210644725385	
802600000	-0.902154738969822	4.12468529981381	-10.3733602269713	76.1121097220198	-10.3834527436686	76.1539894182142	-0.907487890020449	-31.6850283291737	
803120000	-0.90365766053502	3.22248994481818	-10.3606705230849	75.1825114172163	-10.3782064792004	75.2903015328903	-0.908355711854768	-32.568991232638	
803640000	-0.901274081015849	2.25252562689876	-10.3590312788444	74.2132207089751	-10.3753565091961	74.2781978042373	-0.908196859014126	-33.5359995627537	
804160000	-0.902273798819453	1.37786775504144	-10.3502705285366	73.3169418026482	-10.3724965955387	73.3840386178521	-0.905212455333537	-34.4745295565472	
804680000	-0.906038800861726	0.469191342110585	-10.3579876597025	72.4052180204294	-10.3627850939245	72.4274220439294	-0.903482106898837	-35.4301433474268	
805200000	-0.896748672493709	-0.455764029292492	-10.3421996859145	71.4276710716386	-10.3584341932821	71.5128967695941	-0.910323713548731	-36.3922750328567	
805720000	-0.904771182723467	-1.35699185190201	-10.3466866818351	70.5996354376525	-10.3555514797627	70.616376995222	-0.913977827106538	-37.3000694211388	
806240000	-0.901978509754335	-2.29089386302118	-10.3410871256367	69.6110181687921	-10.3540740637857	69.7195185785875	-0.915596566852365	-38.2685071886442	
806760000	-0.898528521007379	-3.19565745979258	-10.3287713993368	68.6355508084	-10.3478697762747	68.7587712228415	-0.908911663518623	-39.1989990006055	
807280000	-0.9037713376686	-4.1053857144091	-10.3238267201553	67.7322047257812	-10.3370702193614	67.8056314611838	-0.907725569447118	-40.1095320322852	
807800000	-0.904325709194037	-5.04169618072021	-10.3178488366381	66.8375318147299	-10.3396733650897	66.8605001499413	-0.913046304877578	-41.0497486280662	
808320000	-0.905697737079562	-5.94482017547172	-10.3101684317591	65.9002274221604	-10.3252702082531	65.9410546931093	-0.91505085264981	-41.9811785286089	
808840000	-0.908358430912702	-6.85317085820931	-10.3079192592979	64.9573290735862	-10.3284971817492	65.019163060849	-0.91747015166734	-42.9424128095815	
809360000	-0.904797839999109	-7.77625270543453	-10.3104191095383	64.0003852604135	-10.3179201900116	64.079929192078	-0.908393640956054	-43.8828741817728	
809880000	-0.905425463186764	-8.68853379314511	-10.3019969851799	63.093111694818	-10.3210327382103	63.2363294436904	-0.915137957402115	-44.8230890494074	
810400000	-0.905382361806992	-9.61923718318493	-10.3001223008211	62.1620461306889	-10.3139268988327	62.1990496858383	-0.913040662294248	-45.7703672704164	
810920000	-0.915642287497453	-10.5296075180738	-10.2933444346904	61.2356872799576	-10.3056076706582	61.2920878211323	-0.915368738126793	-46.702178647656	
811440000	-0.904767038486718	-11.407044606569	-10.2892306038521	60.3181365083621	-10.3011355759557	60.394879484905	-0.912689825951158	-47.6487406438548	
811960000	-0.905882139117765	-12.3418537685964	-10.277282827628	59.3825946538384	-10.2957755615052	59.4256066154977	-0.916742170019176	-48.5568585678555	
812480000	-0.911052630341647	-13.2469088135947	-10.2844134336187	58.5111300023473	-10.2929199164143	58.4549679619626	-0.913989878887142	-49.5227048482826	
813000000	-0.907812886087647	-14.1970536065327	-10.2788529369335	57.5015277232831	-10.2786770711903	57.5806440810415	-0.913704282716083	-50.4661421795143	
813520000	-0.90284050002565	-15.0917959663812	-10.2668187337727	56.5587845559744	-10.2762452063918	56.6492784757954	-0.915732665087423	-51.3825514284275	
814040000	-0.906244183543639	-16.0223423495283	-10.2625779907145	55.6302089829074	-10.2823076483548	55.7487331767935	-0.917864516598982	-52.3105302678205	
814560000	-0.904276093451439	-16.9338217335292	-10.2546613350428	54.7278581607663	-10.2634131873364	54.8071572069724	-0.91581017652237	-53.2933727502903	
815080000	-0.910195290735002	-17.8816620318015	-10.2566526663919	53.7976274542325	-10.2629190371663	53.8591051087836	-0.914751912384445	-54.2055719381639	
815600000	-0.911776858269487	-18.7860513900017	-10.2445604285286	52.9360550574707	-10.2663783435055	52.905616480006	-0.919487463071614	-55.1672322544916	
816120000	-0.909209157045818	-19.6838832293271	-10.2466039484933	51.9346465120121	-10.2440850127562	51.952082846416	-0.921883625359494	-56.1011243694085	
816640000	-0.905348166022024	-20.5812384228243	-10.2342469818306	50.9989375291999	-10.2429378686524	51.0099385420234	-0.920382515164002	-57.0319402046742	
817160000	-0.907080818733466	-21.5190574407603	-10.2338792375885	50.0972152960127	-10.242515011941	50.1402324926474	-0.921444322594222	-58.0093817326593	
817680000	-0.917407643634399	-22.4203736628488	-10.2301375200363	49.1656253626047	-10.2355998354665	49.2522379672522	-0.919333701542704	-58.8925564218877	
818200000	-0.913343704075071	-23.3809140126477	-10.2267357777964	48.1948415487287	-10.2298095726255	48.246132257816	-0.923711674803392	-59.8863128620539	
818720000	-0.91237015334034	-24.2562717277511	-10.2192302302992	47.2978714008799	-10.2253982813161	47.3477676704876	-0.923950351859029	-60.7803116671916	
819240000	-0.916569853458094	-25.1815982065262	-10.2031784006812	46.3629896120939	-10.2185068133278	46.3847144998395	-0.922693251843171	-61.7501296025951	
819760000	-0.910574268125114	-26.050281003051	-10.2093726836494	45.4511554534685	-10.2122291104693	45.4721201326674	-0.922430760976277	-62.701415811591	
820280000	-0.915535283063349	-27.0124509797429	-10.1964204344898	44.5038151469446	-10.2044003129963	44.5656980154051	-0.922609638619503	-63.6422529891576	
820800000	-0.912109698399528	-27.9314382329607	-10.1864494482718	43.5045579094134	-10.2087683744809	43.5711439988865	-0.925180407976005	-64.5798095647979	
821320000	-0.913534886814428	-28.8395474904852	-10.1887446358804	42.647598961757	-10.1973483094146	42.702431527385	-0.925436429204077	-65.5291896508241	
821840000	-0.908617209150911	-29.7737979703489	-10.1827435758848	41.6390548929213	-10.1879476887462	41.773005815747	-0.925179873884486	-66.4653578646803	
822360000	-0.917286791593626	-30.6847664011632	-10.1752599825053	40.7740883964886	-10.1817569936368	40.7935199242084	-0.927704447230698	-67.4220308329231	
822880000	-0.912735107053652	-31.5894270047258	-10.1768273195363	39.8269806109355	-10.1846873130722	39.8634596827947	-0.928961986810004	-68.3305663155773	
823400000	-0.914687693994154	-32.4883230444854	-10.1628932255521	38.94407524607	-10.1745353775668	38.9372795687874	-0.926947474527259	-69.265535783746	
823920000	-0.913224887327115	-33.4133353192829	-10.1596375660774	38.0616098918558	-10.1643529443182	38.0021429633042	-0.927197899878631	-70.2112765908891	
824440000	-0.916725127012972	-34.3217379048262	-10.1574268632207	37.008765561885	-10.1593644890095	37.0635627326601	-0.931077389102291	-71.178249654929	
824960000	-0.914936668283123	-35.2720998994228	-10.1439379843064	36.1298512144492	-10.155187587169	36.1580171544786	-0.931118220209385	-72.1112634016641	
825480000	-0.915893463314072	-36.1658698865771	-10.1401955247761	35.1963521360873	-10.1533243330132	35.2067598432262	-0.930529907852283	-73.0268983566903	
826000000	-0.912696310201266	-37.089618313098	-10.1271750640133	34.223344597838	-10.1396060130328	34.2710169426978	-0.931509556473207	-73.9858962046646	
826520000	-0.914474808519833	-38.000101241051	-10.1230328506918	33.3118077674104	-10.1392468890211	33.3543446913467	-0.930977921124967	-74.9327007067728	
827040000	-0.913578736798772	-38.9212046973017	-10.1165538244334	32.3691852706119	-10.1312367967065	32.423273897941	-0.936020019339853	-75.8891969208569	
827560000	-0.914558350113168	-39.8271751744167	-10.1216931910286	31.4732740556985	-10.1264623868816	31.5211760808291	-0.933447865068234	-76.8101484409049	
828080000	-0.913382921431783	-40.7650586976897	-10.1089016065121	30.5178926756055	-10.1214585827157	30.5908050474274	-0.938610618011945	-77.7314897989619	
828600000	-0.915901699752648	-41.6586859776286	-10.1022891929694	29.6154852884747	-10.1120696679605	29.6077845762696	-0.938858209429013	-78.6853248987943	
829120000	-0.922282028075784	-42.5876191969043	-10.102635319402	28.67342179277	-10.1012048626404	28.6672281588581	-0.934997522382275	-79.6307718869065	
829640000	-0.919032091603462	-43.5226572133408	-10.0823591766361	27.6977165106793	-10.1076582711917	27.7535290788081	-0.936979383890872	-80.573507791532	
830160000	-0.917856878125728	-44.4222449011866	-10.0838275523587	26.7541732454689	-10.0982860607049	26.8278753969419	-0.936799514782903	-81.5235296392173	
830680000	-0.921387834800901	-45.3219183539292	-10.0797164547045	25.8452320924695	-10.0897507863592	25.8809884972608	-0.939260619829699	-82.4681906088098	
831200000	-0.92101047170602	-46.2429479034929	-10.0876651340537	24.8913136507485	-10.0815144530586	24.974142747273	-0.938149565977467	-83.4148881368086	
831720000	-0.918536382329439	-47.2008735602619	-10.0673475751439	23.968700646625	-10.0810644465114	23.9945126393775	-0.942379691028284	-84.3456410582215	
832240000	-0.9227880190014	-48.0833424024956	-10.0651108221519	23.0603510042905	-10.07595893161	23.1278968256949	-0.944484163725208	-85.3112659090847	
832760000	-0.921712318968766	-49.0136979614302	-10.0573722023423	22.0883064827363	-10.0643327202234	22.1913531842547	-0.943452186730616	-86.2523405304554	
833280000	-0.92156216200846	-49.9012208042712	-10.0493239612307	21.1994828700107	-10.0588927843249	21.2530896593076	-0.944402269992977	-87.2002882566563	
833800000	-0.918803598566566	-50.8172091431352	-10.0476696410259	20.2375817077196	-10.0460425141697	20.2929600511771	-0.94386011528758	-88.102837539165	
834320000	-0.928132172347019	-51.7567440771482	-10.0389575570291	19.3381526468233	-10.0478363736108	19.3971536770232	-0.948830492296453	-89.0432530091558	
834840000	-0.924363098324307	-52.6869500085905	-10.040667613771	18.3782775067917	-10.0394882571145	18.4316129333391	-0.942731644130456	-90.0119002834356	
835360000	-0.926126569258171	-53.6054991359764	-10.0214839525276	17.3959554726064	-10.0341491688583	17.4955794749251	-0.943963873731953	-90.9373686125704	
835880000	-0.932870236978394	-54.5188029224727	-10.0206060296334	16.543750653476	-10.0354159248793	16.5517263217754	-0.945202013376351	-91.898630630388	
836400000	-0.925747528293626	-55.4398047605032	-10.0125741908942	15.5497112257229	-10.0292769286287	15.6357200807227	-0.947060639376885	-92.8218904091631	
836920000	-0.929588883731474	-56.3459782853646	-10.0084004641108	14.706434225557	-10.0229654222797	14.6854595898996	-0.950689185021568	-93.7555906340772	
837440000	-0.931908793821718	-57.2715293064216	-9.99742055300699	13.7343985689072	-10.0208426043756	13.7564110529546	-0.950475188388335	-94.7232995584734	
837960000	-0.932109570800111	-58.2158345701905	-10.0017365978204	12.776711940077	-10.0109768143659	12.8514660376717	-0.953288135329209	-95.6515201801328	
838480000	-0.928936329249638	-59.0963932245022	-9.98112918338278	11.8074558491218	-10.0044964014618	11.916239251633	-0.952261840396249	-96.5997930709293	
839000000	-0.933947678681358	-60.037193315288	-9.98695454917258	10.9273641944393	-9.99607111787997	10.9900546286512	-0.954554879890401	-97.5774229159791	
839520000	-0.938729840708521	-60.9346295911517	-9.98346589803741	10.02806217445	-9.98549881634798	10.0363755987901	-0.952974550848974	-98.4891322846553	
840040000	-0.935885387193329	-61.8871111771608	-9.97116938526545	9.0031688520655	-9.9861515738263	9.10354173971515	-0.951791157348036	-99.4636000147683	
840560000	-0.931745554452395	-62.79266561803	-9.97900756692008	8.11772875496356	-9.96768587719286	8.13432463624043	-0.95768598925512	-100.373766658946	
841080000	-0.932024076230739	-63.7140345797694	-9.96243819979639	7.15677173323894	-9.96108233988055	7.18928773808384	-0.959669117181597	-101.321014535083	
841600000	-0.932084984870077	-64.6143937734012	-9.95386154516931	6.26237457381252	-9.96561165545772	6.27866651170199	-0.959250293816788	-102.260296730063	
842120000	-0.935365348470596	-65.540052535972	-9.94885497035925	5.26234190963233	-9.96254388009098	5.30398998932845	-0.960089017336477	-103.217775259458	
842640000	-0.938617145180718	-66.4683958274292	-9.95050882526445	4.3734502377372	-9.95703517115724	4.40740322961911	-0.958195618486202	-104.135873199042	
843160000	-0.935861440827716	-67.4109759825401	-9.93739197673163	3.43370125507802	-9.94543172652587	3.45076241560525	-0.960963168009634	-105.108359332271	
843680000	-0.936203328112971	-68.3202676774049	-9.93260037012202	2.46290937239406	-9.94300752284284	2.53877444861167	-0.965204783408853	-106.05991310782	
844200000	-0.945338328296524	-69.2085452228352	-9.9270465315465	1.53962540499866	-9.93654785268718	1.61160919535206	-0.963203442974458	-106.964691236426	
844720000	-0.944386637988061	-70.1454146272836	-9.91437720219073	0.633857438586024	-9.92907696071969	0.670419410225915	-0.965754467770337	-107.922181290687	
845240000	-0.938400783771317	-71.0820598790583	-9.9069103595575	-0.318119044811388	-9.92148856219396	-0.279736419872923	-0.965764893926318	-108.874709189728	
845760000	-0.940957869254651	-71.9822122130957	-9.91306200195922	-1.2579769477955	-9.91158161320553	-1.22810758616147	-0.971609541664598	-109.817956756715	
846280000	-0.944277603828316	-72.9154470875279	-9.9035407754116	-2.15828319746866	-9.90297424280626	-2.1893486916689	-0.973367031146915	-110.76812696255	
846800000	-0.947640711900781	-73.8377723572436	-9.89870042091659	-3.17188479545062	-9.90124552069524	-3.06204647199872	-0.971446099973675	-111.723741521395	
847320000	-0.94151256699052	-74.7674692843182	-9.88083160266119	-4.02345595507441	-9.89732514569709	-4.00792255999791	-0.971540956644981	-112.654304996745	
847840000	-0.942650703903103	-75.6737212038852	-9.87263387085086	-5.00080626822155	-9.89588078473309	-4.98900270478281	-0.9759067741685	-113.605044553438	
848360000	-0.942336014985133	-76.6101491774192	-9.87230392946878	-5.93988031051956	-9.88931058328732	-5.91613761516812	-0.971431576604999	-114.511085819699	
848880000	-0.94810442958987	-77.5254096442628	-9.86478470458525	-6.90890975870291	-9.88826732750788	-6.81614051275766	-0.975013218540761	-115.473143391822	
849400000	-0.950619137216525	-78.4221639907248	-9.86943163095684	-7.79468873651191	-9.87625620966832	-7.77252587071138	-0.97681615918392	-116.443029546699	
849920000	-0.94800672369952	-79.3415072183873	-9.86246839436527	-8.79770639509753	-9.86241546420598	-8.75352238199831	-0.977796741131894	-117.378105280336	
850440000	-0.95096975988085	-80.2816601285002	-9.8596606964623	-9.72600054375512	-9.84876513664609	-9.68928016551494	-0.982378436811627	-118.342284362789	
850960000	-0.953968911831362	-81.1995228060147	-9.84190992503107	-10.6488024779535	-9.87033805133925	-10.5715268430618	-0.98209233100977	-119.285207078128	
851480000	-0.951814291429008	-82.1172166709172	-9.83279976420514	-11.5760169888827	-9.84562084603755	-11.5154859796788	-0.985347621366111	-120.211204626013	
852000000	-0.950703446352508	-83.0505615110287	-9.82562053738097	-12.4804305646464	-9.84185696869284	-12.4433609454738	-0.986829289288424	-121.155125090695	
852520000	-0.961850909583598	-83.9435180597585	-9.83298978584773	-13.4255333956188	-9.83745695044665	-13.4081592889725	-0.989694719361744	-122.116333089549	
853040000	-0.955671542531699	-84.9111029705001	-9.81504858275566	-14.3908509269536	-9.82841019478909	-14.3191345103481	-0.986952320211392	-123.070059319759	
853560000	-0.957281775568067	-85.8088749979566	-9.81866067661895	-15.3652345519312	-9.82922143074246	-15.278770600519	-0.991306499622327	-124.017346275633	
854080000	-0.958941296844553	-86.7725530900071	-9.81245064433403	-16.2262555825441	-9.81980253366161	-16.2290279442412	-0.992393016809313	-124.945461626482	
854600000	-0.960981403591337	-87.6734093429553	-9.81125150970736	-17.2221546227983	-9.80928829317589	-17.182074107305	-0.991756207509968	-125.891744980687	
855120000	-0.961697638845338	-88.5584006713614	-9.79759245127005	-18.11217826701	-9.81006494309195	-18.0575811362521	-0.991937393548298	-126.845605912231	
855640000	-0.963724095456618	-89.4779190284075	-9.78870318658744	-19.0726705450138	-9.7914866482015	-19.0022470778265	-0.994628673119405	-127.800985001178	
856160000	-0.965668839328937	-90.4216650660423	-9.7918344215341	-19.9655446765131	-9.79310264705336	-20.0084127655158	-0.991899624610006	-128.769956574842	
856680000	-0.970948482688448	-91.3431859042616	-9.77128844370169	-20.9171348355133	-9.7913457794265	-20.9015997334982	-0.999339452085024	-129.674134040224	
857200000	-0.968850165444533	-92.2755013753146	-9.78155013471733	-21.8938528936707	-9.78954477586979	-21.8600705794662	-0.997531680063054	-130.655371652242	
857720000	-0.975415142980508	-93.2032141091687	-9.76889800680767	-22.8313234347623	-9.77674567969887	-22.7476821314268	-1.00429227305959	-131.59811993226	
858240000	-0.970127617589338	-94.1243200704756	-9.7619668952923	-23.7243294906985	-9.77340539988747	-23.7278974917024	-1.00165142422717	-132.55029436611	
858760000	-0.974908977567742	-95.0625671416754	-9.76119007316255	-24.7496974052734	-9.76027763494198	-24.6436003475991	-1.00242972220566	-133.509658437381	
859280000	-0.975982148773949	-95.9665889558056	-9.75724294703536	-25.7006465847635	-9.75703001855559	-25.6149479167305	-1.00751864807049	-134.451497522872	
859800000	-0.979649194983455	-96.8974804939801	-9.74519193908171	-26.5941225178687	-9.75391179102266	-26.5568890766342	-1.00997182752862	-135.411855995256	
860320000	-0.974410326495236	-97.8074759957107	-9.74132590462971	-27.5211833245009	-9.74815667543911	-27.5153308461742	-1.01008832770111	-136.356096564697	
860840000	-0.980451282660912	-98.7332409322073	-9.74096791480152	-28.4886791801332	-9.74514715493201	-28.3980336974513	-1.01059487824203	-137.309938062047	
861360000	-0.979321939001167	-99.6987687200914	-9.72915002885202	-29.4222769428209	-9.73761108571475	-29.3331636764925	-1.0126439171067	-138.236791412778	
861880000	-0.97993925232167	-100.585441093851	-9.71116540881475	-30.383746272139	-9.72957273151388	-30.3072418333853	-1.01656607385016	-139.201743202609	
862400000	-0.981573714699568	-101.555860161096	-9.71474168449923	-31.3239776763741	-9.71969639703942	-31.2762727526835	-1.01455505064044	-140.143901028245	
862920000	-0.983666863358528	-102.45149165202	-9.71180970383231	-32.2208999039667	-9.71972093953976	-32.2109226710719	-1.01862235259441	-141.110695359025	
863440000	-0.984430748637252	-103.393014350333	-9.70510687493699	-33.2329315282243	-9.71816314471261	-33.1289863648917	-1.01870885282523	-142.068399980893	
863960000	-0.990946442283628	-104.294594718406	-9.69403872692094	-34.1202424052263	-9.7032679881987	-34.126669683255	-1.01962974167204	-143.014566720784	
864480000	-0.990389409508892	-105.242292175552	-9.69423652775846	-35.0832640118823	-9.69612758479284	-34.9952176358796	-1.02371706691248	-143.968344137985	
