!Keysight Technologies N9923A: A.08.15
!Date: Friday, 16 February 2024 23:00:44
!Timezone: (GMT-05:00) Eastern Time (US & Canada)
!Model: N9923A
!Serial: MY52412730
!GPS Latitude: 
!GPS Longitude: 
!GPS TimeStamp: 0001-01-01 00:00:00Z
!GPS Seconds Since Last Read: 0
!CHECKSUM:1710827460
!Correction: S11(ON Q)S21(ON Q)S12(ON Q)S22(ON Q)
!S2P File: Measurements:S11,S21,S12,S22:
# Hz S DB R 50
800000000	-8.45554845742253	79.8714669435557	-38.4482729731937	-43.3172307667955	-37.9859088876062	-45.7266160858968	-13.4532531139477	-64.654310249753	
800520000	-8.47872652027149	78.2515628567496	-38.226679210246	-45.8234094939003	-38.073912825542	-46.6891558671537	-13.4093739937655	-66.3707558446823	
801040000	-8.48919520977315	76.5906788986085	-38.300830075936	-48.5910105962787	-38.0938743955572	-48.478372776341	-13.3746421976372	-68.1154568351834	
801560000	-8.51961869654271	75.0240012911689	-38.1155533512279	-50.0656456250445	-37.8762016882778	-50.8263213269495	-13.3578014124649	-69.8441676343051	
802080000	-8.54107711371926	73.4834862030222	-37.7801502088047	-52.5295009761171	-37.7577308861465	-53.4453101852787	-13.3547971372712	-71.5626179538699	
802600000	-8.56934991517547	71.906899883882	-37.7988531589775	-53.8955176139181	-37.7368370392331	-56.4220083170621	-13.3430661751918	-73.2136097450404	
803120000	-8.60389429140188	70.3632367322153	-37.8149917600196	-57.1272114982032	-37.61389238512	-57.8172915624052	-13.3526606967515	-74.7391410673343	
803640000	-8.62680255575258	68.8696259471761	-37.584854609545	-60.7315792597486	-37.5013784664574	-61.2081365104044	-13.3401104003288	-76.0881856286811	
804160000	-8.64386422544659	67.3638405004641	-37.4315344190581	-63.4084703697882	-37.560406371206	-63.522106924718	-13.33426716107	-77.6593771318047	
804680000	-8.66025190556464	65.8337851614812	-37.2636555603746	-65.6967622837622	-37.2269253451462	-66.8177391898646	-13.3151204287039	-79.2278260232533	
805200000	-8.66984371830943	64.2749494577301	-37.3009710275705	-69.4487119278711	-37.1115128728892	-70.3411776471331	-13.3027483371928	-80.8368368933955	
805720000	-8.68691741291651	62.737830378471	-37.1035602108727	-72.5593244738805	-37.2185554131848	-72.8112758221006	-13.3125613242659	-82.2555759756072	
806240000	-8.70015530627849	61.1555370982822	-37.1638508824878	-77.2934603426821	-37.1811918915403	-77.2063082586953	-13.2955481649519	-83.7782829113061	
806760000	-8.73498101703202	59.4926068664567	-37.2739747712546	-79.8594312248506	-37.1977008429286	-80.8077233047054	-13.2757895360629	-85.1299853963668	
807280000	-8.74738367845756	57.9016127134357	-37.4136391812707	-81.4533813999475	-37.3899967594579	-84.5139846025555	-13.2619527143993	-86.6218463150818	
807800000	-8.77592433119586	56.2276135743105	-37.5553999377103	-85.05936912066	-37.4838414678006	-86.7214966013227	-13.2481398765221	-88.0508840430613	
808320000	-8.79922355750042	54.6596434938545	-37.3388276345783	-86.9062080265619	-37.6853043352383	-88.1704245583874	-13.2449406630146	-89.6588831843278	
808840000	-8.83254028288034	53.0119519321397	-37.4369903307514	-90.0252230223427	-37.7627194333469	-90.5254134382871	-13.2069907458094	-90.9691124508226	
809360000	-8.87744259841305	51.4067296709747	-37.4578220494874	-91.9325526860488	-37.900554655148	-92.7869105984087	-13.1937943142241	-92.461471416251	
809880000	-8.91540109052868	49.8230303659761	-37.6557274994653	-94.0396947768047	-37.744927151901	-93.9369106922068	-13.1692281227733	-93.9356047477611	
810400000	-8.95169100748767	48.2268953740585	-37.5935003302711	-95.9503151069922	-37.6710022911724	-95.540607946424	-13.1750067279246	-95.4119403782025	
810920000	-8.99698369374167	46.7451032441586	-37.3744286315673	-97.8729446162662	-37.5919205023407	-97.7186325143387	-13.1498333524605	-96.8758277996363	
811440000	-9.02925297163293	45.1521225596852	-37.2727399218812	-101.031365023819	-37.2765622703215	-99.6831412795233	-13.1295968737053	-98.3516946704053	
811960000	-9.06658900464103	43.6339729591764	-37.0680130962203	-104.227932492221	-37.235086553032	-103.056240705715	-13.122824549636	-99.8094208137571	
812480000	-9.10796712599153	42.0903018732311	-37.0204633205222	-107.45830013119	-37.0401644690394	-106.48336791996	-13.095523597854	-101.250026139952	
813000000	-9.14099942303751	40.5207128992581	-36.9269210753296	-110.362050725921	-36.9062708802953	-110.011865278573	-13.0841753296806	-102.672780313085	
813520000	-9.17472140226839	39.0097937283127	-36.9695712083426	-112.843526678389	-36.9157305414482	-113.359208621044	-13.0593761796317	-104.293118040914	
814040000	-9.21928546118668	37.4788039521595	-36.7653445337996	-115.436175910492	-36.745886819259	-115.671942475128	-13.0388944626777	-105.747675432467	
814560000	-9.24579024520902	35.8965102924466	-36.6861208540904	-118.750585792754	-36.7085882999922	-118.173452437423	-13.0271909627337	-107.244148401601	
815080000	-9.2897374020385	34.3847608441319	-36.730540075855	-122.575019615974	-36.6937490940421	-122.215375142928	-13.0177552894761	-108.715416746572	
815600000	-9.32867291164579	32.8257699979033	-36.6740935119156	-126.533900265586	-36.6449321451688	-125.47150447797	-12.9954078453619	-110.309444926473	
816120000	-9.35477423959474	31.2325608883495	-36.7527895559517	-129.39615078451	-36.7384602133749	-129.17120060796	-12.9847782093629	-111.726254002994	
816640000	-9.39463971713293	29.7444776799711	-36.8731737637303	-132.367430432215	-36.8523844376727	-132.946549503997	-12.9682534329994	-113.309831765946	
817160000	-9.440917838905	28.1513988302602	-36.9324860818088	-136.16411367636	-36.999911895499	-136.581385207307	-12.9537718446978	-114.830888993054	
817680000	-9.47648627007821	26.6647026089484	-36.9865019041171	-139.65071294745	-37.0330158695255	-138.508078182992	-12.9552178280935	-116.273660235081	
818200000	-9.51366232076114	25.0278629167243	-37.2739565238577	-141.458613420969	-37.3411350042433	-140.483128890461	-12.9522139833734	-117.851863203804	
818720000	-9.55002256682158	23.4928619336356	-37.2765095272048	-143.313845281902	-37.4344112642218	-141.258078084368	-12.9510748898868	-119.320384551876	
819240000	-9.60256250844694	21.927852034181	-37.141181269464	-144.667607184529	-37.610565045786	-143.294679158442	-12.9366295302222	-120.695070892471	
819760000	-9.63185196149269	20.3107524255388	-37.1450688851675	-146.113045369261	-37.2079325055094	-145.188072498221	-12.9314244721179	-122.180229981171	
820280000	-9.69228783753885	18.6727810426113	-37.0115129132683	-149.258032045838	-36.9487776530035	-147.309083746058	-12.9157114226196	-123.593244736424	
820800000	-9.74737746576231	17.1195081988408	-36.8232214638897	-152.399210866887	-36.8241478026355	-150.894511930117	-12.9090904615434	-125.003178915534	
821320000	-9.81092108206219	15.6206979650768	-36.6666987536051	-155.899940565182	-36.701339155568	-153.706796737345	-12.8944213736438	-126.377050537252	
821840000	-9.85227260770234	14.0324879866868	-36.6650878901355	-159.466106654644	-36.6911712497617	-157.55896818353	-12.8734304383759	-127.824286107065	
822360000	-9.90987385716488	12.5641069148524	-36.5953637641015	-162.713635124631	-36.5282122897952	-161.723000005259	-12.8515060258823	-129.273962934948	
822880000	-9.96090877838865	11.0936328768827	-36.6143642976596	-166.18349583855	-36.6826575815624	-164.501452179629	-12.8406623503318	-130.735765686911	
823400000	-10.0150606300434	9.61018846665887	-36.6587812494493	-169.372505955095	-36.7064656497386	-167.651219625516	-12.8155529174543	-132.158751251805	
823920000	-10.0582791478389	8.13874410289011	-36.8270122732953	-172.155505769449	-36.7856090222279	-170.673490844084	-12.7955779506278	-133.661980836627	
824440000	-10.1006499177964	6.6562792388634	-36.8081076194733	-174.737961493023	-36.7582002584301	-173.520987110328	-12.7802352642012	-135.116474816103	
824960000	-10.1374657518592	5.0439453651332	-36.6467684863715	-177.964980202953	-36.7501418510518	-176.239389032845	-12.7611215543117	-136.738301277079	
825480000	-10.1823414343451	3.60317146228424	-36.6591966980487	179.192402122556	-36.7990584688767	-178.935951484063	-12.7410951614205	-138.121561449533	
826000000	-10.2291229398666	1.96110181611238	-36.6802869223951	176.69002569178	-36.6704954571064	177.769774480177	-12.7158495751998	-139.588818898393	
826520000	-10.2703911972183	0.411774143316672	-36.6857837233079	172.395268102153	-36.5556224154571	174.944737865505	-12.6947425498765	-141.08902696339	
827040000	-10.3256793745253	-1.20344363503591	-36.656980734925	169.437958493664	-36.6962965801949	171.489953240343	-12.6683590346586	-142.655142099903	
827560000	-10.3746796338077	-2.73795997092825	-36.7162343845802	165.646329951394	-36.7813634434059	168.550383429538	-12.6439911267374	-144.162210823557	
828080000	-10.4334070405815	-4.37773519797172	-36.9211102765332	163.633131289911	-36.702052576466	165.756987890433	-12.624416124826	-145.765037108093	
828600000	-10.4938935526699	-5.93048074406644	-36.8500745771328	161.124807953966	-36.686310494861	163.112673980778	-12.6040599482711	-147.348928208907	
829120000	-10.562541777371	-7.42980136507737	-36.9234197922181	157.157100284719	-36.723181564827	160.086454141608	-12.5968770044578	-148.896281379804	
829640000	-10.6234322735909	-9.08732183220308	-36.8058822513999	153.478168482711	-36.7095971501734	156.599711000899	-12.6095665333091	-150.481311192483	
830160000	-10.6950144046818	-10.6817434687685	-36.9853300355836	151.663806061247	-36.6364274353821	153.805591618988	-12.5865464482976	-152.054380008487	
830680000	-10.7572356070389	-12.1616320598773	-36.9213267213231	147.561636626484	-36.7397997872144	150.747430106744	-12.5814601283453	-153.550984214362	
831200000	-10.8229865704173	-13.7286957817294	-36.9282819578221	144.377542984185	-36.7903447077885	147.209948942795	-12.5739960306112	-155.041776729518	
831720000	-10.9044299026901	-15.3473754573276	-37.1352721390803	141.092015012779	-36.8241084996144	143.447936326449	-12.5755441159408	-156.465026674689	
832240000	-10.9844171313876	-16.7605158856502	-37.1626854443406	136.897760838131	-36.750084324356	139.772812645451	-12.5414281641858	-158.050346101017	
832760000	-11.0431441728701	-18.2658982758557	-37.4141572439881	134.655262219354	-36.8948424975928	137.471682754199	-12.5396843985455	-159.51248131664	
833280000	-11.1150320526223	-19.7770601690937	-37.1695497922973	131.879003979047	-37.0959208743876	134.402616586169	-12.5214949007959	-161.098915619868	
833800000	-11.1789747221595	-21.248206954198	-37.3799606703634	129.179857969457	-37.0373622159556	131.089827653213	-12.5165221876059	-162.606861889747	
834320000	-11.2669710915712	-22.7690538144466	-37.4599291684477	126.228342114812	-37.1659205904704	128.051441230565	-12.5002911746246	-164.162255666909	
834840000	-11.3420876553111	-24.2376031970866	-37.448439616765	123.335882081598	-37.1654637652782	124.880701570844	-12.4921048905865	-165.745110226984	
835360000	-11.4132342293572	-25.6861187708373	-37.6118148160252	120.471237616431	-37.2284566425728	121.296447101254	-12.4966437301252	-167.239049605675	
835880000	-11.5064045453265	-27.1183397654792	-37.7118411309274	117.428851222591	-37.4315654962056	118.202730941884	-12.4767814273879	-168.711602591477	
836400000	-11.5697855704041	-28.6154943056802	-37.7107759287572	114.928928363055	-37.5119688602462	115.782479551024	-12.4634843099997	-170.288248047304	
836920000	-11.6382378846925	-29.9721996818216	-37.7857688703806	111.69971431491	-37.5956870762293	113.959172768831	-12.4720120337682	-171.80014019131	
837440000	-11.707371083543	-31.4419071999951	-37.7823644893385	108.34708431741	-37.5558018038092	110.348773187569	-12.4531538831807	-173.372427514324	
837960000	-11.772224102566	-33.007740006269	-37.9053116679392	105.485095428111	-37.5610480124418	107.216229794442	-12.4405684837803	-174.8690861544	
838480000	-11.8277805058905	-34.4386271063592	-37.9411525149881	101.89895737793	-37.6492717655167	103.891926436743	-12.4224607614518	-176.294453887193	
839000000	-11.9025681407173	-36.1402500807501	-38.0733694961269	98.8131794901937	-37.7609388133987	101.264847405242	-12.4138166792597	-177.776814332922	
839520000	-11.9967673070877	-37.650400624604	-38.1291914460092	96.4405266793908	-37.8404688967644	98.5408245416491	-12.403837680962	-179.342489351592	
840040000	-12.0874526723373	-39.3008385534407	-38.3019906350747	93.2640244042455	-37.9483771451409	95.3165324349364	-12.3784038936125	179.096794256165	
840560000	-12.168208475107	-40.8138704941406	-38.3089910345254	90.1994980697016	-38.1495394189529	91.9038121568113	-12.3587241841104	177.526782265856	
841080000	-12.2723833711261	-42.2240706545134	-38.4133546825573	86.9202695654782	-38.1617661556958	89.3582586399805	-12.3579874811836	175.872031980508	
841600000	-12.3569042763332	-43.663627512446	-38.759277971209	84.6441802086513	-38.3803088295502	87.4488763441354	-12.3399639508307	174.356275169961	
842120000	-12.4624646455395	-45.1331197492119	-39.0478720074805	81.3996063284618	-38.5740498823897	84.3668238595026	-12.3397600907137	172.847191864204	
842640000	-12.5665972622076	-46.6589731508756	-38.9901602608332	79.7764533479114	-38.6817044127181	82.0802502307968	-12.3400854771735	171.292187699989	
843160000	-12.6550931564619	-48.0964848719114	-39.1941124155437	76.8257500184943	-38.7710877435053	81.6047115705069	-12.3391113400563	169.822413239287	
843680000	-12.7472441698089	-49.4646721722784	-39.1337328503791	74.8277338856912	-38.8382575753572	79.4905193441141	-12.3361056583176	168.22111035893	
844200000	-12.859333236406	-50.8563200937577	-39.2818587326223	73.3819472594626	-38.7798899829485	76.065834090778	-12.3390422307331	166.724745168697	
844720000	-12.9513848547193	-52.3314019759913	-39.2769555054381	71.3806902417144	-38.8492959953266	74.705584055527	-12.3312138862141	165.163317576378	
845240000	-13.0433872502904	-53.6323345520509	-39.4846349617015	68.902875750781	-38.653281938953	71.4728521016232	-12.3080194961993	163.776199206452	
845760000	-13.1419369156187	-55.0330418009818	-39.4017842789056	65.9664059154782	-38.573096971055	68.0807243184795	-12.3139261042661	162.302449080805	
846280000	-13.2427685204313	-56.4482401124432	-39.4352679781109	63.5191516296546	-38.7562299842578	65.4861950660849	-12.3103082069624	160.81007835026	
846800000	-13.3351655571519	-57.8732574627438	-39.5108759741394	61.4477261598822	-38.725105428425	62.9664246755236	-12.2933592959616	159.304533775197	
847320000	-13.4139507816982	-59.1616825513127	-39.5489519613185	59.1460665855782	-38.6237342948173	60.4417776125415	-12.2890454930831	157.858933703397	
847840000	-13.5085089711749	-60.6023367335497	-39.5658385944606	56.63692788472	-38.6236955759019	57.08902023436	-12.2705635053372	156.432190432638	
848360000	-13.5928795918391	-61.8831205587842	-39.6136155163545	52.6986984974683	-38.7676232881584	53.7782414879525	-12.2426309685678	154.97869363607	
848880000	-13.6973465243199	-63.2902237180719	-39.5495542999832	51.2960258229377	-38.6903335755096	51.417446019644	-12.2446723294291	153.41189216483	
849400000	-13.7943237056194	-64.6268914783047	-39.6716379529428	48.737694585111	-38.7106979014663	48.2253083826655	-12.2268611030863	151.825696537837	
849920000	-13.8534734120071	-66.1190035753848	-39.6447899184514	44.8644688173991	-38.8499984853148	45.877861058467	-12.2075530611506	150.29417225107	
850440000	-13.9648155283766	-67.5816141747388	-39.6434250482972	43.1254197008363	-38.9497423231084	42.2470729302484	-12.2017035471996	148.677541284806	
850960000	-14.0745286907905	-69.0280692175372	-39.7454654862092	40.5786692882333	-39.0026499612142	38.0558670511852	-12.1858914105825	147.140413321707	
851480000	-14.1523593236757	-70.3956986705595	-39.6242117507039	37.2546538484229	-38.9546104492059	34.4184208803543	-12.1739474474415	145.541421194259	
852000000	-14.2573947098345	-71.9200450770789	-39.7606348213007	34.4793335901941	-38.9689420741485	33.8076836881147	-12.1592430583357	144.120496137815	
852520000	-14.3414904406144	-73.350435470255	-39.7673336456244	31.16944165469	-38.8461360533428	29.2165073414416	-12.1589258203556	142.567246972137	
853040000	-14.4595339577404	-74.9535336675938	-40.0286946229594	27.5918925502737	-39.0245519346142	25.2580253508937	-12.1493303276703	141.112976215057	
853560000	-14.5601705187866	-76.4485923294392	-40.0361117416844	24.1212517063255	-39.2875044192496	22.2895237089749	-12.1336418358075	139.642986429207	
854080000	-14.664680294657	-78.0865722746655	-40.1517179087687	21.0723276146974	-39.3977810992218	19.617068076768	-12.1281103784755	138.136990733567	
854600000	-14.7859918082526	-79.478483964831	-40.4620767023433	18.2763930075946	-39.4773145114608	15.7984783624003	-12.1203654900744	136.733504387272	
855120000	-14.8974572708782	-80.9390676321013	-40.5146389138785	17.3966553077955	-39.7859542193507	13.4900314075498	-12.1160734411644	135.111162153835	
855640000	-15.0119934854816	-82.3156538715451	-40.8265471307945	15.9984703077966	-40.1030734111559	12.0422540983137	-12.0803636120309	133.672376478349	
856160000	-15.1248901490649	-84.0352267957762	-40.7835536884247	11.7347898324581	-40.1334982588356	8.169174077755	-12.0661820765803	132.179294974084	
856680000	-15.2584328667719	-85.4740314208716	-40.6474919561975	10.6743019970634	-40.2308783849446	5.5230748472035	-12.0524559488231	130.638868744649	
857200000	-15.3653841507506	-87.1290325463456	-40.740247647048	7.44711408122373	-40.4972414865136	1.97919451887823	-12.0332942096221	129.120597054465	
857720000	-15.5167125825613	-88.491289458041	-40.829452157842	7.86667510099857	-40.5677215795036	1.09808296013424	-12.0298777015054	127.560281457844	
858240000	-15.6235377689094	-90.1350015774122	-40.9360676754795	2.61623621286924	-40.7524820775476	-1.4319723869576	-12.0135400984832	126.0397689579	
858760000	-15.7626928753934	-91.7758631432036	-40.8314428575075	2.27415076850229	-40.9353312755082	-3.73972530690752	-12.0080804486205	124.566956990706	
859280000	-15.9109241593529	-93.262920085071	-40.8453956695272	-1.8180864501935	-40.8177299378128	-6.48500307953424	-12.0124484980887	122.983069484724	
859800000	-16.0274290569251	-94.9831099068088	-40.8496674757459	-3.73954868695276	-41.1096116659743	-7.3016790943781	-11.982424438416	121.521623098604	
860320000	-16.1590409010366	-96.5590577709854	-40.9980994209901	-8.24246535531591	-41.3452719476121	-9.66000911347682	-11.9640564796695	119.973331387864	
860840000	-16.3542315232624	-98.0980211067003	-40.9526341521597	-9.16970260777724	-41.1262057090165	-13.0923695512771	-11.9662304688715	118.492501344632	
861360000	-16.4975111432322	-100.022263716464	-41.2288470144548	-15.1330169392937	-41.2521973691508	-15.2339792307261	-11.934584607102	117.116095825423	
861880000	-16.6990332027	-101.534100953113	-41.2760598566484	-17.9091999164546	-41.620982995784	-19.4062291001577	-11.929773295684	115.602310437454	
862400000	-16.8948604953663	-103.324393399344	-41.262279513274	-19.6733656426883	-41.4969511533465	-20.3760155708783	-11.9186004619146	114.137072102907	
862920000	-17.1203836005154	-104.764130979022	-41.434661868889	-22.3051851133188	-41.5597721024355	-23.8666616182114	-11.8897901361311	112.634330206104	
863440000	-17.326466314165	-106.160243446218	-41.4572382339805	-23.1565479253118	-41.8403212787404	-25.24523475563	-11.8704513030643	111.269301044379	
863960000	-17.530645830083	-107.485808712571	-41.4218369953557	-26.8252244227566	-41.6789791033929	-26.8397458299699	-11.8459140555917	109.771842743631	
864480000	-17.7340483205123	-108.838554290871	-41.3953131967605	-29.9691206021659	-41.706816429382	-28.8782744824864	-11.8268360937918	108.173953431189	
865000000	-17.9387970181449	-110.310044542233	-41.5790915052832	-34.3014247129042	-41.7181746661244	-32.1841112007096	-11.8079701223824	106.751475109087	
865520000	-18.1563888397603	-111.557017412049	-41.4064573100714	-35.2774470177693	-41.5704663020905	-35.2578518096916	-11.7722287951874	105.234793929656	
