!Keysight Technologies N9923A: A.08.15
!Date: Friday, 16 February 2024 23:06:20
!Timezone: (GMT-05:00) Eastern Time (US & Canada)
!Model: N9923A
!Serial: MY52412730
!GPS Latitude: 
!GPS Longitude: 
!GPS TimeStamp: 0001-01-01 00:00:00Z
!GPS Seconds Since Last Read: 0
!CHECKSUM:2046778837
!Correction: S11(ON Q)S21(ON Q)S12(ON Q)S22(ON Q)
!S2P File: Measurements:S11,S21,S12,S22:
# Hz S DB R 50
800000000	-7.55404190497424	85.0241145544791	-37.6681585887624	-46.6973784393882	-37.5856201962252	-45.9260110834273	-13.3683476277815	-64.3904999685209	
800520000	-7.5607196263984	83.4188680235389	-37.7080815490775	-48.1495816550589	-37.5675655212742	-47.935230597416	-13.3167215840447	-66.1664827146962	
801040000	-7.57331936564621	81.8119037854482	-37.6302428283471	-50.8028647468147	-37.5711411822467	-51.2971755832941	-13.2937565062133	-67.9590630352517	
801560000	-7.58937238237616	80.2693562140577	-37.5647286550117	-54.0920549431845	-37.6231026869844	-53.5571830256755	-13.2643418648228	-69.7973437570203	
802080000	-7.59779886443306	78.7041600642122	-37.6731542716848	-56.2904226684595	-37.4698038251408	-56.5600550475071	-13.2609401851563	-71.4538102555754	
802600000	-7.61752030248387	77.1027577867886	-37.5635917947933	-59.655499049864	-37.4045871556647	-59.5961743522179	-13.2453759131515	-73.1480983092374	
803120000	-7.63370076027276	75.5486921101871	-37.6199104264437	-61.6910079233248	-37.4669207476058	-61.9680758412394	-13.2604556661024	-74.7034523436483	
803640000	-7.66455038442049	74.0477873505986	-37.5485957132014	-64.3089715375822	-37.4215093503392	-65.5563933911861	-13.2548356681657	-76.2168397305846	
804160000	-7.67298084829345	72.5286108138759	-37.6007989926451	-67.2517037158411	-37.3180382534698	-67.4971923779658	-13.2541327087261	-77.9316991348819	
804680000	-7.67477292892645	70.9885768897765	-37.6474043809731	-69.3080655450276	-37.3469906713736	-70.33539526162	-13.2453047367407	-79.4205366806632	
805200000	-7.68301396339926	69.4480409065137	-37.4405885454576	-71.9722774302118	-37.213529534098	-73.7134777380691	-13.2449138998888	-80.8888278968921	
805720000	-7.69831105005497	67.854620777018	-37.3305058935279	-75.5610903422486	-37.1633498568132	-76.9042168529836	-13.2663242990522	-82.4345107753331	
806240000	-7.71478154298848	66.2263384075824	-37.3624630045886	-79.1560355419268	-37.2937460052359	-81.7034142241956	-13.2512497826636	-83.9052708506692	
806760000	-7.73346018837517	64.6256253205262	-37.3492105133353	-82.1577817739705	-37.2791527154863	-84.0734108886831	-13.2499726316946	-85.2621909919366	
807280000	-7.74813146406477	62.9977386361857	-37.5032113412325	-85.2196575923423	-37.4592229192425	-88.6209420322867	-13.2349632658472	-86.5846925169446	
807800000	-7.77826153340708	61.4096976968493	-37.7243176473325	-88.7104437716303	-37.7483814261638	-90.9651925529357	-13.2176113973221	-88.1106236625424	
808320000	-7.79502079315651	59.8219018891959	-37.7509609007143	-90.0499400654134	-37.8171504716065	-93.0159673791616	-13.204698680297	-89.5132695958997	
808840000	-7.82843253975771	58.1565734909347	-37.9407948002871	-91.9733523424865	-37.9978426358501	-95.227044699635	-13.1823098694379	-90.932626356694	
809360000	-7.85271991304243	56.5319654901596	-37.8753032666227	-94.969138302802	-38.0538854543129	-96.9713021928776	-13.1554137735385	-92.34830839367	
809880000	-7.89422149252507	54.9604388881387	-38.0489272739993	-96.751128455712	-38.1719691989054	-97.8270141521112	-13.1330794424332	-93.8977046649343	
810400000	-7.92534783926811	53.4070014629794	-37.9193552872923	-97.5370297474121	-38.0393162198691	-98.8202689918144	-13.1270626232528	-95.4082700110771	
810920000	-7.96278819059907	51.8799813887957	-37.6624770803963	-100.115711531532	-37.9156483493452	-101.780677357299	-13.0949356240436	-96.8695133032949	
811440000	-7.99186627470665	50.3509020582851	-37.5312149752384	-103.501306226308	-37.6531507575337	-104.181442195283	-13.0737971575022	-98.3009576420953	
811960000	-8.03818606926652	48.8504976403828	-37.4999479917104	-106.496266004971	-37.7911763501545	-107.360905881995	-13.0695562850607	-99.7305179435528	
812480000	-8.06277585670778	47.3515558469039	-37.6341793377205	-110.811033471746	-37.5104905077457	-110.790620875807	-13.0522643890068	-101.302854247063	
813000000	-8.08844217620476	45.8701572253735	-37.6178613396587	-113.867571461053	-37.7136643509717	-112.96219999428	-13.0295065867702	-102.693649541541	
813520000	-8.11216471476005	44.3918598120023	-37.7519522080811	-115.889543034671	-37.626149088201	-116.018893102951	-13.0059111852019	-104.312500070297	
814040000	-8.13692968812861	42.8256256553498	-37.5535569194474	-117.626803741743	-37.6300072822006	-118.350774612115	-12.9893136001887	-105.834020084539	
814560000	-8.16683626234428	41.2287161033375	-37.6039200369947	-120.897732702881	-37.6478356900252	-120.388428651617	-12.9755338753346	-107.420057467459	
815080000	-8.19212220841058	39.7335296653844	-37.6438030036765	-122.77965322633	-37.6179590302583	-123.909705091866	-12.9630977166123	-108.871330144063	
815600000	-8.21669821407428	38.2070003479238	-37.7402271708822	-126.672691878677	-37.5782257513965	-126.0288152951	-12.9542101013567	-110.417141857892	
816120000	-8.23976350378108	36.5755256917657	-37.572084620453	-129.534283928329	-37.4568965261811	-128.972648382615	-12.9598997693789	-111.871550336266	
816640000	-8.25965334191364	35.0667688913936	-37.6382749754863	-133.310528735356	-37.4454380120868	-133.738593961508	-12.9341197539938	-113.392382006753	
817160000	-8.29770872173453	33.4068140440763	-37.6608942058067	-136.624832256471	-37.5622918619541	-136.205592673579	-12.9242953358055	-114.8941897653	
817680000	-8.32455463880376	31.8747818216429	-37.8394442698451	-138.955809448626	-37.7655597920715	-139.88110391442	-12.9224663073314	-116.392805809425	
818200000	-8.35188645431918	30.210057017972	-38.07902801209	-142.00973811747	-37.9129357445285	-142.308503445407	-12.9219394034983	-117.937276222879	
818720000	-8.38296793536572	28.6147229240084	-38.1639330354819	-143.145347742782	-38.0588759840407	-142.587697258577	-12.915656652091	-119.384011547531	
819240000	-8.42754541947222	27.0579057824661	-38.070102429728	-143.720277743213	-37.9769491754152	-144.992119059091	-12.9128673239199	-120.872378264011	
819760000	-8.45717353442468	25.3799614874701	-38.0230554413554	-144.672431503133	-38.1202443056145	-146.899175957855	-12.9066981693981	-122.228471094548	
820280000	-8.50729967569999	23.7195889766978	-37.8380892839079	-147.598286445274	-37.7888300978104	-147.095716160175	-12.8972432881458	-123.700317760896	
820800000	-8.56064718606272	22.1106863169192	-37.6173212289588	-149.88679940813	-37.5867006481969	-150.24312520498	-12.8953826552852	-125.099340247707	
821320000	-8.62597475231495	20.6035688529963	-37.3533403896901	-153.340762096713	-37.3328569384465	-154.566116602031	-12.8678626014656	-126.384005618062	
821840000	-8.66844830431299	19.0515024789312	-37.4842387459443	-157.408752479397	-37.3491570828685	-157.296521250133	-12.8534876863535	-127.866832147988	
822360000	-8.73643069228496	17.536993664302	-37.3159074187578	-161.615927557219	-37.2109400122014	-161.158342510593	-12.8335262961051	-129.293907520593	
822880000	-8.77553186781326	16.1403898697543	-37.4657463192418	-164.645081545422	-37.4810568070055	-165.435030122133	-12.8247714744106	-130.730360887316	
823400000	-8.82214299418466	14.6722997661838	-37.4925280034807	-167.248628960088	-37.3410665084396	-167.743593772203	-12.7979968785714	-132.141986574502	
823920000	-8.85857141937396	13.2216859909422	-37.7096618349513	-170.006591689573	-37.4603211953965	-171.130274773341	-12.7918504093186	-133.648243188698	
824440000	-8.90217429577068	11.7381393558382	-37.484711802647	-173.338207244798	-37.3581776744826	-173.671745057619	-12.7583334192872	-135.093445949543	
824960000	-8.93199027113567	10.1530282139527	-37.4227187867999	-175.314018100398	-37.3576254116229	-175.985191669538	-12.7438060002954	-136.665463930745	
825480000	-8.97576457040935	8.64977814777856	-37.476755553099	-179.261559874949	-37.3005779037374	-179.041525441135	-12.7324674417468	-138.036077749566	
826000000	-8.99845963906471	7.02627069832959	-37.4712461370815	178.175625678097	-37.1613566984112	177.637889206009	-12.7105126692398	-139.481040786966	
826520000	-9.04426745296317	5.48558003110329	-37.447011100654	174.995095708577	-37.1198669769395	174.723463016585	-12.6786122847246	-141.008859930306	
827040000	-9.1071207233566	3.83964877378392	-37.5096800427936	171.797232568255	-37.238189654757	170.574217428927	-12.6654423051312	-142.449856529295	
827560000	-9.13700736662256	2.32717440774298	-37.5769447710748	168.467000894761	-37.1902121574562	167.653441833101	-12.6408879045356	-143.996642029881	
828080000	-9.18696940617407	0.659551285088778	-37.4824388931067	165.534469403096	-37.3892029317511	164.120010492301	-12.6155998479719	-145.598856376993	
828600000	-9.24327170855839	-0.837078406874053	-37.5752875271755	162.798871115246	-37.4372841207251	160.599521687012	-12.5969237226948	-147.037980748008	
829120000	-9.30481261123187	-2.39508971453879	-37.6666659553471	158.931489501371	-37.3371644441769	158.108065689319	-12.5875308634912	-148.560777942252	
829640000	-9.35915469273807	-4.02253677658909	-37.7624119762872	155.574491068617	-37.3789370023382	154.987930107116	-12.5836679914048	-150.136554887834	
830160000	-9.42278851970963	-5.57319544445993	-37.5934442529442	152.71164896109	-37.5031355389097	150.948941934634	-12.5606655558453	-151.614333789087	
830680000	-9.48783757553105	-7.12438067048531	-37.5978110610769	150.325763493228	-37.4624536947883	147.640771576767	-12.5440369211667	-153.032575822937	
831200000	-9.55008474337703	-8.67183060900498	-37.8393917191696	145.477622990786	-37.527774329656	144.262252411549	-12.5188853904919	-154.51922979129	
831720000	-9.61021185189745	-10.2756360512264	-37.8560196550953	143.001508728611	-37.5701902115098	140.612573151769	-12.5048346916451	-155.96599940992	
832240000	-9.68234805510723	-11.7278300794599	-38.0040724188566	140.542406093721	-37.7359550486438	138.572635938173	-12.4632377982282	-157.643858605923	
832760000	-9.74765012131313	-13.2314928107922	-37.9551138208493	136.947684551307	-37.8654787180844	135.948131107897	-12.4570546766387	-159.106437463784	
833280000	-9.80410573623215	-14.6354204478573	-38.1189271412493	134.563138438008	-37.9680650883242	132.056446165914	-12.4456051317779	-160.713463269245	
833800000	-9.86483102892751	-16.1803480274059	-38.2228957768966	130.786114799923	-38.1011973232928	129.337556792109	-12.43342564786	-162.238483768099	
834320000	-9.94422100946936	-17.7147002808997	-38.3892714871068	128.332103495318	-38.0371789669594	126.276905037339	-12.4240665622594	-163.816645286947	
834840000	-10.0229310391104	-19.1790849941726	-38.5320278831278	124.772142931472	-38.2285860874769	122.690307883133	-12.3982395955653	-165.308995904159	
835360000	-10.0849635935391	-20.6230240360753	-38.5251587117551	122.30814488516	-38.446480642294	119.64564066768	-12.4029056280416	-166.818803089428	
835880000	-10.1584669601519	-22.0458384926948	-38.9587611210987	119.595861385589	-38.660578629452	116.98220965946	-12.3787529228273	-168.389588381528	
836400000	-10.2188558050056	-23.5351077972283	-38.8731299447114	116.4249792687	-38.866379405082	114.353537699938	-12.3678359994095	-169.943875487311	
836920000	-10.2899989043275	-24.924786033712	-39.1680323289033	114.406067787395	-38.9208279587573	113.259563541185	-12.3629528547773	-171.47645568709	
837440000	-10.3513747396428	-26.4002247209335	-39.1131590531453	111.860136148523	-38.9220523500179	109.599122209941	-12.3322289684423	-173.018902387268	
837960000	-10.4239734714308	-27.8727502286167	-39.1514557620913	111.018030410206	-39.0522523627783	107.176437084629	-12.323511027118	-174.500488924526	
838480000	-10.4731484029847	-29.4073286557234	-39.3857924891473	106.496245722986	-39.117685595898	104.023768044577	-12.3047082791002	-175.937758222569	
839000000	-10.5503767149155	-30.8688043079318	-39.2965146259003	103.040672359401	-39.3401884468153	99.9186798650774	-12.2830811411426	-177.527748422836	
839520000	-10.6221427831752	-32.3819062766361	-39.4565429575069	99.7993128751791	-39.3055126745616	98.7727453233045	-12.2737982891386	-179.123714440754	
840040000	-10.7032510848798	-33.8990222279097	-39.3760282034689	99.144913657044	-39.4859187571069	95.9767180343707	-12.2506895637896	179.301942925427	
840560000	-10.7771082817928	-35.4497865652942	-39.5922327572335	96.6931834711225	-39.5509480113074	92.3966163405638	-12.2286677371619	177.758753355697	
841080000	-10.8690761878225	-36.8737495544879	-39.5837033958609	92.5493377615233	-39.7705490245351	91.2656443061472	-12.2228975615968	176.083120571276	
841600000	-10.9494971405673	-38.244538239313	-39.8410500922582	91.1540284849216	-40.0573428919274	87.9651010271362	-12.2053222131033	174.568301961559	
842120000	-11.0362815099553	-39.6746700917215	-40.0730327107995	89.4699061621921	-40.255766109018	87.0734384811451	-12.2018961823931	172.9702273475	
842640000	-11.1398444619601	-41.1471788440232	-40.1663577805775	87.0278591245757	-40.2242419425282	85.5839597799035	-12.2091135346999	171.430535409527	
843160000	-11.2058961890373	-42.4991825026895	-40.3513784715102	85.1193623720827	-40.5512457189875	83.9576730617111	-12.2051303835906	169.834662222755	
843680000	-11.2991154879634	-43.8622258499124	-40.5591631086888	83.0855797790281	-40.5272069150146	81.9860920774116	-12.1990883720073	168.308236191842	
844200000	-11.3832541134383	-45.2347241759939	-40.3279630339881	80.1162158696643	-40.2740856172592	79.5856434142593	-12.2038537129523	166.735604638307	
844720000	-11.4782891489428	-46.5926218665522	-40.3927621274954	79.6218866848762	-40.4585778959599	77.5364908256687	-12.1961127450756	165.190076464293	
845240000	-11.5485734202231	-47.8737494728993	-40.2707202059819	76.2995670977357	-40.1642693115166	75.6074663636926	-12.1802507901059	163.786466732281	
845760000	-11.6322353356205	-49.2672255222861	-40.3634281825757	74.8040783941338	-40.1996029163698	71.6835402464546	-12.1843670007836	162.27168660908	
846280000	-11.7351344038765	-50.6019364222336	-40.6211539124783	71.3305734079946	-40.2116508551865	70.0832174715729	-12.1909013479425	160.817916457928	
846800000	-11.8207624837768	-52.0059921222119	-40.7345329255321	68.3957381161637	-40.3258753137632	67.2254390070613	-12.1765377716368	159.311710281527	
847320000	-11.887315478697	-53.2328174320921	-40.8453644592124	67.0232004330618	-40.3354400947954	65.6045027507109	-12.159906117788	157.853808656835	
847840000	-11.967206426101	-54.5387564876089	-40.8835981878021	64.1972622529381	-40.3122149251001	63.3781488815211	-12.1364582100636	156.427494705248	
848360000	-12.0416517709891	-55.7958121156284	-40.800161574914	63.000947944222	-40.5067786685666	60.305838200904	-12.1225657832148	155.000485542638	
848880000	-12.1223422642744	-57.0832079119337	-40.8793950211173	61.4881169853801	-40.4543414182128	57.813142358222	-12.107401821183	153.407546818631	
849400000	-12.1963861533606	-58.302794892291	-40.604729662242	57.4165136391433	-40.3919362372501	53.9828890651379	-12.0842155802172	151.827401873847	
849920000	-12.2620295017661	-59.6667593679611	-40.6530287725379	56.4646372165171	-40.41159621861	52.8882657168448	-12.0778934852521	150.244248673971	
850440000	-12.335706999223	-60.9953498625232	-40.8181195876634	53.6729512555802	-40.6590016345338	49.8350090992802	-12.0572648403634	148.619826126609	
850960000	-12.4153968134258	-62.2127540753909	-40.7317943389	52.0900256725887	-40.5542006633914	47.9722663173297	-12.049623340224	147.075410381741	
851480000	-12.4709237390844	-63.5871481549953	-40.65027128081	49.7775009774432	-40.6812180993259	45.2656720193184	-12.0496352294484	145.551031436797	
852000000	-12.5471442161057	-64.9105212555052	-40.4114228611269	48.1152557253027	-40.3973824219971	42.9149733219797	-12.0298011011247	144.043779170852	
852520000	-12.6096973144119	-66.3024790479041	-40.410930762519	45.6618259127441	-40.6235804649437	38.5893769592956	-12.0246685663113	142.438979676008	
853040000	-12.6819734722346	-67.8072839710218	-40.4739936763666	40.1178074776968	-40.4394531033144	35.0867635076202	-12.0111862812802	141.053745177063	
853560000	-12.7625135394103	-69.1934338573172	-40.5819136930468	36.2599644937478	-40.4916564967343	32.1832905821771	-12.0088181516518	139.533568837153	
854080000	-12.8297774268593	-70.7599868284305	-40.4691669161102	36.2018402357955	-40.7215261836831	28.4582348234674	-11.9909237445464	138.06136090702	
854600000	-12.9174835341189	-72.0988478676486	-40.745542289292	31.2385052227672	-40.9038597978485	27.31463960841	-11.9789963988615	136.543292073388	
855120000	-12.9922542334132	-73.473400161963	-40.6507160760908	28.0775029811269	-40.8194504522023	24.1041422303323	-11.965494171612	134.931893963652	
855640000	-13.0698072460167	-74.89268090188	-40.6044538420965	26.1899538954634	-41.1151746120559	21.7450980109645	-11.9371993776008	133.503838580416	
856160000	-13.151728308468	-76.4988731083657	-40.6984644129526	23.3176259418186	-41.0850331887624	19.5687862905603	-11.9211214644318	132.014517215583	
856680000	-13.2409110423766	-77.8980147325416	-40.785226062932	19.7752002516775	-41.1717637138537	16.6211393605512	-11.9166653465878	130.408679695544	
857200000	-13.326971317458	-79.4960894906496	-40.8272128479999	16.6493011724053	-41.3302796912472	12.7735878982994	-11.9004711953897	128.92215385662	
857720000	-13.4335972745404	-80.8594640543093	-40.8384864842679	14.4600476481043	-41.4096069060442	9.66249916925156	-11.8934327852002	127.340512375251	
858240000	-13.5343603710374	-82.3471649383057	-41.1306917652623	11.6727061249074	-41.3907946247545	6.89298011105628	-11.8789591219662	125.761819366805	
858760000	-13.6259580063466	-83.8632420054794	-41.171913366285	10.6730393510861	-41.5112628238809	5.19862585506837	-11.8710282479458	124.325906182028	
859280000	-13.7392639477826	-85.2880545090309	-41.4196678737772	5.63001738163752	-41.5560716896647	3.272165460108	-11.8635390605542	122.697091010689	
859800000	-13.8256906171305	-86.7902190597144	-41.2902537459731	5.77201442146255	-41.4346408059995	-0.618242172973279	-11.8536757099139	121.19695119847	
860320000	-13.9255648699219	-88.1964925857453	-41.3233767944494	2.82340412179138	-41.6860026469617	-3.57928999335491	-11.8337116824685	119.635858550829	
860840000	-14.0445998058985	-89.6686527404698	-41.497676639204	-2.62719409032502	-42.0196567239965	-5.12388246551918	-11.8402648912764	118.160265677979	
861360000	-14.1595338235022	-91.3319710020435	-41.5640816369651	-4.14082941800953	-41.9716583673777	-9.33839048542839	-11.8212009992191	116.661956189616	
861880000	-14.2807991752903	-92.8032657366852	-41.3552700960948	-6.90065557845299	-42.2278503471105	-13.0330870483186	-11.8143112439398	115.185734178814	
862400000	-14.4157019162751	-94.3235708281135	-41.8173339071176	-10.9113870670598	-42.390392868899	-14.9323251912028	-11.8150489545894	113.668329960388	
862920000	-14.5664142455783	-95.7930826062921	-42.2118012576608	-12.6941784336397	-42.8112920728454	-17.0063206624225	-11.7933564048679	112.279512968507	
863440000	-14.7042902404923	-97.1434614086028	-42.2663174117138	-13.6754912434745	-43.0402313069443	-17.8377698192794	-11.7821286901895	110.876891098154	
863960000	-14.8494634035369	-98.414929912716	-42.290318612945	-15.6755777970241	-43.0825475124996	-18.7343451915657	-11.7636975628803	109.420690224251	
864480000	-14.9876705224143	-99.6908671610444	-42.3680905237328	-16.5604369354912	-43.1269963172905	-19.1660720212409	-11.7414943238592	107.928168090061	
865000000	-15.1206627743157	-100.990307636427	-42.2326784116306	-18.0236617558644	-42.9681407626894	-19.8519528006152	-11.7272186201144	106.396056815613	
865520000	-15.2471216762951	-102.345831577132	-42.0113115246455	-20.4704630808969	-42.8049425507054	-22.4185214902275	-11.6997505639633	104.94809534968	
