!Keysight Technologies N9923A: A.08.15
!Date: Friday, 16 February 2024 23:02:22
!Timezone: (GMT-05:00) Eastern Time (US & Canada)
!Model: N9923A
!Serial: MY52412730
!GPS Latitude: 
!GPS Longitude: 
!GPS TimeStamp: 0001-01-01 00:00:00Z
!GPS Seconds Since Last Read: 0
!CHECKSUM:0251846919
!Correction: S11(ON Q)S21(ON Q)S12(ON Q)S22(ON Q)
!S2P File: Measurements:S11,S21,S12,S22:
# Hz S DB R 50
800000000	-7.81048284085728	82.9173737852073	-37.2418394740434	-46.3406403394744	-37.4284964017615	-44.2345921108504	-13.3910096231233	-64.897255141227	
800520000	-7.81884179342604	81.2631149331512	-37.3439571552753	-46.8597623439898	-37.5314850164122	-46.6807854435497	-13.3524854348325	-66.7368876153296	
801040000	-7.84799392386449	79.6221155453583	-37.3192383420154	-48.6656528667112	-37.504935551514	-48.7544440889577	-13.333264684784	-68.5488440567179	
801560000	-7.87400958432217	78.059782014005	-37.2895305570891	-51.1658600626755	-37.476382384165	-50.853098799368	-13.3158653536918	-70.2491932639293	
802080000	-7.90474509874866	76.5436293283867	-37.3491702704642	-53.42626225587	-37.4418715557181	-52.8361062944079	-13.3119123257461	-71.9358361855013	
802600000	-7.93399181554292	74.9271015208534	-37.1822697181979	-55.4699480142721	-37.3401461507316	-55.1874763076911	-13.3089840394823	-73.5318711113794	
803120000	-7.96584348741297	73.5140079474268	-37.1973578436803	-58.7029032055807	-37.3095257942195	-58.1964822536942	-13.3152038557059	-75.0382330868162	
803640000	-7.98773202838308	71.9497311718817	-37.1539495620381	-61.2553463051551	-37.2071391818466	-61.594972055457	-13.299291129986	-76.5460925462624	
804160000	-8.00062844359502	70.4503283218818	-37.0223626961502	-63.3203590038971	-37.1474631354034	-64.3997771956195	-13.295440014188	-78.0119675923499	
804680000	-8.02448246129683	68.991770055156	-36.9046666954075	-67.0353779428812	-36.963816321303	-67.0976725945019	-13.2745039295663	-79.5672396738026	
805200000	-8.04309857951639	67.4282898432467	-37.0201681078169	-69.9184519845216	-36.8970656218553	-70.6900801386595	-13.2652440368756	-81.1539211497181	
805720000	-8.06178804091269	65.9406849736713	-37.0073993470422	-73.6090842217549	-36.9305690788282	-73.9714245716944	-13.2891474429285	-82.7209002150545	
806240000	-8.05936442783663	64.3405883069223	-36.9748922344896	-77.1709815727794	-36.960027933519	-77.7829181260433	-13.2673484560245	-84.1967262182944	
806760000	-8.08611700757871	62.7896355239399	-36.988071949842	-79.5864016266049	-37.0495266428867	-80.3366693703966	-13.2527347727912	-85.6023082208317	
807280000	-8.09506116153592	61.179504152757	-37.1791134978843	-82.8546454098801	-37.1053283483274	-84.1945480233487	-13.2447949218441	-87.0272940831008	
807800000	-8.121589909895	59.5523465466302	-37.1792697116339	-86.119356754232	-37.196976919113	-86.7618405406868	-13.2464974384567	-88.5624735930896	
808320000	-8.15398690729922	57.9834923154061	-37.1969560599228	-87.943606264126	-37.2354053790905	-88.7949880175698	-13.2357326447408	-90.0429396851151	
808840000	-8.1713554688307	56.3463161259302	-37.3834071879135	-90.3437848159656	-37.4194302972518	-90.9362692011032	-13.2091849208038	-91.4907510457485	
809360000	-8.20885234047258	54.7640130033285	-37.2952294622995	-92.0390117142637	-37.3730705494011	-93.1469632629141	-13.193631764373	-92.9109794332345	
809880000	-8.2531221685962	53.1688054824598	-37.3500928937702	-94.5762880038092	-37.3142018007402	-94.9952963299569	-13.1967545278914	-94.4763754654461	
810400000	-8.27959596392164	51.6111413760468	-37.3430127930667	-96.2195229929153	-37.2258686369849	-96.9776027047564	-13.191277869648	-95.9825599571524	
810920000	-8.32060666632762	50.0245233905203	-37.1167460272663	-98.9539994673358	-37.2464690803555	-99.3077109499811	-13.1679471437654	-97.4115826977239	
811440000	-8.35198622096755	48.5750552953041	-36.9942012353199	-102.79663681157	-37.0920605622411	-103.015288508612	-13.1561186423331	-98.8419288324288	
811960000	-8.39464518223195	47.0293713660842	-36.9731576630868	-106.577864369537	-37.0001875994733	-106.015536067526	-13.156530227881	-100.195707682893	
812480000	-8.41679147063502	45.4865734559585	-36.7813230143037	-109.413770164769	-37.0539190520815	-109.324532148828	-13.1495655040059	-101.706398715201	
813000000	-8.44821376931815	43.9785960175273	-36.8814592161114	-111.940652294182	-37.1160959891207	-112.390510476083	-13.1360825527291	-103.012430509546	
813520000	-8.47583186884783	42.3528152759586	-37.0796952573867	-115.463554941119	-37.1022744246922	-115.050003353675	-13.1142445826395	-104.594965920579	
814040000	-8.51555164427485	40.8671925618171	-36.8900330847498	-117.679387460465	-37.1471688292775	-117.122987081465	-13.0928781671834	-106.005617127897	
814560000	-8.54503622762339	39.2131819330209	-37.019665876407	-120.257244153727	-37.0445605847609	-120.753925605637	-13.0820420714677	-107.514535603261	
815080000	-8.59091606088963	37.8248295166207	-36.963867999428	-123.987722823061	-37.0483635423713	-123.634738513533	-13.0666865358704	-108.90299798968	
815600000	-8.63192963804128	36.2973936536435	-36.9927900037792	-126.715935865683	-37.1313727561789	-127.172999613564	-13.044930997362	-110.45703532617	
816120000	-8.65661666268498	34.699310116082	-37.1421390543257	-129.774473219526	-37.0595141335885	-128.884515502646	-13.0457033279254	-111.955944692838	
816640000	-8.67497405245753	33.2789630220949	-37.2406294155111	-133.20478499307	-37.1753134629959	-133.146161166267	-13.0256340565826	-113.398013893153	
817160000	-8.71862811141727	31.6297701423681	-37.2969800439841	-135.112638556115	-37.2280050169327	-135.538707052573	-13.0095495802751	-114.871869888582	
817680000	-8.75378158019441	30.138983220477	-37.4575309797542	-137.736465574865	-37.3510816638096	-138.74561146634	-13.0127507144131	-116.345593819574	
818200000	-8.79667426525965	28.4853089663342	-37.4664848508799	-140.89090703951	-37.6124685517769	-140.760111590116	-13.006214615688	-117.805147228918	
818720000	-8.83147690691411	27.0099761601821	-37.5937454401068	-142.554590625221	-37.481357176457	-142.418100798668	-12.9926007622751	-119.313452646536	
819240000	-8.87149121518012	25.4322570166422	-37.3729593029089	-144.257826329337	-37.4746716155518	-144.320292836912	-12.980075330907	-120.693179702135	
819760000	-8.90200591569558	23.8371090243516	-37.4214650781756	-145.344481433489	-37.3418952437749	-146.31274060807	-12.9730395291367	-122.109691323051	
820280000	-8.95238686330755	22.2739939605872	-37.2410388845015	-147.538316620378	-37.1738199573756	-148.450365472528	-12.9580771356523	-123.444882654212	
820800000	-8.99575927691248	20.6572470310341	-37.1504151316961	-150.355584252633	-36.9916405069708	-151.712939923612	-12.951607216805	-124.872209516694	
821320000	-9.05715217318546	19.1670448227169	-36.9216103104711	-153.723933391581	-36.9280209372755	-154.736831273884	-12.9243062908197	-126.267471340168	
821840000	-9.09978724634101	17.599063625132	-36.6334018122313	-158.01463553857	-36.9632427097877	-159.59676624676	-12.9071031565823	-127.631790869632	
822360000	-9.1578037142412	16.1718436793472	-36.8247490646148	-161.195279633152	-36.9525433785749	-162.898593304768	-12.8807621718569	-129.069646555377	
822880000	-9.20409833074776	14.7117280520552	-36.8058316928996	-164.891127257694	-37.0530020912964	-165.496340560125	-12.8639156064099	-130.528939548842	
823400000	-9.24072238008436	13.2638084585899	-36.9552464306182	-168.244123937187	-37.0673787834012	-169.383839446071	-12.839213312115	-131.937055688409	
823920000	-9.28266157774032	11.802593995192	-37.0254740978146	-170.705435370817	-37.1043564337195	-171.407223233893	-12.8174005822664	-133.478765617164	
824440000	-9.31575922335179	10.37867815143	-36.9755473743706	-173.133540290201	-37.2932173966406	-174.012018883367	-12.7912781829932	-134.924393520595	
824960000	-9.35490322427439	8.75267999743367	-37.0529884093122	-175.43578534052	-37.2267716039218	-175.473931758082	-12.7718631334548	-136.54687698415	
825480000	-9.39022675260018	7.23038305788629	-37.0506283738099	-178.962669899494	-37.1237549133795	-178.901840891801	-12.7571674931896	-137.923285335853	
826000000	-9.42216947737831	5.6650858258783	-37.2280163210152	177.987977801551	-37.2427230434949	178.934943814542	-12.7402416310109	-139.343614280823	
826520000	-9.4728086034944	4.10486676150944	-37.0397069813331	174.109162787413	-37.1666625319533	175.035006846577	-12.7113436867253	-140.874932345581	
827040000	-9.52253787467415	2.4526458613592	-37.1016428017444	172.26789047166	-37.1241160612442	172.191784239578	-12.6930634249214	-142.513960639599	
827560000	-9.5720040103577	0.920115013537628	-37.2091018742882	169.379750212034	-37.2729387133425	169.279797103135	-12.6653237481546	-143.946629621611	
828080000	-9.62412000670621	-0.742208775790108	-37.1905569632696	166.699000219254	-37.2369689196739	166.445449457309	-12.636085698702	-145.508703093957	
828600000	-9.67471185232583	-2.21711453891596	-37.1916987052961	164.01759618803	-37.2500424642089	164.562425779133	-12.6243498118559	-147.008982233899	
829120000	-9.74508903933933	-3.76942919616855	-37.1791781270833	160.278143607946	-37.209167127996	161.179108364187	-12.6121429662023	-148.601460073571	
829640000	-9.80076367292252	-5.34055295311162	-37.078390440105	158.043700132633	-37.0418807769164	158.17695954084	-12.6130056087142	-150.208335829336	
830160000	-9.85757270094321	-6.87603183236514	-36.9078169491433	154.391312084343	-37.094828985153	154.184557105018	-12.6005445300897	-151.697177582963	
830680000	-9.92524004889484	-8.38596403242206	-37.0995394752484	152.207375517088	-37.0573031627735	151.558669233439	-12.5937266199241	-153.187405793201	
831200000	-9.9797223113428	-9.93581278127161	-36.9050024318347	147.981567591768	-37.1095851710062	148.659852929345	-12.5883870451085	-154.690847178194	
831720000	-10.0466491288019	-11.5671714805046	-37.1258294243772	145.060332212013	-37.2609129625353	145.462089878194	-12.5744592144707	-156.054652929262	
832240000	-10.1151553711849	-12.9685105171141	-37.1536086361572	141.85151165316	-37.1385481258266	142.377461528455	-12.537893352366	-157.665491624477	
832760000	-10.1846223463848	-14.4837824353021	-37.2122735286136	138.723070430766	-37.390521027084	139.440958558374	-12.5381324642184	-159.163924272008	
833280000	-10.2421618683656	-15.9444182233521	-37.2360408937071	136.356671060813	-37.2955662363629	137.046568019168	-12.513752063208	-160.689918000478	
833800000	-10.3028965890104	-17.39314389649	-37.2670270870933	131.911510611973	-37.2358668428343	132.489235542577	-12.5081505709239	-162.229612534086	
834320000	-10.3842824893518	-18.8382006562163	-37.4542893741041	129.136772977112	-37.3025786324575	129.597900211417	-12.4925057576998	-163.798151010165	
834840000	-10.4465854010635	-20.3272917794783	-37.6319653299068	127.016882867515	-37.4051048888804	126.684622377086	-12.4811952175959	-165.315451414202	
835360000	-10.5084111187822	-21.8022279493278	-37.5398694634608	123.449453505194	-37.5223990092043	123.149927963853	-12.476994873431	-166.774999151079	
835880000	-10.5800617363519	-23.263648477987	-37.5265323020918	119.344832052348	-37.6692948967748	120.629394252508	-12.4579398809916	-168.274219755948	
836400000	-10.6336312236633	-24.7317187517791	-37.5674027329407	117.652465904103	-37.6746328173184	117.301240431205	-12.4476096759633	-169.787728841388	
836920000	-10.6991686346942	-26.0971572622528	-37.7903754583788	114.876764990966	-37.8658265907241	115.178854516366	-12.439216161116	-171.250895951959	
837440000	-10.7556836789516	-27.6099794522334	-37.7597924735227	112.854606495285	-37.7343097999779	112.544121635872	-12.4234466973001	-172.877370479632	
837960000	-10.8092733489519	-29.2081226466196	-37.6518350558763	109.588929482768	-37.8517832676101	109.105286251181	-12.4101493985391	-174.340549575157	
838480000	-10.8628741353556	-30.7149383196457	-37.6271117051626	105.253516894621	-38.0080546463133	104.934793663033	-12.3852501688471	-175.785743443694	
839000000	-10.9394138226117	-32.2955797856918	-37.8422343424219	102.016144753808	-38.0427890703283	101.934494566397	-12.3679560452796	-177.285209320002	
839520000	-11.0246625210443	-33.8291661655153	-37.8454483102316	98.7915296346237	-38.1854545919026	99.1863642203053	-12.3534120800899	-178.912996675174	
840040000	-11.1076055828249	-35.4532597293468	-37.97122780014	94.3374297107558	-38.2438101778405	96.3718833954027	-12.3309493985955	179.525635393657	
840560000	-11.1866643741768	-36.9608442815632	-38.3593496285215	91.5715923181613	-38.5692884973149	92.3846624579582	-12.3164546920685	177.926672539995	
841080000	-11.2798413503366	-38.3726007553413	-38.5243727629686	89.829677384288	-38.7013894201743	89.6377278405689	-12.3051070480807	176.332175486166	
841600000	-11.3618844164291	-39.8353159712509	-38.8168752440138	86.0374928097633	-38.9607658618672	86.6010051137903	-12.2891814818032	174.882653404003	
842120000	-11.4560241074829	-41.240989173225	-39.0489886779166	84.2527063594284	-39.2988910870111	85.8151705861153	-12.2845410834467	173.389549592464	
842640000	-11.5486894346836	-42.7869509759352	-39.2272866766479	82.8421033815197	-39.314878657184	84.6367456208625	-12.2868614830059	171.892312240815	
843160000	-11.6328333780566	-44.1972942647919	-39.5230283260225	80.9220602916104	-39.4493578276008	83.055403951045	-12.2780832079201	170.258168936859	
843680000	-11.7174221170495	-45.5251549132345	-39.4513166319541	78.8508626064328	-39.3878949328407	81.410912640422	-12.2603087763537	168.778971810476	
844200000	-11.8185477582472	-46.8721652591728	-39.322686346739	78.9956339772596	-39.3872063978077	78.6022180833141	-12.2573942420665	167.236637438619	
844720000	-11.9102421068047	-48.2523737624519	-39.2554763589498	75.6033476132275	-39.2279549903971	77.1838874718109	-12.2485019720923	165.703176822765	
845240000	-11.9930028167802	-49.6049549564294	-39.1977048300037	74.1970409947036	-39.1373202875561	74.584657583665	-12.2239665887429	164.264633996434	
845760000	-12.0790017568105	-51.0287546155683	-39.2061686238906	71.1476485950336	-39.2636926110131	70.8740308887525	-12.2157107810544	162.762763693917	
846280000	-12.177324681541	-52.3463679489659	-39.2652751039351	68.4322743543287	-39.326631027094	68.6400935816204	-12.2013700555603	161.265956231987	
846800000	-12.2645596282097	-53.7644284887431	-39.3492355474314	65.483961098458	-39.3041347467961	66.5235032633952	-12.1910803324434	159.704715827672	
847320000	-12.3324086551415	-55.0881338597839	-39.3651726607491	62.1958715153982	-39.3244274121294	63.4187518094781	-12.1720752116193	158.197834939758	
847840000	-12.4127435182928	-56.391910064768	-39.2482389160034	61.2439485802904	-39.3057514253685	60.7427216356419	-12.1549464781649	156.803485491349	
848360000	-12.5097141864306	-57.7291938821709	-39.171764372161	56.7158484302734	-39.2525907821326	57.2059962106229	-12.1461502460679	155.288063261252	
848880000	-12.5914409438586	-59.0210059043847	-39.2666401625412	55.12006948625	-39.3912942534074	55.580063345057	-12.1295187525317	153.679516553257	
849400000	-12.673738102414	-60.3341912711415	-39.366164478482	53.0494166329256	-39.3595421278438	53.3980262204459	-12.103298838079	152.082653586278	
849920000	-12.7344384193585	-61.6894192516299	-39.3812040539588	50.1665106173447	-39.2164146861613	49.3731342651828	-12.0901430436368	150.583786007181	
850440000	-12.8250980702942	-63.0373889896092	-39.3837528825768	46.7402986136023	-39.2062946231264	47.556803582992	-12.0760015337346	148.873078993191	
850960000	-12.9051971294398	-64.3747120892142	-39.506017450743	44.6811751765572	-39.3164071228382	44.7501175153423	-12.0722468444312	147.248905093924	
851480000	-12.9652764272112	-65.6821335442519	-39.322479837257	41.0744042384516	-39.1560374331694	42.8496366871006	-12.0647565600989	145.734477646642	
852000000	-13.0564819339309	-67.0607158511745	-39.4383117584293	38.5439198880049	-39.4346523977282	38.7145236428399	-12.0461825825908	144.183598641105	
852520000	-13.1152577914217	-68.4996634316466	-39.3371065211332	35.1770855083168	-39.4153368300887	34.2612207984025	-12.0560824135511	142.611800789824	
853040000	-13.2111585838026	-69.9274490758413	-39.4464251568156	33.2399643532346	-39.381666821797	31.7098656325995	-12.0530239502946	141.176954532172	
853560000	-13.2732503804195	-71.5178040584672	-39.6581994448762	29.0466182847126	-39.578143464119	28.752621211428	-12.0415193832879	139.658259130408	
854080000	-13.3531859410346	-73.0330807828608	-39.7486040345463	25.3232199161764	-39.4679752077364	26.2173997561168	-12.0293562053707	138.224674194274	
854600000	-13.439410357988	-74.3973309635325	-40.0952833194629	22.5960721887586	-39.6085933778208	23.150109240586	-12.0260332987251	136.728003576107	
855120000	-13.5286958956894	-75.8188878876242	-39.9553550705051	20.8192462734123	-39.7734206992189	19.6597901483972	-12.0005272244694	135.214323658236	
855640000	-13.6195809042722	-77.3163933984559	-40.19868179539	18.8487849902096	-39.8845116430447	17.3664941880124	-11.9861172589363	133.723423431678	
856160000	-13.7000376704922	-78.9805423773957	-40.0864799975734	16.0830828180632	-39.9792694154519	14.5476424799081	-11.9604067479932	132.27162195212	
856680000	-13.8131060972471	-80.5006035757693	-40.1574598638139	14.3121176917868	-39.9520048368594	12.8510742697895	-11.9540376502242	130.667338432134	
857200000	-13.9020194799828	-82.0610876768752	-40.0989275526558	10.7518615149323	-40.1076280987168	10.8397927074692	-11.9308448265057	129.21694782185	
857720000	-14.0201036578469	-83.4295334880997	-40.3005293077226	8.65131158822764	-40.1313458823624	6.37727531978248	-11.9272271659136	127.65099843623	
858240000	-14.121223550771	-85.00444959615	-40.3004735087234	6.0350986656019	-40.4290856621038	3.48403888318884	-11.9044442534482	126.103539150663	
858760000	-14.2424453557455	-86.567780509116	-40.2123737905792	4.11487284765961	-40.2253809055873	2.17887631769069	-11.8927750323933	124.57404996661	
859280000	-14.3477728285651	-88.1522709337234	-40.2674761774664	0.574564090177593	-40.2483957446639	-0.915497605419002	-11.8909213086359	122.958220232433	
859800000	-14.4490374364005	-89.6785275663391	-40.3736687384645	-2.2372800936547	-40.2839322670405	-3.88416763158773	-11.8680694072101	121.48176371392	
860320000	-14.5611339435362	-91.220045632302	-40.1976920548169	-4.84391453958577	-40.3007947720839	-6.97169837524563	-11.835015072378	119.89943188062	
860840000	-14.7002254759272	-92.885699261924	-40.1191057751171	-8.10258769112686	-40.3371150492169	-9.97250222122535	-11.8348402972803	118.399474099698	
861360000	-14.8299529479553	-94.6022406250236	-40.3481050630468	-10.464159776163	-40.3066548083507	-14.2392705646246	-11.8234534915681	116.948048501771	
861880000	-14.9803022487517	-96.125549785814	-40.452641931687	-15.0057056089857	-40.5233267603453	-16.7698890995772	-11.8164954334397	115.425857842428	
862400000	-15.1396909654079	-97.6792198278946	-40.4648355479062	-17.5934323490275	-40.8840110996387	-19.3504037913983	-11.8091029601121	113.950840074532	
862920000	-15.3281546104886	-99.217398874463	-40.7838181905773	-21.2235647997975	-40.8103452270431	-22.406250265776	-11.7892789479635	112.522270929786	
863440000	-15.4978043396393	-100.539374638387	-41.066270694873	-22.5914791631337	-40.9142182060457	-25.0803945014982	-11.7732007920156	110.998451942327	
863960000	-15.663559477442	-101.785599983501	-41.0425775823922	-25.3200905695692	-41.1294186025459	-26.9426966203874	-11.7506357219187	109.506876424298	
864480000	-15.8385089772327	-103.154163293547	-41.0864680610444	-26.1039731519605	-41.1124554081342	-28.4672322671275	-11.719688000807	108.024470698706	
865000000	-15.9872309804136	-104.537861673893	-40.9488233840628	-30.2609391736156	-41.1836053624381	-30.5011797864153	-11.704716956744	106.452107335259	
865520000	-16.1508817274422	-105.739767540126	-41.1275991457614	-32.3531484349985	-41.3733897425687	-33.774924365944	-11.6753063442397	104.952688231769	
