!Keysight Technologies N9923A: A.08.15
!Date: Friday, 16 February 2024 23:04:52
!Timezone: (GMT-05:00) Eastern Time (US & Canada)
!Model: N9923A
!Serial: MY52412730
!GPS Latitude: 
!GPS Longitude: 
!GPS TimeStamp: 0001-01-01 00:00:00Z
!GPS Seconds Since Last Read: 0
!CHECKSUM:0212814817
!Correction: S11(ON Q)S21(ON Q)S12(ON Q)S22(ON Q)
!S2P File: Measurements:S11,S21,S12,S22:
# Hz S DB R 50
800000000	-7.59392680038296	84.2687977428612	-37.3698188067648	-41.72172022035	-37.5530383247269	-40.3081456461565	-13.4436741419777	-64.7298285327918	
800520000	-7.60058388022706	82.6675683358307	-37.4263640887954	-42.9757894161789	-37.6092688660768	-42.8271298926594	-13.3681189140049	-66.3866752113185	
801040000	-7.62073618986181	81.0640720915169	-37.4749720065813	-45.3354012243333	-37.4673199976477	-45.0783688747036	-13.3529164007959	-68.0888661266678	
801560000	-7.64800189611318	79.5585724917222	-37.3425570832485	-48.2249270549038	-37.4618433482334	-47.9796997757332	-13.3299291544242	-69.8178318935882	
802080000	-7.66774001903704	78.0548921890723	-37.301182095848	-50.0319061835114	-37.3253177079256	-50.5437854248495	-13.3137502951472	-71.5047308258806	
802600000	-7.68928440989593	76.481212433484	-37.3201017325628	-53.3892525531295	-37.2359864084407	-53.4940377358291	-13.2967387293223	-73.1466766581124	
803120000	-7.7195718499221	74.9538137090699	-37.3480246019385	-55.420381188176	-37.2468741597365	-56.3362512851332	-13.292176601806	-74.6687878733712	
803640000	-7.74183087900361	73.4522854376039	-37.2095378635324	-59.1084086487791	-37.2248718540712	-59.4039825073517	-13.2733407422755	-76.1329515280899	
804160000	-7.76224707302187	71.9955082845591	-37.0846921555729	-61.8404154519785	-37.1891373189724	-61.9307620507527	-13.2431868634773	-77.7751283911306	
804680000	-7.79041178473718	70.5009151017354	-37.1066492980988	-64.4678911328484	-37.1818510997286	-65.1896358385517	-13.2302921817553	-79.4736227606183	
805200000	-7.79292783212496	68.986348067668	-37.0064653435537	-67.3646567712566	-37.0744913694497	-67.4625703870799	-13.2189359951765	-81.0870129430276	
805720000	-7.82125308256178	67.5009041126031	-36.9332596117343	-70.0118407262957	-37.0537335348634	-70.9941691924231	-13.2327327008184	-82.6087642548377	
806240000	-7.82552581348073	65.9478771905777	-37.1009015250281	-73.4637772734644	-36.9892504837012	-74.0410531295776	-13.2151058676096	-84.2023223857609	
806760000	-7.83883623840145	64.3418027440035	-37.1988557920018	-77.1989805087157	-37.3430148278378	-76.6472782640779	-13.2249459577058	-85.6270836442493	
807280000	-7.86332826868479	62.8819690419052	-37.2564041884598	-79.1681758396323	-37.3356906422392	-80.3187978100823	-13.2090414534429	-87.0200710489868	
807800000	-7.88647111115634	61.2712767083052	-37.4339322747806	-81.8338632273958	-37.4782466146465	-82.7725609813231	-13.2199834737276	-88.6012242819005	
808320000	-7.91434324165827	59.6921664445896	-37.3765576103514	-84.3030106537157	-37.5644135216272	-83.5633322402358	-13.2276800521064	-90.1051277258795	
808840000	-7.9329792843355	58.0702315135262	-37.4263699093033	-85.5239203966276	-37.4270169739653	-86.0085157999566	-13.2025755278088	-91.4847924952191	
809360000	-7.95494221178812	56.5272383550185	-37.4449836790572	-87.185963026361	-37.3853774801097	-87.5598099181571	-13.1840468724253	-92.9484964227982	
809880000	-7.99272209460378	55.0002679079271	-37.3636128344027	-89.136031894385	-37.1821747712681	-89.0370005744776	-13.1790074499174	-94.4419275828411	
810400000	-8.02097360695909	53.4296738449331	-37.1566337839835	-90.8879503828919	-36.9932905308832	-91.5227568444867	-13.177921526934	-95.876549026475	
810920000	-8.05684925284887	51.9535414164302	-37.0210324533304	-93.3767784674347	-36.8183142102469	-94.483342512887	-13.1549269849911	-97.2879691327054	
811440000	-8.07745162463779	50.3758165483851	-36.9073287400316	-96.9638818939412	-36.6817660980113	-97.1784940645707	-13.1473863806379	-98.7394214426593	
811960000	-8.10869057140878	48.8857893486331	-36.8262748793132	-100.307067089196	-36.4787908845364	-102.047725591639	-13.1493821043497	-100.220364414437	
812480000	-8.14003369707717	47.2713675863208	-36.7147002209217	-103.007891644993	-36.5795098678576	-104.83360022066	-13.1289656151544	-101.608976996204	
813000000	-8.17375716928811	45.7537482103158	-36.8231419908217	-105.975386532312	-36.4943643175291	-108.53941737843	-13.1106782244102	-102.964190938469	
813520000	-8.1945163419746	44.2100528750355	-36.7159464838557	-108.880808245597	-36.6641921199256	-111.140835518231	-13.0931960755307	-104.555945883144	
814040000	-8.22574909622075	42.7368216860863	-36.7730070706115	-111.288576865554	-36.4547689700876	-114.17669530562	-13.0758689183815	-106.042155485395	
814560000	-8.25369150022218	41.1139797419433	-36.6178838229638	-114.268408027948	-36.6438937540263	-116.607450336042	-13.0591977243254	-107.402420659237	
815080000	-8.29037631038353	39.589288104241	-36.5745628015772	-117.657211887986	-36.5202900905168	-119.983151940144	-13.0563251541131	-108.854852659423	
815600000	-8.32026583449375	38.041421188563	-36.4933904086401	-120.99179357352	-36.5828002760374	-123.792455378658	-13.0319080804513	-110.381756473797	
816120000	-8.34609625577761	36.5334516776678	-36.5912441260748	-124.789756898124	-36.6096688533856	-127.039593432824	-13.0266828714806	-111.77899033982	
816640000	-8.38004613151876	34.9899560371469	-36.5687915140408	-127.394108022954	-36.5913211199864	-129.998922067834	-13.0077034508174	-113.208768993637	
817160000	-8.41980449516475	33.4207664421449	-36.7463765014814	-129.827711959902	-36.647450745938	-133.409602060956	-12.9787123106089	-114.78238928646	
817680000	-8.45582001685297	31.9434456302362	-36.739592585471	-133.4987378795	-36.7526788650255	-135.665493011824	-12.9789802727018	-116.180379309949	
818200000	-8.48844467364196	30.3483016542724	-36.7554290522805	-136.386512498101	-36.9105467642252	-137.972152752443	-12.9713189213543	-117.747738443446	
818720000	-8.52410559378901	28.8604177168719	-37.0017338250637	-138.188977432135	-37.008892880145	-140.826277378888	-12.965791548392	-119.203779547954	
819240000	-8.55931779927525	27.3027889235326	-36.7227868829658	-138.172406926554	-36.995886556914	-141.023994229916	-12.9425774693753	-120.626338286189	
819760000	-8.59066161445578	25.7602363407857	-36.5858218917298	-140.775516710103	-36.9197553048794	-143.454291066252	-12.9415671830858	-122.073617331064	
820280000	-8.6307697245984	24.1037498464428	-36.4995421165523	-142.700439816036	-36.708698326455	-145.447057335152	-12.9236783252376	-123.544260314256	
820800000	-8.68609410256841	22.507845329358	-36.2219299988222	-146.158889597945	-36.4248631258004	-149.401566499718	-12.9334910491633	-124.88247828766	
821320000	-8.73976554986846	21.0014452120223	-36.151450162824	-150.052430122282	-36.2496560211277	-152.385763099117	-12.9024561813043	-126.317684876455	
821840000	-8.78359952762712	19.4541995970719	-36.0747932732667	-154.244457309932	-36.2400120052283	-156.058096688401	-12.8842883898107	-127.652401675065	
822360000	-8.84318882736209	17.9928865973966	-36.0049496526227	-157.328165917083	-36.2723563179761	-159.346708459959	-12.8564794067592	-129.034383269485	
822880000	-8.89504658278747	16.5760597628285	-36.0400597396154	-160.999027693825	-36.1236750636386	-163.194271960332	-12.8436744910414	-130.504374078825	
823400000	-8.93699827247171	15.1634702249659	-36.0431466300345	-164.321444861562	-36.3415751259625	-167.190456924638	-12.812231851673	-131.968346607786	
823920000	-8.97357988950486	13.7136257658856	-36.0437306171077	-168.050047592537	-36.4526627778761	-169.906797520434	-12.7959782913158	-133.450053779274	
824440000	-9.01841536013271	12.2549273901147	-36.1503959573784	-170.871849475721	-36.3841548756592	-172.652995185798	-12.7712826657617	-134.9973818627	
824960000	-9.05479307689905	10.7269627218178	-36.007569803706	-172.962761356913	-36.3478399007625	-175.679971859684	-12.7446857744767	-136.504123824777	
825480000	-9.08556586630423	9.2958688590932	-36.0270738627753	-176.860179593569	-36.3027416774873	-178.759158654536	-12.7265424038267	-137.939309761429	
826000000	-9.1178247684235	7.76879865310659	-36.1145579846287	179.003782275196	-36.2424984150467	178.291499072679	-12.7094000373949	-139.461033513187	
826520000	-9.16012199590464	6.20413776218652	-36.0006600173668	176.142999084704	-36.3072494228135	175.075941121946	-12.6882541732478	-140.991389804349	
827040000	-9.20048160322992	4.62769109073626	-35.9076797016869	172.3555396944	-36.4812187780115	172.014311871704	-12.6636691120305	-142.540982533272	
827560000	-9.24648191757587	3.14532917891041	-36.1536779018924	170.179533185613	-36.408124157781	168.056511099005	-12.6428710429548	-144.02166016449	
828080000	-9.29079722669277	1.54018925133961	-36.0945583543585	166.829548721974	-36.3970361243991	165.61656685849	-12.6321087735145	-145.624634462413	
828600000	-9.33499780886822	0.0170383037556111	-36.2020948414614	163.63567468228	-36.5306773624001	162.458283091847	-12.6122412166591	-147.124857149902	
829120000	-9.39404396819145	-1.47206047443134	-36.3736748084709	160.17620409895	-36.5577219856875	159.56111096507	-12.5965998114802	-148.643286093352	
829640000	-9.45179173212516	-3.02978860263744	-36.3394834794421	157.266868352598	-36.5872830797303	156.110181655316	-12.5880643950395	-150.218139740053	
830160000	-9.49799374574763	-4.5270733085763	-36.3888437707867	154.826089734204	-36.4295619302418	153.137364277162	-12.5795299045447	-151.770262504274	
830680000	-9.55587820751101	-5.96011183559339	-36.2786070661923	150.749947051343	-36.4988099375253	149.685410089154	-12.566578024396	-153.208516530286	
831200000	-9.60908268945831	-7.60581834753069	-36.3669674632642	147.139762067959	-36.5776988641979	146.928177215931	-12.5525040094792	-154.713943488511	
831720000	-9.67180745989601	-9.0781849474847	-36.3657739508567	144.880758574146	-36.5767825062559	143.878604101188	-12.5538338785912	-156.086790074793	
832240000	-9.72833759728568	-10.5169044848446	-36.5934868122738	142.18441706393	-36.6091518593647	140.653882370595	-12.514624538288	-157.68855613278	
832760000	-9.78856074147632	-12.0664792381075	-36.679359067663	138.417705130786	-36.7355394297592	138.081310707397	-12.5019862225795	-159.163123974553	
833280000	-9.84434626411392	-13.4888507078626	-36.8494694779207	135.656003946102	-36.9029622725873	134.608770497532	-12.4879775681621	-160.767511215908	
833800000	-9.90048808942659	-14.9259128563424	-36.6855989679792	131.882569289389	-36.8882504112911	130.753876678746	-12.4744484544129	-162.336212097678	
834320000	-9.96652191372641	-16.4308265911379	-36.7458892153674	130.270085408982	-36.9577032182136	128.526251294015	-12.4647706138021	-163.855092353285	
834840000	-10.0367009051597	-17.9337211098384	-36.7387343659661	126.082152309304	-37.0319311894869	124.817239414981	-12.450835799997	-165.37610706316	
835360000	-10.0902594164372	-19.362105062185	-36.8248970311596	123.022085203481	-37.123275836841	122.705278445188	-12.4590066474878	-166.84491447596	
835880000	-10.1711483053479	-20.7376598300249	-36.978557816962	121.110686984639	-37.2747572243994	118.774933938442	-12.4198917430429	-168.400554389853	
836400000	-10.2104380038624	-22.2505692629815	-37.0817632817492	117.97519760756	-37.2755127839107	115.909950731945	-12.4182052384487	-169.974526977655	
836920000	-10.2716493192039	-23.5130012387235	-37.0144015752591	115.619581381659	-37.3870497825475	114.059879291696	-12.4038648024634	-171.442724743287	
837440000	-10.3166466669272	-24.9854166571693	-36.9412428316356	112.043330343106	-37.3252798553884	111.29091581936	-12.3871595630401	-172.996447075745	
837960000	-10.3700235603933	-26.4790272551916	-37.0592622239173	108.600972779111	-37.3684057486343	108.003046163837	-12.3756482651684	-174.550285953736	
838480000	-10.4062724587297	-27.9237870014927	-37.0550514048471	105.943908602966	-37.4370581468876	104.075857254265	-12.3516716455527	-175.980742546275	
839000000	-10.4759948995526	-29.5007642440645	-37.0693276162496	102.440682774628	-37.5681666346977	101.057757642999	-12.3413659747821	-177.466224055335	
839520000	-10.5367256279682	-31.0594083086441	-37.2225067441421	97.9113154914109	-37.5576185225226	98.8151928346196	-12.3304437458309	-179.060017583129	
840040000	-10.6138649311936	-32.6537853497563	-37.3072446085786	95.992694952899	-37.5041961705126	94.2296612488377	-12.3167928284333	179.33608531822	
840560000	-10.6775113327001	-34.1609520016315	-37.3263667444128	91.6116197809456	-37.759684122632	91.6359166011884	-12.2993495196567	177.785229978569	
841080000	-10.7545493256858	-35.5961163549021	-37.6637093268079	88.3027846012203	-37.715016587656	88.7267457776484	-12.2967584987389	176.235067999511	
841600000	-10.8214574459946	-37.0562222471266	-37.8623759228716	85.2492262181116	-38.169465274186	85.4185565567449	-12.2767461408196	174.698646902686	
842120000	-10.9026709523253	-38.4658836117081	-38.0736393065444	82.7427349471839	-38.1389925575912	82.2336862504922	-12.2772896145705	173.140236091265	
842640000	-11.0001328834899	-39.9878443501313	-38.2761607793976	81.3817690062356	-38.5138177514276	80.1833952463769	-12.2702854278096	171.720736495164	
843160000	-11.0631655933462	-41.421776627001	-38.3343395298055	78.161842828491	-38.7153509737652	78.2390678705524	-12.2695167281489	170.070791678974	
843680000	-11.1332200008186	-42.7960547587111	-38.448945044972	76.2175084727275	-38.8781027555523	76.9093332951548	-12.2610028998401	168.594665230253	
844200000	-11.2244467107274	-44.111312080315	-38.4320564133585	74.8110850498304	-38.7977206308818	73.9910666878105	-12.2691301059002	167.078158790659	
844720000	-11.2997342322566	-45.5571428172545	-38.437023447965	72.118059926505	-38.7027679961154	72.0685307738915	-12.2536657048219	165.521050996495	
845240000	-11.3644322847412	-46.9268485946437	-38.5536444599303	70.4200338013444	-38.7784737662596	67.7941376251382	-12.2312851751385	164.108253679885	
845760000	-11.4439764669475	-48.3700997112929	-38.3264255698008	66.6361344645702	-38.9509215507793	64.8522605838608	-12.2363761811318	162.591013606058	
846280000	-11.534303114062	-49.7629468369946	-38.5528633347557	65.1687405652813	-38.8698726538292	64.2829313263977	-12.2309692065666	161.146041856254	
846800000	-11.6047605883543	-51.1336621369097	-38.6450818865038	61.8756808103437	-38.8973357007187	61.0648660025557	-12.2098734800238	159.710528207958	
847320000	-11.6717577998756	-52.4850868278252	-38.6827487272925	59.8357675655036	-39.1528320388887	59.0373064838679	-12.191135772215	158.305351789208	
847840000	-11.7414109565303	-53.8218375335549	-38.8051033137595	58.3208977834227	-39.0595364259986	57.1460472674889	-12.1745295326524	156.835509522992	
848360000	-11.8210184436369	-55.1929881288319	-38.7958113290102	55.6100155279835	-39.2255299972281	53.3300439584384	-12.1541521426599	155.367382141448	
848880000	-11.8931502778239	-56.4991885836963	-38.6085455827399	51.5839102092521	-39.0441856225674	52.0088892958718	-12.1432892715014	153.833980738919	
849400000	-11.9685961842549	-57.8342889595459	-38.8514811868316	49.9602386119697	-39.2647800042823	48.5717149291403	-12.1019839996226	152.22641969938	
849920000	-12.0272136850367	-59.2805058559393	-38.7441194308938	47.2790043805432	-39.1272557757369	47.3369172020436	-12.0939011406311	150.734568598171	
850440000	-12.0975212165797	-60.5975306650286	-38.7184678062305	43.5649558924782	-39.1618741001405	44.4379186223937	-12.0846311992324	148.997693807093	
850960000	-12.1751296742138	-61.9852126380419	-38.7679886772059	41.8064919033592	-38.9616643982348	42.1556945993704	-12.0554469827197	147.436801050663	
851480000	-12.2282680352562	-63.4229500021243	-38.8826521944431	39.0699721542448	-39.0989567441855	38.6417190647758	-12.0385636021799	145.838360583664	
852000000	-12.2984396230455	-64.8161785102774	-38.653242013582	36.9016754784713	-38.965894584733	35.3932177413473	-12.033951243715	144.395978106853	
852520000	-12.3494179462399	-66.2995607463852	-38.665712596075	33.2144373599656	-38.853316248354	32.3040352331427	-12.0203846958721	142.753563033493	
853040000	-12.4325921771836	-67.7800994536048	-38.6927546071096	29.6243926876852	-38.9720278380005	27.6072530342191	-12.0186987883101	141.290750638683	
853560000	-12.5008387057071	-69.3469014576839	-38.5371712009304	24.0345843147538	-39.0507938162285	24.9382747788448	-12.0141116917337	139.811157733626	
854080000	-12.5746289609261	-70.85509951276	-38.8711067356831	20.7552426785057	-39.0053983873098	20.1570979884065	-11.9965669318175	138.305283598213	
854600000	-12.6560886533477	-72.3274315436874	-38.998743339377	17.9580124837793	-39.2046628822961	17.5386815151207	-11.9963664690549	136.774333802091	
855120000	-12.7467116075634	-73.8187092249379	-39.1720550520661	14.7564958768997	-39.5029588047783	14.7412830398237	-11.9694269769913	135.263497610492	
855640000	-12.8246670918926	-75.3029461231504	-39.3018787989079	12.4454076023032	-39.5266694443909	10.4934768567426	-11.943275789623	133.760902713845	
856160000	-12.9205471903989	-76.8977147653629	-39.5318092203574	8.77241348123117	-39.7551711687605	8.84441542337997	-11.9298919429081	132.170002027431	
856680000	-13.021859906295	-78.3548586165253	-39.5331594641294	6.39257930373117	-39.6580389050431	6.06304473701766	-11.918862555422	130.661151375145	
857200000	-13.1120096905283	-79.9116509648996	-39.5565170200377	2.47652170481719	-40.1884119286373	2.92684406319046	-11.911999854262	129.094062559958	
857720000	-13.2164130445825	-81.2965539842796	-39.861667422704	-0.431604001688565	-40.1150859611524	-0.113129810069868	-11.9005027727491	127.498032428081	
858240000	-13.2922760137624	-82.8100073385402	-40.0180941900886	-2.57945774339244	-40.4562854995601	-3.36945247005642	-11.8920724268359	126.009792383266	
858760000	-13.3875760693398	-84.3456091463361	-40.1234688917769	-5.03576634399087	-40.2836196572931	-4.72623177831369	-11.8960375909537	124.500912036786	
859280000	-13.489933104206	-85.831879501693	-40.2022769014651	-7.2572293775554	-40.5875875047679	-7.44609209863058	-11.8918300690194	122.898690200691	
859800000	-13.5738999672741	-87.4394237070129	-40.3890107315062	-9.07846742845743	-40.5064285656642	-8.95681922785975	-11.8691813669643	121.4729374895	
860320000	-13.6773922183204	-88.9864470187511	-40.3127297349916	-12.8347402900298	-40.6375156193204	-11.9375029057219	-11.8504001857838	119.939853555478	
860840000	-13.8001807345997	-90.5604632951411	-40.3140260392205	-16.0666142510742	-40.6226589337065	-16.2951688605519	-11.8542863054057	118.477312258432	
861360000	-13.8987395557758	-92.3019986157752	-40.3948853330445	-17.9105771384204	-40.7341512219302	-19.1272184289636	-11.8373120484165	117.047880665914	
861880000	-14.0340371771848	-93.7862097932852	-40.5369869310038	-21.2884690719795	-40.6802464543826	-21.9766863361127	-11.8218404746293	115.585644870311	
862400000	-14.1675846463056	-95.4696598231783	-40.756875229639	-24.3417300713595	-40.9505705656609	-25.9313761065581	-11.8144024428109	114.136592079942	
862920000	-14.3205247423192	-97.0061553425982	-41.1014713627235	-25.9450801744982	-41.1476533629042	-27.7972951213951	-11.7798958188209	112.670600441558	
863440000	-14.4591611859932	-98.4324080742728	-40.930881015145	-28.1896812872992	-41.3929482425972	-28.5025054045306	-11.7579291511879	111.233084705207	
863960000	-14.6107411469164	-99.7513003785872	-40.8816118245246	-30.7407583913399	-41.5055459764963	-31.6563983894491	-11.7373257927528	109.769766491498	
864480000	-14.742237495765	-101.163116950844	-41.1709761078641	-34.505492362137	-41.4658530753975	-33.0908364780865	-11.7094203964978	108.215037868024	
865000000	-14.8918100256335	-102.70452050811	-40.9109500901539	-35.6007436339797	-41.4216273094333	-36.8297678992395	-11.6836401216924	106.619571642042	
865520000	-15.0369450677175	-104.155866909828	-41.103433555043	-36.5807567318788	-41.5232925496056	-39.3126216113434	-11.6484999471074	105.110657470309	
