!Keysight Technologies N9923A: A.08.15
!Date: Friday, 16 February 2024 22:55:21
!Timezone: (GMT-05:00) Eastern Time (US & Canada)
!Model: N9923A
!Serial: MY52412730
!GPS Latitude: 
!GPS Longitude: 
!GPS TimeStamp: 0001-01-01 00:00:00Z
!GPS Seconds Since Last Read: 0
!CHECKSUM:1757083541
!Correction: S11(ON Q)S21(ON Q)S12(ON Q)S22(ON Q)
!S2P File: Measurements:S11,S21,S12,S22:
# Hz S DB R 50
800000000	-18.0904067353985	-16.6342031260732	-40.1941618649948	-73.5889874908766	-40.5008561261787	-74.7645133112563	-13.5124180798071	-64.5140156086881	
800520000	-18.0229691677854	-17.6912463363975	-40.1154126706202	-78.0593584594057	-40.7279359632684	-76.726793291521	-13.4683993286351	-66.282725263662	
801040000	-17.9347020530184	-18.678542843017	-40.0352986041892	-78.9387298267876	-40.6295289015506	-76.7340262451495	-13.4205494396208	-68.0081744623918	
801560000	-17.8552752055194	-19.9668156192181	-40.1477741595444	-80.6486751629059	-40.2443350565187	-78.9845286894508	-13.4149959276327	-69.7168316335152	
802080000	-17.8102419811068	-21.0843411009086	-39.6442062579872	-82.2656120664466	-40.0055826426294	-80.5027030598444	-13.4031635235313	-71.3588287627878	
802600000	-17.7389664853471	-22.3883726372789	-39.3596846967649	-84.4738456895746	-39.6992417668286	-83.0543365371898	-13.3867652941538	-73.0271756618533	
803120000	-17.6597138324364	-23.9236289292728	-39.1999906561728	-86.8875614477121	-39.5227624876348	-86.7182864808019	-13.3933176493701	-74.5328886330147	
803640000	-17.6365851683588	-25.2326169473908	-39.0157862911539	-90.0985418028725	-39.1344321195643	-89.5123991394289	-13.3772425104114	-76.162113401975	
804160000	-17.5944183418967	-26.4731571027667	-38.7614781990936	-91.9333018029978	-38.9552552341781	-93.4768203734755	-13.3667928858092	-77.7175406661814	
804680000	-17.5771227514136	-27.620497864324	-38.6344360294903	-96.173530682835	-38.7905281684379	-96.7014311814467	-13.3529828140847	-79.3574596474718	
805200000	-17.4939842252915	-28.9590053246129	-38.3074504974822	-99.4936753787953	-38.5424294233057	-100.637057445736	-13.3465478448046	-80.862211371485	
805720000	-17.465342746281	-30.1316142065008	-38.2476209032511	-104.038539029894	-38.4750085632246	-103.761378499739	-13.3607353403369	-82.3734442745199	
806240000	-17.3762443698897	-31.4369291789389	-38.0911694884239	-108.543419666666	-38.4324953453368	-108.515107545775	-13.3681216543382	-83.90467378621	
806760000	-17.2879829978047	-32.8166588228179	-38.2840817058849	-112.830273039138	-38.3731727232998	-111.848702803343	-13.3614101992341	-85.2645880635112	
807280000	-17.2070894028634	-34.3521620306261	-38.3785976919155	-115.963443911855	-38.5555704700952	-117.211225710628	-13.3515968547379	-86.7084566553249	
807800000	-17.1353104038638	-36.0076306555303	-38.6167442112444	-119.030435220797	-38.8164246298591	-120.10353678977	-13.3553730593679	-88.072198688795	
808320000	-17.11012663122	-37.5285886729504	-38.8753133783142	-121.655347889829	-39.1065207623939	-121.976309416351	-13.3506423801059	-89.5754833150691	
808840000	-17.0485902363792	-39.2172150606705	-39.2426615932939	-123.801707177022	-39.1994723829756	-123.603996472197	-13.325476242175	-90.8872396070746	
809360000	-17.0355457406289	-41.0075315148684	-39.2004950700962	-124.524905781678	-39.4352071785379	-124.547312118901	-13.2943543843482	-92.2638585036533	
809880000	-17.0267991157482	-42.7545668794712	-39.2491837366079	-125.826044479331	-39.3619214316786	-125.330289491568	-13.2785539405418	-93.7455709029388	
810400000	-17.0020144529841	-44.2003422418584	-39.1315880843404	-125.98915462856	-39.3094926192026	-124.115360978505	-13.266752479357	-95.3118625672846	
810920000	-17.0267848777234	-45.8227133711371	-38.8414537752302	-126.445894435993	-39.1788203296937	-124.85777403265	-13.2368289523171	-96.7023009174164	
811440000	-16.9890506104518	-47.2254862118212	-38.6344518415661	-128.100113984825	-38.7615663730248	-127.289174437976	-13.223443994486	-98.1859634545611	
811960000	-16.9878351038564	-48.7170368544176	-38.3847371841866	-130.731247317952	-38.569560809149	-129.003981318024	-13.2135868614974	-99.5570581638904	
812480000	-16.9890343692751	-49.9744635152423	-38.0819363438958	-132.181367169449	-38.2067678222561	-131.910930065182	-13.1846271866696	-101.130355124183	
813000000	-16.9523300432687	-51.5999407876462	-37.7223874490992	-135.469699608753	-37.9110798811044	-133.830288988562	-13.1698587060139	-102.476099622232	
813520000	-16.9401967616882	-53.0473319422229	-37.5919674934689	-137.529746771354	-37.6573836845027	-137.237026741042	-13.1387043324194	-104.06595358102	
814040000	-16.9166386659178	-54.5051711308315	-37.3980803011139	-141.769418493633	-37.1853029977046	-139.992445876242	-13.1279843682683	-105.566702524913	
814560000	-16.880725575915	-56.0414742762176	-37.2124245865322	-146.762467875718	-37.1583794995123	-145.22242386828	-13.1043991211804	-107.069607229951	
815080000	-16.876653772874	-57.5487393336787	-36.9922601393171	-149.652852980262	-37.1072730125902	-148.812180994101	-13.1065164539162	-108.490000847936	
815600000	-16.8853366067909	-59.0884779091647	-37.0734150165193	-154.293583261866	-36.9340648867869	-152.417963886053	-13.0793961542547	-110.038339265239	
816120000	-16.8526256551143	-60.5549085739429	-37.1688094290724	-156.705175093839	-37.0367925745665	-157.770203972805	-13.0689465093244	-111.527109443926	
816640000	-16.8617946599362	-62.065572096049	-37.2543908140371	-159.771798600016	-37.1508642615353	-159.875123543042	-13.0543596143833	-113.051153816405	
817160000	-16.8355573812417	-63.486324871868	-37.2231573787257	-163.533533663781	-37.0447891054992	-164.672173893799	-13.0312676727823	-114.613710505196	
817680000	-16.8301338258075	-64.941017661697	-37.3690813768338	-166.797201371561	-37.3511423351043	-167.64290852624	-13.0301003462835	-116.104160623338	
818200000	-16.8111644279595	-66.3719498129325	-37.4790211547296	-169.277969619302	-37.5708061429654	-169.459760751811	-13.0210376489874	-117.668389487615	
818720000	-16.795669900497	-67.9625389423045	-37.6030040597462	-170.889602242382	-37.5426448420635	-171.570142134785	-13.0210628656474	-119.169514770963	
819240000	-16.8027876693973	-69.4275137222515	-37.6156549293496	-171.525285227236	-37.6066264990545	-172.362549952983	-13.0074996578632	-120.648053267418	
819760000	-16.789340980119	-70.8763100129045	-37.5397414192661	-172.899230726334	-37.6973091893517	-173.829740742379	-13.0100777664015	-122.08358385793	
820280000	-16.7797256272449	-72.3887713088374	-37.3428847371088	-174.463570500436	-37.4130754466389	-175.397214555064	-12.9988660944634	-123.560954611298	
820800000	-16.7627293604032	-73.8157769658912	-37.0834724422614	-176.924135636439	-37.2773667361097	-178.556116510615	-13.0065200647005	-125.019416225078	
821320000	-16.7646305157072	-75.3508798573187	-36.911752589222	-179.644766448374	-37.1264318802357	179.358420652345	-12.9927921019238	-126.346304943773	
821840000	-16.7491396076426	-76.620926108668	-36.7589980632627	176.823503749445	-37.0329449366307	175.410560414195	-12.9873218362155	-127.742397223072	
822360000	-16.7283411205402	-78.1069092686253	-36.7621722731385	173.078358608385	-36.964459112982	173.398843933404	-12.961058140441	-129.178212612541	
822880000	-16.7171274024842	-79.4931636524719	-36.7614363544068	169.501192125153	-36.9274292406489	169.602260932758	-12.9415367700208	-130.586785251525	
823400000	-16.6972174887509	-80.9114380882674	-36.7439772798078	166.710473008884	-37.0662524356517	166.497055478266	-12.9311736067264	-131.953975691974	
823920000	-16.6687197958972	-82.4078756304094	-36.9860018714395	163.423887613802	-36.8428097510066	164.028969517964	-12.9094125255252	-133.404876211534	
824440000	-16.6542801817895	-83.9892917842627	-36.698825739323	161.774151789146	-36.9746270943387	161.973317064788	-12.8948534800628	-134.920248538322	
824960000	-16.6107157045949	-85.255694107175	-36.7185101118842	159.013567225937	-36.962914060941	159.005607570447	-12.8760948595656	-136.43193232214	
825480000	-16.5914372752565	-86.7309254288616	-36.5576955553882	156.554008927351	-36.8762144304868	156.173296355066	-12.8542602426668	-137.881116367954	
826000000	-16.5422639848398	-88.2527625661817	-36.4091818274271	152.960244982263	-36.7313067708394	153.369716276917	-12.8376817444074	-139.285852671092	
826520000	-16.5261495779653	-89.8287179973829	-36.5143589433514	149.306138636455	-36.7333204210639	151.044643164752	-12.8134202625792	-140.834034711467	
827040000	-16.4768287183324	-91.4159415411269	-36.5186041526437	146.522359408751	-36.6834265769984	147.142315250128	-12.7855728910822	-142.357850342373	
827560000	-16.4715254119281	-93.0641344664514	-36.4426728353205	143.947429149117	-36.8051617011481	144.943800024994	-12.7734191135595	-143.845080074401	
828080000	-16.4194729489206	-94.6318128514705	-36.4862933615998	140.81720476614	-36.7081526194125	141.554228946678	-12.7560976234037	-145.481684438536	
828600000	-16.4350677637215	-96.2564237039071	-36.6267984590191	138.617741279569	-36.6735062103901	140.438715120348	-12.7334364301365	-146.908132564248	
829120000	-16.4174618697568	-97.7935484964304	-36.5705669693778	136.863593148742	-36.7584685574172	136.586221376817	-12.7266478703239	-148.434212073317	
829640000	-16.374233974935	-99.3329017123087	-36.3663401871287	133.447291956548	-36.7143641114701	134.718691048278	-12.7188223446311	-150.057183673171	
830160000	-16.3669015633727	-100.835175391956	-36.4312143334818	131.691143606962	-36.4903527720915	131.866271656487	-12.7051624912826	-151.572507565275	
830680000	-16.348745795408	-102.432671635084	-36.4173092669087	127.548524724809	-36.3872508983932	128.289760142414	-12.7002280350436	-153.015805919143	
831200000	-16.3188755215546	-103.994535718853	-36.1436924031241	124.312948045761	-36.3096279808958	125.499628207185	-12.6785922914414	-154.53859084453	
831720000	-16.2629566542584	-105.613418944702	-36.1473411463842	120.824269470482	-36.3363825061379	122.558592841821	-12.6738123994523	-155.945954821213	
832240000	-16.2439148215358	-107.308499103133	-36.4196998816865	116.837488739869	-36.3436293946706	118.002144268228	-12.6443982083254	-157.510543592849	
832760000	-16.2091157648952	-109.12989417157	-36.3122365020165	114.087078632762	-36.4412400959374	114.975171230789	-12.6357989332299	-159.045809477227	
833280000	-16.2059298412233	-110.75710524517	-36.630505845029	110.596576052849	-36.6125988189147	112.128882696733	-12.6288462328094	-160.515320540272	
833800000	-16.191006870629	-112.405577752668	-36.6036952784676	109.394318385543	-36.8194160951373	109.046251535198	-12.6128884673838	-162.013166264389	
834320000	-16.1763910424725	-114.05895792064	-36.8426315299916	106.780670782812	-36.8109279768329	106.201940718958	-12.5897804959683	-163.585491119117	
834840000	-16.1658632376087	-115.692343718453	-36.7346466656017	104.032115077816	-36.8613355176075	104.394339819138	-12.571949935461	-165.055679377529	
835360000	-16.1655689808398	-117.252249676528	-36.8155211256798	101.929918589387	-36.9619998449232	101.756108527569	-12.5665834227558	-166.601747287109	
835880000	-16.1336649393718	-118.938374469229	-36.7932725978191	99.7586609756947	-37.0185273535446	99.3923430716635	-12.5370836915908	-168.140920437788	
836400000	-16.1167099603293	-120.326966042132	-36.7670422583421	96.5396845380699	-37.0993722914885	97.2413903447223	-12.5299761252996	-169.745405444218	
836920000	-16.1078639092313	-121.860970849282	-36.8025145215052	95.4119432860018	-37.1382161984611	94.5565077929814	-12.5229808010984	-171.297247220141	
837440000	-16.0579299271651	-123.390053114688	-36.8568055591555	92.899972368497	-37.1441347864978	92.7501135760294	-12.4987677017757	-172.835504833776	
837960000	-15.9894302293596	-125.033256245741	-36.775359696562	89.6856044720077	-36.9359780721073	89.7667365380836	-12.4880207513365	-174.462988545509	
838480000	-15.9468928897319	-126.572263749939	-36.5931406896321	86.7590727692884	-36.8643146834651	87.0561397548226	-12.4785786471261	-175.917881293154	
839000000	-15.8806977647484	-128.530504683567	-36.7550932624721	83.8094479017523	-37.002199525408	83.7869637654164	-12.4568180626481	-177.493380721404	
839520000	-15.8288916274952	-130.319246646572	-36.7213875323917	80.5891094939601	-36.9275325433391	80.800639218119	-12.4561645228407	-179.139870114894	
840040000	-15.8033464584079	-132.34653485354	-36.7948529378442	77.6539229148438	-36.9916685281695	77.3761874821186	-12.4353817035844	179.253168050587	
840560000	-15.7928745244157	-134.080043699136	-36.8935674176626	74.2634836694662	-36.9472803032804	74.4701684006373	-12.4347734919173	177.706367815194	
841080000	-15.7822512760515	-136.090079253834	-36.7609947126413	70.0912345092041	-37.0983934756216	70.3193408060307	-12.4340089456407	176.047167617383	
841600000	-15.7805306270873	-137.750109215631	-36.9058815658661	68.7558195659253	-37.1626047533196	68.3829133746269	-12.4273984894558	174.575665091041	
842120000	-15.7755954483081	-139.534274281831	-37.0959991348636	65.1352053977277	-37.4340060418345	65.7495208126095	-12.4313663461359	173.003735654127	
842640000	-15.754976491107	-141.437952566989	-37.249125099646	62.4987132793345	-37.513252297365	63.0906321133511	-12.4442173035762	171.571666988337	
843160000	-15.7220484167127	-142.963105683375	-37.2163897701596	60.9012582224716	-37.6793064741429	60.9019811991611	-12.4399292121961	169.950810801167	
843680000	-15.7200650517368	-144.780909443157	-37.2330074368284	58.6127526877075	-37.8051677270963	58.9438972926481	-12.4363042411396	168.498736645424	
844200000	-15.7101962313864	-146.655616320399	-37.4220538279431	55.4002512602057	-37.9068945401869	56.652358683503	-12.4401482646002	166.932294346249	
844720000	-15.6988608655098	-148.475828617039	-37.4448785927191	54.4044049014058	-37.9144926101743	54.6704829688462	-12.4448817538842	165.440202613705	
845240000	-15.7074708756724	-150.211942444023	-37.5242761209356	52.1189944633405	-37.9609950569854	51.8958554586092	-12.4203992476307	164.086259903025	
845760000	-15.694518126718	-151.915925602525	-37.4630838552486	48.7992993703292	-37.7994030704724	50.0076530777496	-12.424020718892	162.562346922592	
846280000	-15.707010881121	-153.745162599952	-37.4159177448117	46.5984319375776	-37.957792442549	47.9273666076352	-12.4216188872207	161.113940587226	
846800000	-15.6790065761054	-155.169389469337	-37.5729249413888	43.2291690753198	-38.033037208651	44.6006461192143	-12.4110669815557	159.6804303665	
847320000	-15.6763039170174	-156.716146216028	-37.7230406636949	40.9134735161828	-37.9853232520107	42.8903056953004	-12.4078089921785	158.182183664614	
847840000	-15.6384134096677	-158.291828366997	-37.694062454214	39.5382701664338	-38.2634421217236	40.4316686160755	-12.3880633630666	156.780621181447	
848360000	-15.613757703354	-159.980206085062	-37.7613363340322	36.1152821561287	-38.2457925608273	39.050297589594	-12.3579704344393	155.364498955518	
848880000	-15.5925151208976	-161.718985097773	-37.7257522470838	33.692187420934	-38.1927327630464	36.2488003403529	-12.3711127386984	153.821533997194	
849400000	-15.563392861487	-163.419689186075	-37.7219145822024	31.5074083422745	-38.1731431591165	33.1145553554393	-12.3293359236819	152.251127160298	
849920000	-15.5357653615271	-164.94597933336	-37.7573374044789	29.5947540573517	-38.1937823796551	30.7684190388103	-12.3186015489355	150.787881393823	
850440000	-15.5087486956721	-166.744942917913	-37.6402158710337	25.9839229238927	-38.1320725005197	28.2406581008428	-12.2992476824925	149.104582002246	
850960000	-15.5003211069375	-168.39800668545	-37.7362690817592	23.537863487484	-38.1262727514445	26.4651733019193	-12.2961996228842	147.595052748533	
851480000	-15.4625872351614	-170.018461432752	-37.9347725443021	20.0593628937426	-38.1894985664862	23.0233082672883	-12.2859702747719	146.035071059425	
852000000	-15.4208193721595	-171.621710808897	-37.7445264856686	17.5663898479172	-38.2389054896838	21.3629813005252	-12.272866292805	144.573494395853	
852520000	-15.397612027641	-173.297427084795	-37.9282163165761	15.6703192042605	-38.2246508756272	17.8543490176508	-12.264606037351	143.127947108285	
853040000	-15.3332585063757	-175.034384471678	-38.1109181393876	12.0586074863114	-38.3173182428649	14.6833367936368	-12.2462179921124	141.68338472188	
853560000	-15.3040155125759	-176.579401728036	-38.084707692566	8.92545312602065	-38.4294272079447	11.2830034073667	-12.2320054520868	140.229678838846	
854080000	-15.2377629100788	-178.151820952659	-38.2393185600107	6.06271493840971	-38.4241833177439	8.76700611569536	-12.233179017622	138.734018121197	
854600000	-15.1866213786657	-179.984503262687	-38.5312679841384	3.7068208168978	-38.618449248377	5.33596329439921	-12.197250591718	137.243896873609	
855120000	-15.1495771265044	178.372771476289	-38.5376972202316	0.234217694577393	-38.7834308838156	4.109262456164	-12.1978624466997	135.649176929334	
855640000	-15.0968055786443	176.654104870165	-38.7172315798166	-0.0207031439210982	-38.9375055465739	1.19349727461513	-12.1509184200773	134.247367312513	
856160000	-15.0050960123582	175.048762934561	-38.8813483321331	-3.23174789408489	-39.1631189637428	-0.486781066630752	-12.1390411004384	132.737855269013	
856680000	-14.9553689844183	173.278298909113	-39.0446544556475	-5.40759479337273	-39.3572889904258	-4.2791527185646	-12.1240267330169	131.161159659665	
857200000	-14.8929742500051	171.523747770291	-39.1431500105019	-7.11696402190133	-39.3502814845303	-4.88127050363015	-12.1025936849625	129.680030540306	
857720000	-14.8303085942388	169.666277999275	-39.2979989413131	-9.26243438869108	-39.5022159231328	-6.13300629907741	-12.1047422889558	128.029402891263	
858240000	-14.7443610886655	167.87464656476	-39.1036932481777	-9.83411844770905	-39.4765121026586	-8.21145221559676	-12.0819851532038	126.544181723744	
858760000	-14.6717823048062	165.971009542394	-39.1742539460963	-12.4016538341274	-39.5160741493553	-10.9897422784761	-12.064326327759	125.031511956598	
859280000	-14.605496534663	164.058495951423	-39.4996343751016	-14.6916387187156	-39.7118855479208	-12.5614235143494	-12.0632844764887	123.422360079166	
859800000	-14.5462931155979	162.141640536252	-39.508016991511	-17.8137280422543	-39.5263075296166	-15.2700111778238	-12.0515168639488	121.997714544491	
860320000	-14.5017566538851	160.255466704056	-39.4243386741133	-18.479038555177	-39.5329229309442	-16.5717773895412	-12.0375805130011	120.408179979978	
860840000	-14.432245741805	158.232734751027	-39.3945295586765	-21.3047781872831	-39.5519603998962	-18.5252304897584	-12.0196518723453	118.933892864221	
861360000	-14.3641948910989	156.329547437739	-39.284692841175	-25.0976633374052	-39.4533552890047	-21.369635403625	-12.0007932248107	117.544374597684	
861880000	-14.3097926973171	154.272037395048	-39.5086293706313	-26.6256864030933	-39.666215838879	-24.7573042358152	-11.9911821653213	115.994741560027	
862400000	-14.238705411429	152.192601972186	-39.6774897657363	-30.5085366040987	-39.7465562601784	-28.1049057151288	-11.9656416638111	114.481470467381	
862920000	-14.1819179816367	149.942608394754	-39.9223882700708	-32.7032505344668	-39.9450808899612	-29.4759371559511	-11.9460447950479	112.990655374976	
863440000	-14.153303925919	147.906852008634	-39.8507807061541	-34.3237539820366	-39.9934555732764	-31.5644735377997	-11.925896415625	111.561080308022	
863960000	-14.1541395507146	145.797581193602	-39.8970172296282	-36.2386151552855	-39.9880163117655	-34.150830804236	-11.9113004724132	110.041613921915	
864480000	-14.1217383411226	143.698311797132	-40.1204176837785	-38.3012432035404	-40.1392280807427	-34.7045327576006	-11.8865374167421	108.541547158311	
865000000	-14.0929005397361	141.858953729616	-40.0666279909685	-39.7882177940272	-40.244947510466	-37.410772620198	-11.8631192679945	106.966380871539	
865520000	-14.0718156244893	139.824024675171	-40.1273015415202	-41.9710035632151	-40.2521422830199	-37.7192341620341	-11.8331078365184	105.487134090982	
