!Keysight Technologies N9923A: A.08.15
!Date: Friday, 16 February 2024 23:07:25
!Timezone: (GMT-05:00) Eastern Time (US & Canada)
!Model: N9923A
!Serial: MY52412730
!GPS Latitude: 
!GPS Longitude: 
!GPS TimeStamp: 0001-01-01 00:00:00Z
!GPS Seconds Since Last Read: 0
!CHECKSUM:0541285042
!Correction: S11(ON Q)S21(ON Q)S12(ON Q)S22(ON Q)
!S2P File: Measurements:S11,S21,S12,S22:
# Hz S DB R 50
800000000	-7.74450916467629	85.8987333931462	-37.3081848375905	-59.5084883460152	-37.2971628411247	-61.3265492946403	-13.4260723120359	-64.6526119023894	
800520000	-7.74817163626022	84.3078353693687	-37.2928558486459	-61.4750308372803	-37.3727605591383	-62.2282524450513	-13.3958699416363	-66.4300668371064	
801040000	-7.7672345594658	82.7903868291747	-37.2466731553101	-63.7080172781399	-37.489827552583	-64.9879988861035	-13.3715409917014	-68.174996792739	
801560000	-7.7898656822945	81.249554187716	-37.2512738169162	-65.6040325717487	-37.5322495762515	-66.8879119127534	-13.3584955612896	-69.927135486221	
802080000	-7.79892174199132	79.800643411832	-37.312715168075	-67.8142352006225	-37.5300770363834	-69.8917156280605	-13.3424983272425	-71.5450066575656	
802600000	-7.82938003118102	78.2555241602488	-37.3853532621979	-70.3477393625343	-37.3958352869585	-71.9336813144287	-13.326895099614	-73.1912538254286	
803120000	-7.8367772627341	76.802313331942	-37.3751207942049	-72.6410992685276	-37.4863364672601	-74.8751440925964	-13.3264236976274	-74.7323601648311	
803640000	-7.86796914542611	75.3804882857651	-37.4181318224116	-73.9848365030348	-37.5402318963898	-76.5009078792668	-13.3074340328006	-76.1599592030619	
804160000	-7.87488168109267	73.9284966028428	-37.4565173464876	-77.105294187702	-37.4650087051529	-78.604955056504	-13.3141179326967	-77.8452832513503	
804680000	-7.88390825264161	72.5687300723432	-37.2650438389009	-78.9989398392188	-37.4799475325274	-80.5585148813492	-13.286359243074	-79.3473099669508	
805200000	-7.89928403299681	71.0527329011232	-37.2866349090228	-81.0240350069016	-37.3000577583953	-82.8974862827643	-13.2784959608798	-80.9585677457746	
805720000	-7.91269862948638	69.5656631930962	-37.0640823882188	-83.5751207587401	-37.1861771650525	-86.015273734329	-13.2942021477413	-82.4643461939085	
806240000	-7.90419686589796	68.0222327188466	-36.9811860391066	-88.2067701703089	-37.1917290321238	-89.5451949235317	-13.2682368211764	-83.9708858383354	
806760000	-7.91879959335675	66.5227908822575	-37.1400625534773	-91.4683006080003	-37.2507813154034	-93.4163712935118	-13.2633610431315	-85.4402302411097	
807280000	-7.92686097107704	64.9925103484468	-37.1124083179989	-94.1443784831661	-37.4209234148657	-95.6352027803149	-13.2613447531033	-86.8440717864396	
807800000	-7.94210097882491	63.4042500443401	-37.3254368226112	-97.0862156467265	-37.5072414655311	-98.2915102751342	-13.2436576215617	-88.2962723987034	
808320000	-7.95625206688132	61.9368581824966	-37.5121153207271	-98.9627869714238	-37.4843385823023	-100.570458968643	-13.2417031526557	-89.8313877101028	
808840000	-7.96754923030205	60.343256841154	-37.4078665159291	-101.098749749078	-37.6523623425368	-102.409996699175	-13.2265072044603	-91.2625732752739	
809360000	-7.99016973315846	58.8111664731063	-37.4534485689465	-102.949195299955	-37.6439080499778	-103.760915986362	-13.2093086125232	-92.6664031944241	
809880000	-8.01302479666071	57.2542632982307	-37.4154348802559	-105.490089286984	-37.6810438695147	-105.798491970758	-13.2034968947562	-94.2268774847033	
810400000	-8.03529338170028	55.7240859312863	-37.4086774429021	-106.896257174223	-37.4703754554791	-107.466481429543	-13.2153776198998	-95.682878601455	
810920000	-8.06811081400967	54.2692851607792	-37.2947432417881	-107.754600131754	-37.4406139498109	-109.216438971333	-13.1893436499995	-97.0872037579425	
811440000	-8.08498123923818	52.6763394747439	-37.19014394302	-110.934906106925	-37.2673040393336	-111.142954319695	-13.1798845103561	-98.5489282516962	
811960000	-8.1192250250599	51.1614998872602	-37.0936403311571	-114.063260972338	-37.0690716299392	-115.050228184696	-13.1833208072261	-99.9130641781178	
812480000	-8.13350381465569	49.6907411035941	-36.7896190600149	-117.000703043123	-36.9092079322987	-118.379227195148	-13.1534362039817	-101.360038662757	
813000000	-8.16087526592792	48.1960988003042	-36.8295753030598	-118.618846833977	-36.9699053386218	-120.776277674765	-13.140392028225	-102.746110655581	
813520000	-8.17982264976218	46.7093271557781	-36.8293662828563	-123.252681853866	-36.9128371538752	-124.635957116804	-13.1230144781592	-104.239463277958	
814040000	-8.20148825061808	45.2490466764944	-36.7805456232914	-125.217301371928	-36.8197252302359	-127.138974585097	-13.1066285222963	-105.638698178997	
814560000	-8.21918140750006	43.6811371171291	-36.7337765264824	-128.439827080115	-36.7385536676828	-129.160247181792	-13.0939659008233	-107.081870024319	
815080000	-8.23713152569364	42.2818134103406	-36.6023772726002	-130.982124921069	-36.6820001435189	-131.984727731446	-13.0761800232775	-108.470056466723	
815600000	-8.26871454030219	40.7533832275227	-36.6653550210136	-134.249911293332	-36.6370417919217	-136.365578758775	-13.0428263187071	-110.032952153484	
816120000	-8.28520019746375	39.2238428109466	-36.4828930821549	-137.743412214331	-36.7368956248602	-139.025899839108	-13.026833059367	-111.381775883635	
816640000	-8.29988165724801	37.705662151007	-36.4778789037204	-140.946681058103	-36.5553893381333	-142.726729573482	-13.0039280144134	-112.888856816735	
817160000	-8.32461828435611	36.120070295172	-36.5852777889332	-143.58121308848	-36.6046981114313	-145.79305378907	-12.9845575023415	-114.49541069115	
817680000	-8.34440475234662	34.6985428550761	-36.6232456413748	-147.523381540402	-36.6860541693329	-148.627954136256	-12.9752970415199	-115.882843114806	
818200000	-8.3841114661213	33.0351301537568	-36.7609560711778	-150.108519351248	-36.8148519652763	-151.768534989773	-12.9611143625027	-117.420521803889	
818720000	-8.3957628689481	31.5817656019635	-36.8093624547728	-152.681154713872	-36.8892687549975	-154.357817674077	-12.955092231061	-118.929091043901	
819240000	-8.42718660772183	30.0152123334588	-36.6461798087606	-154.515500513662	-36.8493885244697	-156.657392948948	-12.935196425025	-120.330514957093	
819760000	-8.43311594170718	28.4618791838794	-36.5781909831035	-156.636543387791	-36.6637467986385	-158.084058382939	-12.9286288482055	-121.711091112808	
820280000	-8.46925972322556	26.8779053521274	-36.4106679156706	-158.892323021606	-36.6007978306796	-160.274750621901	-12.909487668873	-123.228553290103	
820800000	-8.49724742135278	25.2732638369769	-36.145938926185	-163.23430277135	-36.481056997903	-163.60346723497	-12.9092960788281	-124.690102500209	
821320000	-8.53643626351962	23.7492238147648	-36.0943121857568	-166.231546484245	-36.2390317545946	-167.77992024249	-12.8834749870621	-126.026077673244	
821840000	-8.56307429400429	22.1957968236965	-36.062964382051	-170.33552820764	-36.1483076425735	-171.999190682301	-12.8638753995707	-127.436824606119	
822360000	-8.60597119437107	20.6319911178179	-36.0692960730854	-174.465314571335	-36.2375862129458	-175.539127267025	-12.8288709799775	-128.886605834507	
822880000	-8.62940039785861	19.1637061378274	-36.0718759614663	-178.9755166315	-36.2896539179766	179.426885302048	-12.8147242830369	-130.331844172412	
823400000	-8.66798212722232	17.677566636846	-36.2598047448307	177.449314843684	-36.4612888065151	175.829849339982	-12.7848019509297	-131.897030038077	
823920000	-8.70208351519976	16.1414034843449	-36.4193634633971	175.245921422771	-36.5498954210624	173.013589436941	-12.7525131540553	-133.414303167232	
824440000	-8.73796338135714	14.6268162939108	-36.4932925006259	171.373306930079	-36.7681841648261	170.780023020877	-12.7443197586465	-134.975457274615	
824960000	-8.76495487620153	13.063070599771	-36.6252176939959	169.454713949523	-36.8495381740175	167.832598505322	-12.7094750553558	-136.525639572453	
825480000	-8.7924620806567	11.5625933419379	-36.4766975003569	166.208902426347	-36.9108392060109	165.113543008799	-12.7053517021623	-138.06494450483	
826000000	-8.82415554417091	9.98356470090862	-36.6479775243056	163.405532287815	-36.8839395211198	162.548786831802	-12.6939765968672	-139.488166023418	
826520000	-8.86084055763898	8.40617904551529	-36.7344298385095	160.172553495945	-37.1282039819767	160.297435471071	-12.676231250741	-141.023041461867	
827040000	-8.90073752557776	6.81213403590424	-36.7311760152724	156.698293194832	-37.0072595562624	156.13188877821	-12.6611001103258	-142.62348494086	
827560000	-8.93472862345351	5.29086653477517	-36.6862336390163	153.980342574323	-37.0598271114685	153.844633353798	-12.6447588984409	-144.089241849275	
828080000	-8.96452529467859	3.65401692431409	-36.7384606711193	150.892166757737	-37.1992985157302	151.051427832872	-12.6280983771364	-145.66926523678	
828600000	-9.01321954591093	2.14452480900301	-36.906396679792	147.978799265175	-37.1332356598898	148.077029461204	-12.613721813329	-147.168795033071	
829120000	-9.06641465306026	0.52627498381828	-37.0655695094749	144.665097296417	-37.1451709517464	145.076056648362	-12.6086693099918	-148.640922949056	
829640000	-9.11029075128797	-1.05146432637025	-37.0241703002349	142.184790117729	-37.3019585667632	141.856885781973	-12.6154304942423	-150.234777966699	
830160000	-9.15120975060425	-2.54746798601465	-36.9913727180664	138.599177688112	-37.3883615608727	138.585138447818	-12.6107381222214	-151.727535980852	
830680000	-9.20404942336041	-4.06174285851265	-37.0156101115627	135.230768195196	-37.2322452760463	135.10906844853	-12.5975394528405	-153.091406174219	
831200000	-9.252101383807	-5.65774469485832	-37.0607570266291	131.76083071053	-37.3348942809407	131.669001630014	-12.5848669836753	-154.578317565966	
831720000	-9.30005809114816	-7.25689940713251	-37.1623432146173	127.852398390129	-37.3660669471432	129.532335761724	-12.5724001564291	-156.029808081563	
832240000	-9.35870567003931	-8.69786546182372	-37.2511268763256	126.362603467495	-37.4693091178918	125.753368614349	-12.5437981148286	-157.538690045839	
832760000	-9.40740270179181	-10.2540090179314	-37.4074392783427	122.234785203306	-37.6329920301189	122.94573097262	-12.5243722666968	-159.075289462925	
833280000	-9.43793417185061	-11.7252017464898	-37.4092109799119	119.376413047966	-37.7683850653678	120.14343247726	-12.5083841658574	-160.578224270157	
833800000	-9.48162862985293	-13.2323192444601	-37.5807895256188	116.959335430199	-37.7616345583569	117.540615572343	-12.5112412593973	-162.126513926608	
834320000	-9.53867678029233	-14.7914274726612	-37.6255703554053	113.178854006468	-37.7011202052369	113.364646167638	-12.4909116471348	-163.647335992991	
834840000	-9.59594065859213	-16.3537924093783	-37.8804376088766	110.199197258472	-37.8660665812723	110.992954244344	-12.4787722605495	-165.070880233057	
835360000	-9.64061820790409	-17.916909449249	-37.8705620362614	108.225813558302	-37.9218432918628	107.596867659215	-12.4662107736742	-166.497598561877	
835880000	-9.7019544860897	-19.4247322062728	-37.9950308027735	104.341791770606	-38.1084043961321	104.297023624273	-12.4488549434494	-168.051802619198	
836400000	-9.75136833768558	-20.9874996227023	-38.1297480755224	102.164425817675	-38.2623179794714	100.723178347007	-12.4402559348901	-169.587828576163	
836920000	-9.80274183611264	-22.4418432857012	-38.0835205096241	99.2221873321276	-38.5011572662507	99.0213294247659	-12.4211036862991	-171.060312594373	
837440000	-9.86290972309284	-24.0623105880131	-38.2205808691261	97.0445636128458	-38.4543624318899	96.7636784396312	-12.3954365141185	-172.651439902793	
837960000	-9.91990539251258	-25.5821247448416	-38.3772541944426	93.8940105314591	-38.5337848120712	94.0371811553497	-12.3750105338157	-174.090954053498	
838480000	-9.96041506200258	-27.2006783215206	-38.3965323522665	89.6404902420796	-38.671056800353	90.9003224192786	-12.3469475504503	-175.58219490145	
839000000	-10.0325057222619	-28.7882012433839	-38.7184319467426	87.3142869649949	-38.5916254876165	87.588658595103	-12.3296028029987	-177.077884708078	
839520000	-10.1022928073982	-30.3468778882581	-38.7764127970297	83.9758012339358	-38.7659558583581	84.0901731202305	-12.3090906244124	-178.653149668877	
840040000	-10.1746504503725	-31.9754007124725	-38.8834328475557	81.2085683983189	-38.9019612179597	81.5439069907411	-12.2888724853904	179.759590206123	
840560000	-10.2387788683775	-33.5409754066315	-39.0597400487316	78.6379366334919	-39.0832114750549	78.5537676295775	-12.2746670472883	178.13254056902	
841080000	-10.3247080995292	-34.9882948658695	-39.1570192958408	75.3280331546509	-39.1895671302806	75.1646589011833	-12.2667007164975	176.543528665442	
841600000	-10.397876646677	-36.5361167852152	-39.3252868481043	72.5657425625973	-39.5125527373519	71.561252715345	-12.2405884529068	174.963647255509	
842120000	-10.4733558021864	-37.9709658978006	-39.7392204330934	71.3508761885398	-39.7525811205377	69.2081085835791	-12.2506821181281	173.470046698224	
842640000	-10.5530566726258	-39.5117752367684	-39.9299606652769	67.9190378227394	-40.1309902245146	67.7910293933177	-12.2426061132134	171.898928007082	
843160000	-10.6226461762926	-40.8843467365392	-40.184282916775	66.0918168145351	-40.2116577518119	66.5566591202418	-12.2374852370399	170.389856548897	
843680000	-10.6818349659865	-42.3576177987313	-40.2454326557318	65.5328766865873	-40.677951431066	65.0312303003812	-12.2390394559285	168.859043501261	
844200000	-10.768523476876	-43.7820560332327	-40.3528845906827	63.4849444802618	-40.5997552436171	63.4503855833429	-12.2306879763297	167.365170424578	
844720000	-10.8376228868954	-45.2483089892815	-40.5224329689348	61.9572523897994	-40.7412139196223	63.5463254932173	-12.2270264218042	165.891502927439	
845240000	-10.8987169812126	-46.6947928329954	-40.4977103136285	60.5568441466411	-40.5792759482572	60.6598024377775	-12.2051733472345	164.431592527105	
845760000	-10.9708942846502	-48.2495548696275	-40.5034422431447	58.3309676876484	-40.6277763233147	60.0351339192717	-12.2013311507821	162.882594852012	
846280000	-11.0590370883731	-49.665337974103	-40.4363588510625	55.9262759849365	-40.6746034095361	56.8629922691911	-12.1926968151336	161.481468368501	
846800000	-11.1333182303198	-51.2382659138119	-40.4825949057845	54.5657561081062	-40.6727682527709	54.6207240516735	-12.1724397234128	160.014503840051	
847320000	-11.2008707794762	-52.6063351011379	-40.6164401326407	53.3867862309927	-40.5069825884941	52.2140144279789	-12.156430140346	158.557359516947	
847840000	-11.2786649591737	-54.1411393998176	-40.6284674549915	50.3316656816323	-40.5038018053893	49.1180728973131	-12.1319011810478	157.119762398325	
848360000	-11.3578588328473	-55.5780080179232	-40.4669939305189	47.882557135098	-40.6264648991698	48.2653228200386	-12.1039247974427	155.64648121526	
848880000	-11.4348419769715	-56.9967974707961	-40.5452076575458	46.6513603611433	-40.4990089961434	45.2294244789457	-12.0989564371016	154.05330590517	
849400000	-11.5274395978929	-58.3701978338156	-40.4630149962132	44.1316717675252	-40.4198758350906	43.7807397848224	-12.0568527989425	152.425603358813	
849920000	-11.5772935628574	-59.8781313334959	-40.4031156046327	41.6770718945279	-40.4588208510381	41.2502263212677	-12.0484267734623	150.85439681969	
850440000	-11.6540391521947	-61.3768562627121	-40.4798852123139	37.9729283768735	-40.5058151691787	38.8299617644003	-12.0378584704943	149.225479806057	
850960000	-11.7531353340892	-62.797779757352	-40.3209338443155	34.9909675138729	-40.2776077757623	35.0327903024287	-12.0310123149933	147.680978771932	
851480000	-11.8087534401516	-64.2453998999572	-40.3369738740728	34.5688944201688	-40.2029761552919	33.1766120953111	-12.0123310516172	146.046840166314	
852000000	-11.9014464277693	-65.8051485614605	-39.9953839766473	30.1187795014938	-40.2757617645518	30.545970907996	-12.0011212611151	144.498839207722	
852520000	-11.974922772862	-67.3075853365111	-40.0292665625809	28.4253689418361	-40.0567386641015	26.540495699712	-11.9901316813682	142.995530034028	
853040000	-12.0587446285854	-68.8312428987018	-39.9820620720502	22.8410523239254	-40.174314341478	23.0715746683904	-11.9977825629975	141.549097355631	
853560000	-12.1455076716217	-70.3454821874732	-39.9409583572886	20.5775940546191	-40.1817226202693	19.8722885320713	-11.9862473131463	140.045236795984	
854080000	-12.2382127144856	-71.87277364531	-40.0840689951319	16.2454710041473	-40.0897858740328	16.1831556311708	-11.9683812151168	138.597215578023	
854600000	-12.3350006014213	-73.2866218081845	-40.2119762115936	14.1911950194569	-40.3927552647281	11.9553163505342	-11.9578193855017	137.124025738707	
855120000	-12.4264855331186	-74.8226208382912	-40.6090163729777	10.2081154221562	-40.8333892054738	9.16254824570985	-11.9431842298856	135.592433277956	
855640000	-12.5197363806238	-76.2484664671584	-40.6049276119181	8.51372194192256	-40.7621539198039	7.72392435932	-11.9149858015586	134.104781638491	
856160000	-12.6123531270452	-77.8234151282903	-40.7004998661359	5.38556575946111	-40.8275815902878	5.56051219986251	-11.8957916116457	132.627198139079	
856680000	-12.714971553002	-79.1995882295472	-40.7060071382541	2.46895875208918	-40.8295730555606	3.2758353730632	-11.8893972484266	131.061760511055	
857200000	-12.8045658501056	-80.7206411379793	-40.9380962610902	-0.697672211604766	-40.9932466407598	0.0216574233186274	-11.8674715618222	129.470406030498	
857720000	-12.9052915527237	-82.0788620053386	-41.1864557030801	-1.85556227931648	-41.0528987898537	-2.46982788657903	-11.8511919278412	127.971554939432	
858240000	-12.9888430762961	-83.5980809381113	-41.1448061900137	-4.294824672085	-41.3767201332566	-3.30830177160224	-11.8324026252792	126.425843935846	
858760000	-13.0807914260593	-85.1583835164917	-41.0548669353772	-5.35377654493961	-41.0665772783287	-4.720533123686	-11.8323691695753	124.889746602665	
859280000	-13.1768182690188	-86.6658586644367	-40.9986823524282	-8.28181392600269	-40.9354218708903	-8.65907040059591	-11.8174895425511	123.297516864817	
859800000	-13.2632881771291	-88.2455310076907	-40.8160836107282	-11.3766387887194	-40.9903564272807	-10.5252279453948	-11.7944066368786	121.821134096323	
860320000	-13.3612484063496	-89.8046807815859	-41.0062658150759	-14.0947272333441	-40.7649099632334	-14.668115803878	-11.7779915669172	120.273477549762	
860840000	-13.490164586512	-91.3293781799481	-41.0631490171505	-17.708722058653	-40.8675553025402	-19.2928525824114	-11.7721954037346	118.793747119871	
861360000	-13.5899727556393	-93.0931280796604	-40.7685169084942	-21.51237313151	-40.8101767797483	-21.9771619846347	-11.7570067457156	117.287911304986	
861880000	-13.7232638780716	-94.5478968121117	-40.831029705331	-24.8482266004195	-41.0576941552722	-24.1846292362033	-11.7423253305315	115.81157200591	
862400000	-13.8558050021957	-96.1939374498915	-41.0204935090467	-28.762708738929	-40.9338700349107	-29.1206905470755	-11.7295444520241	114.276360125567	
862920000	-14.002691901769	-97.6727263810753	-41.082993547037	-31.6839435055053	-40.9451165071812	-32.2624384340788	-11.6999834596819	112.861409034632	
863440000	-14.1228186788624	-99.1545901843534	-41.0559264707338	-32.5282119764027	-41.4482764416512	-36.4556357574785	-11.6878459209253	111.418683192273	
863960000	-14.2558837396685	-100.492479893151	-41.2173987798412	-37.5517393730825	-41.3239219767109	-38.8853468537506	-11.6601948158543	109.911702169782	
864480000	-14.3951175996682	-102.04101148544	-41.4526085959433	-38.9078712629561	-41.2587507557809	-42.1888191749561	-11.6240185203897	108.373492714415	
865000000	-14.5239502056909	-103.638871145169	-41.5081374128604	-43.7101595678603	-41.6140257482812	-45.839598991483	-11.6073947184279	106.762189296598	
865520000	-14.6686524276479	-105.038405599624	-41.5274117069008	-48.7762784238404	-41.7693234776491	-48.3831847361453	-11.5788266248724	105.201109757917	
