!Keysight Technologies N9923A: A.08.15
!Date: Friday, 16 February 2024 23:03:39
!Timezone: (GMT-05:00) Eastern Time (US & Canada)
!Model: N9923A
!Serial: MY52412730
!GPS Latitude: 
!GPS Longitude: 
!GPS TimeStamp: 0001-01-01 00:00:00Z
!GPS Seconds Since Last Read: 0
!CHECKSUM:1986594739
!Correction: S11(ON Q)S21(ON Q)S12(ON Q)S22(ON Q)
!S2P File: Measurements:S11,S21,S12,S22:
# Hz S DB R 50
800000000	-7.57663262739804	84.5609364624686	-37.369789131547	-40.4418556393259	-37.6075838163354	-41.0428730643797	-13.3721584742987	-65.0059744315544	
800520000	-7.58837720583494	82.9450915168875	-37.2167312327219	-42.8907086262123	-37.43478453506	-43.565219005799	-13.3408968201144	-66.6754495816539	
801040000	-7.60265995387516	81.3237430378131	-37.1694017001647	-45.0175371723636	-37.3325398484528	-46.310722360245	-13.303927343569	-68.4398836677976	
801560000	-7.63032307386588	79.7646005526118	-37.1808057307209	-47.5682518008304	-37.3550264301101	-48.7041252914572	-13.2871671186301	-70.1197452876249	
802080000	-7.65711671008114	78.2033512157599	-37.0091797517761	-51.1605472966416	-37.1842054149767	-51.2464593315036	-13.2762833938501	-71.749470537414	
802600000	-7.68235596397919	76.6627993598275	-37.1227528928163	-54.0126249638034	-37.2092960209999	-53.8434637133812	-13.2709294744566	-73.4370151527207	
803120000	-7.70556074806432	75.135047493517	-37.0356655778402	-56.6367038345474	-37.0993214349094	-57.6190067508659	-13.2633636819156	-74.9886890604349	
803640000	-7.73838127283698	73.6441241345145	-37.0641297567618	-59.1644470635263	-37.1519828614874	-60.1364206370652	-13.2452117189271	-76.5009608288972	
804160000	-7.75190863211666	72.1656559665994	-36.9716141148446	-60.8678802202664	-37.1043514998077	-62.9655512145538	-13.2365662541236	-78.1342320464749	
804680000	-7.76495466687727	70.7269539398579	-36.8601839730118	-64.2929548758055	-36.980515308643	-65.6034448092574	-13.2312973106811	-79.728359549394	
805200000	-7.76908741003559	69.1630858320144	-36.6210980716726	-67.544454505425	-36.8298822690954	-67.7163829078896	-13.2020869534962	-81.3277459719903	
805720000	-7.78856659178809	67.6539384332794	-36.6751908198652	-71.229323406138	-36.8138189569168	-71.8174049640483	-13.2302543284576	-82.8329607466362	
806240000	-7.8029424228039	66.0948256318269	-36.8028892048522	-75.1629150895451	-36.7495009486383	-75.9193361505969	-13.215591241914	-84.3638739837211	
806760000	-7.81769981458229	64.5106193703561	-36.8664505901125	-77.2400759055323	-36.8246129616139	-79.3371618429268	-13.2211326464814	-85.7809947682473	
807280000	-7.83360029326426	62.9726903916482	-36.9539894599031	-81.5725303542858	-36.9175263038002	-82.8819443192863	-13.2173814322829	-87.1973639006796	
807800000	-7.86439182117402	61.3209838337868	-36.9945912101721	-84.3561857817826	-37.1268879402147	-85.5155194984859	-13.2109604046649	-88.706377009926	
808320000	-7.88204459067881	59.7750825433512	-37.2203270943662	-86.774924965696	-37.2219082649196	-88.1050637907389	-13.2121106359507	-90.1511902813251	
808840000	-7.90837089038238	58.2027616647724	-37.2940105022849	-87.4902738009722	-37.4081626877655	-89.8181790575954	-13.1995355000831	-91.5750938404629	
809360000	-7.9268161356827	56.5984259047479	-37.363461722631	-90.4565056247174	-37.3378208224973	-92.4821063694262	-13.172590075673	-92.954073541091	
809880000	-7.97039461643938	55.0247709873723	-37.1582488829889	-93.1036616599305	-37.3924046271923	-93.8806020452553	-13.1567876537289	-94.5307892285808	
810400000	-8.00156815680749	53.4795084870061	-37.2934507118034	-95.1667566021142	-37.435014888871	-95.8952117434423	-13.1509170519937	-95.9482275004269	
810920000	-8.02984774751673	52.0008375000414	-36.9748575147027	-96.8822605915163	-37.3094802590022	-97.9012666645619	-13.1264748870113	-97.4169214889101	
811440000	-8.05943592482516	50.397409485697	-37.0742043688404	-98.7691444866998	-37.1709843677054	-100.852473238807	-13.1165371729751	-98.8257326820298	
811960000	-8.09594776160771	48.8958330701912	-36.9921044557656	-103.381441950125	-37.10508624866	-103.263433555914	-13.1100058340907	-100.277386201116	
812480000	-8.11561613053201	47.3494941904132	-37.0349619672904	-105.908888479926	-37.0116312674932	-106.253842522132	-13.0993494344252	-101.704513465755	
813000000	-8.14839912873325	45.8498875828483	-36.7906528837943	-109.074401860031	-36.9164642467379	-109.306561901093	-13.0827117295071	-103.167483306352	
813520000	-8.17639199428584	44.2442220917306	-36.8670931899063	-111.102615546651	-37.0765791018203	-112.157305415556	-13.0621849636171	-104.702239864219	
814040000	-8.20859851336222	42.7279986647084	-37.0196114137214	-113.827749043778	-37.0126234283534	-114.584235369619	-13.0454727884526	-106.144127300105	
814560000	-8.23462475028692	41.1690079203124	-36.9461981168619	-116.358854540403	-36.8606941546948	-117.762340555353	-13.0280984763946	-107.665186904181	
815080000	-8.27231966109813	39.6511410979872	-36.9417467821693	-119.469817438354	-37.0643913092725	-120.720859962256	-13.0307116009868	-109.074765572023	
815600000	-8.30982090407584	38.1258495570245	-36.856016258217	-121.211713362392	-36.7884150526975	-124.356522835987	-13.0089811979995	-110.611576411241	
816120000	-8.34253141750429	36.5967151558014	-36.8333957484068	-125.833998246889	-36.8279964839056	-126.856185383826	-13.0011633592202	-112.094737287522	
816640000	-8.37014807090214	35.0968907734773	-36.7783750150475	-128.13966536555	-36.9338101514088	-130.034731919825	-12.9732556324404	-113.540290537071	
817160000	-8.40807248788109	33.5410533388724	-37.0007139022444	-131.149367492288	-36.9160435714076	-132.562178845331	-12.9513832133773	-115.110138959007	
817680000	-8.45363195591096	32.0666405012434	-36.9375402028718	-133.745522391833	-37.0852461406705	-135.072664424367	-12.9529097818834	-116.54196533826	
818200000	-8.48389240612359	30.5369351115331	-37.1160268904545	-135.635345231958	-37.1127591674171	-137.755194328724	-12.9495446704162	-118.13617987619	
818720000	-8.5031065339561	29.0120380501081	-37.1450669201951	-137.828211221409	-37.2357116963317	-138.94234349383	-12.9538443671676	-119.580722900754	
819240000	-8.54625584554298	27.4819449249923	-36.8957643357966	-139.209764715897	-36.9554122765127	-140.785188116719	-12.9497028860178	-121.005535546278	
819760000	-8.56951078595242	25.9645564694477	-36.8780637539519	-141.038931814928	-36.8818608937784	-142.14180228247	-12.9331840044669	-122.393995275617	
820280000	-8.61337308467736	24.3554170489174	-36.5747027086514	-144.18852270263	-36.5896292676743	-144.783503805519	-12.9209801447233	-123.846183943071	
820800000	-8.6579039359898	22.7361363760471	-36.3595345602942	-147.540118793188	-36.510388131102	-148.76114436992	-12.9343672353297	-125.351414162423	
821320000	-8.71084229043552	21.2021744615712	-36.267428701531	-150.85004740792	-36.4232520592777	-152.207513954696	-12.9152475392112	-126.675083498591	
821840000	-8.73805662127341	19.7018307753222	-36.3380290112028	-153.863953819537	-36.2718319713676	-156.372108189902	-12.8945312938044	-128.049024045807	
822360000	-8.79219751927969	18.2149128074582	-36.1275461648117	-157.265215286844	-36.2809841022576	-159.061351799761	-12.8739073178174	-129.416662830474	
822880000	-8.83461210668256	16.7984200260504	-36.2168218474185	-160.909258897035	-36.4505676254266	-161.917745026853	-12.8606745073072	-130.886380599995	
823400000	-8.87576333589472	15.3859786311264	-36.2446500628416	-165.590383901741	-36.3565651878582	-166.752218639636	-12.8383363819948	-132.357665579407	
823920000	-8.90887736186253	13.8703356263482	-36.2610349787682	-168.209329434207	-36.3336641549498	-169.928140839215	-12.8208998085094	-133.76327478864	
824440000	-8.94545310100606	12.4409309389337	-36.245421495373	-170.906921308504	-36.4310726850267	-172.034948671934	-12.8047301701583	-135.247128350021	
824960000	-8.97139712931989	10.851891241248	-36.2001125635035	-173.83255818297	-36.3661561844973	-175.33252925798	-12.7878334571707	-136.830180996285	
825480000	-8.99797207222498	9.29005999346652	-36.3103860276081	-177.232800080918	-36.3836341292212	-178.168442047623	-12.766555047802	-138.227444753082	
826000000	-9.03855132835892	7.68509449674566	-36.2017694630099	179.691759481512	-36.385885452525	178.906671202584	-12.7639230294889	-139.614971403968	
826520000	-9.0759505842879	6.13425823381615	-36.2351975207294	176.60485089496	-36.4043743367142	175.128788419547	-12.7373613259311	-141.118623043932	
827040000	-9.13368564788391	4.51274137132365	-36.2294145128365	172.594552840992	-36.4461355152028	172.812251440947	-12.7170265396931	-142.648575848418	
827560000	-9.17651624403427	3.02129279483758	-36.2787152717694	169.414537554061	-36.4400340353366	169.149841462079	-12.6818885574651	-144.103585603989	
828080000	-9.21519642780671	1.37226956299486	-36.3559060079216	166.859271401462	-36.4907988436207	165.525718009734	-12.6708856085711	-145.636082531897	
828600000	-9.2758265567843	-0.0994168102101338	-36.3302408364597	163.344868156075	-36.4575787291853	162.986212670273	-12.6479992892962	-147.135171559793	
829120000	-9.33377013989583	-1.66005393565035	-36.4299246037135	160.515132978804	-36.5942034520303	160.046060351189	-12.6275728799691	-148.590985739194	
829640000	-9.39059207985326	-3.22033459910889	-36.518257723383	156.855793904542	-36.5474924080593	156.664290054499	-12.627960559003	-150.142470315862	
830160000	-9.44198032646938	-4.72536334417098	-36.5905059710786	154.136808794132	-36.6736840360128	152.837195817417	-12.6017421167087	-151.702705408547	
830680000	-9.49450342034873	-6.22207219617938	-36.611593913503	150.853069349345	-36.6425369765626	150.210271240151	-12.5914197535689	-153.156979783374	
831200000	-9.54695918256156	-7.72970557784798	-36.5769732493741	147.839808828461	-36.6489515502642	146.174475592695	-12.5729254285321	-154.712104111175	
831720000	-9.60756954806421	-9.29373828155173	-36.6588940587762	143.874826945952	-36.6701748174046	142.940162886791	-12.57983177394	-156.113482777483	
832240000	-9.67373412277642	-10.7230655503028	-36.8256796663639	141.918164266753	-36.7900094092037	140.156818583539	-12.5376238835609	-157.665844134509	
832760000	-9.7280142275401	-12.2927774408825	-36.9317993612191	138.380229469991	-36.8817831029522	137.513047320601	-12.5228376023162	-159.110128716311	
833280000	-9.78884083433941	-13.7558855156518	-36.991712194409	136.231375146355	-37.034610996186	134.661397165786	-12.516353056499	-160.700213701766	
833800000	-9.83244625852377	-15.2377441158751	-36.9378738807436	133.656344533653	-36.9715392948217	131.448005580576	-12.4960573755595	-162.25033267363	
834320000	-9.91245811320248	-16.7859154742227	-36.98316284094	129.868341694881	-37.0861482288031	127.947093141779	-12.4757568680941	-163.833553310102	
834840000	-9.98186945451636	-18.2275137091483	-37.0331672073437	128.00946024664	-37.120385280131	125.728747107562	-12.4615054401415	-165.302936391295	
835360000	-10.0443261766858	-19.7053429405527	-36.995637816656	123.455313889001	-37.1640328397902	122.375899633653	-12.4571216249805	-166.739718638477	
835880000	-10.1110521454504	-21.1131513313123	-37.0236034279125	121.051605738482	-37.2625009164448	118.462359666693	-12.4343749967035	-168.376673656499	
836400000	-10.1640386261543	-22.6233822463357	-37.1895442555483	118.88182611986	-37.5373350833754	116.449521436159	-12.4203355688223	-169.871243806087	
836920000	-10.2225125236075	-23.9328984550993	-37.1417765878891	116.627490782116	-37.4309944991475	114.507135020722	-12.4118539861727	-171.389704309128	
837440000	-10.2798282317172	-25.4776402621582	-37.2393157087785	113.561485913796	-37.4618209385546	111.316507403695	-12.3967215846436	-172.994822581543	
837960000	-10.3321677894359	-26.9264051579148	-37.2850666664742	109.397840058716	-37.5913908390697	107.573350241078	-12.3786153565296	-174.536415510947	
838480000	-10.3830493386554	-28.4618755896697	-37.2148832579686	105.797794636309	-37.5416766836804	105.358605605398	-12.3649024446604	-175.999463946987	
839000000	-10.449277528729	-30.0032792836009	-37.3305483432029	102.780959018089	-37.5147302858907	100.745419330738	-12.3409561021687	-177.516443145727	
839520000	-10.5183838506063	-31.555972193766	-37.4011012320331	97.758968468027	-37.6219454773174	97.9062600937236	-12.3328222544314	-179.031242117382	
840040000	-10.5922282301411	-33.1283610536715	-37.4104852155378	95.3032511611527	-37.7955277215781	95.0276749306237	-12.3206184296248	179.297651204935	
840560000	-10.6667756041265	-34.6183720391557	-37.6276716554309	91.3333681751943	-38.0049421883787	91.330346008503	-12.3012525906895	177.754562014415	
841080000	-10.7529273542698	-36.0637043819384	-37.7271726712903	88.8993738870928	-38.2190668505824	88.6409710994745	-12.2927441959744	176.181642294703	
841600000	-10.826875695957	-37.472565127184	-38.0331998639628	86.1142946420239	-38.4483409158808	84.4322530235427	-12.2913254079436	174.604288308929	
842120000	-10.9106793673542	-38.8639967420689	-38.08979450913	82.5211798781935	-38.6880941441646	81.9996643731632	-12.2895346591673	173.108889038608	
842640000	-10.9951870287441	-40.3812513977379	-38.3918746753694	81.2825735991309	-38.8991807878795	80.5062293090666	-12.2887181359781	171.556550567373	
843160000	-11.0596039679358	-41.7925438091633	-38.706535860413	78.9846301379569	-38.99225790948	79.50277436205	-12.2758169184153	169.98974960999	
843680000	-11.1430782267471	-43.1563867884023	-38.7365722528373	76.1116484257047	-39.1482710944115	78.5007906486696	-12.2706151115114	168.480929926072	
844200000	-11.2197311341752	-44.4809946039324	-38.8264128892483	75.3886901993742	-39.1535346263673	76.9711681040713	-12.26736664097	166.933229768102	
844720000	-11.301691296832	-45.8888349076355	-38.7901093786135	72.9283546262457	-39.2303313691226	73.6686897328736	-12.2749503623106	165.408381669602	
845240000	-11.3760719452895	-47.2107438987331	-38.8094341389137	71.0124746095718	-39.1628519579037	71.3891624478806	-12.257803570302	164.021852674605	
845760000	-11.462748201861	-48.6908762784664	-38.8390226343191	68.2103943737591	-39.182962419118	69.4718099279566	-12.2587067324895	162.525638601397	
846280000	-11.5398773524873	-49.9816307198823	-39.0531130127861	65.3133819001999	-39.2224518250163	66.5245493446318	-12.2536270755978	161.053079949282	
846800000	-11.6122267924049	-51.4190171092346	-39.175892209963	62.989521818166	-39.2748660335839	63.5608007532416	-12.2350516874131	159.643440569234	
847320000	-11.6741575763592	-52.7509376856705	-39.2434560128091	61.5258892600714	-39.3667901833484	61.8893991452037	-12.2244401467754	158.228547726008	
847840000	-11.754454872678	-54.1377354750533	-39.0989366169066	58.323341276427	-39.2362955949109	58.762034260199	-12.2119120055969	156.768913203169	
848360000	-11.8198854168194	-55.5178992371814	-39.313816538456	57.0507931733907	-39.0975736316743	55.5130825522167	-12.1830277337662	155.330859986691	
848880000	-11.8998726912989	-56.8806875141267	-39.266577565283	54.7081325151043	-39.1638226289514	55.569289909782	-12.1803194865741	153.749525253937	
849400000	-11.9788515244457	-58.1402438685195	-39.0211315099681	51.6941489670422	-39.1492835820796	51.3609779768202	-12.1267293784761	152.224907075728	
849920000	-12.036941361761	-59.6046703171683	-39.0915916902079	48.8667100956723	-39.1853736810075	49.0472198705841	-12.1323989603376	150.640708269897	
850440000	-12.1174924602062	-61.0099927674385	-39.155774020002	47.433604926342	-39.1983249110133	45.753836837333	-12.1103919520519	149.088458118585	
850960000	-12.1993425619458	-62.3673403750717	-39.109237084562	45.0998270963584	-38.9710794543696	42.9237251161184	-12.0954054526933	147.545786095344	
851480000	-12.2533658408779	-63.7674945693851	-38.9992154398233	41.1692017575263	-38.8870857427663	40.5196131265361	-12.0746139908974	145.922461974285	
852000000	-12.3321475774443	-65.1212882578916	-38.9973288214164	38.7024794048894	-38.9556160190309	36.837522406093	-12.0702343051061	144.455252647469	
852520000	-12.3941913227982	-66.5649421403112	-38.7827715178815	34.4162277011012	-38.7827311430113	32.8960949011338	-12.069160505193	142.850140020737	
853040000	-12.4726063036733	-68.0452587416362	-39.1597209497553	29.2478285657463	-38.8926591346506	28.9901939797179	-12.0517183312712	141.39939660363	
853560000	-12.5377857780802	-69.5539071295792	-39.1843752791707	27.6169854351427	-39.0939841293452	25.5309731836618	-12.0335907067342	139.939943679982	
854080000	-12.6217869441176	-71.1143507263509	-39.2318415025033	23.9883622458231	-39.2438044374751	22.3965558327025	-12.0284341744079	138.459412971046	
854600000	-12.7068375918782	-72.5686863057079	-39.5149999620567	20.3933051867959	-39.279323749109	18.1486620215351	-12.0181126313876	136.926538338755	
855120000	-12.7896854275513	-74.0143507450826	-39.5694699368226	18.1190669544735	-39.5327655159792	15.546741933904	-11.9959107493301	135.379633406559	
855640000	-12.8850088736309	-75.5060509804555	-39.5759623724551	14.9637819315338	-39.715472698538	12.878029085275	-11.9683942374659	133.855726426912	
856160000	-12.9684349448359	-77.0569063697187	-39.8220326484957	12.5455104933213	-39.9059746380452	10.4301332137375	-11.9442597955543	132.39502943433	
856680000	-13.0678726035924	-78.504604062722	-40.0147982174278	10.3873930143341	-40.1118030198094	7.31269601064228	-11.9396850711453	130.751793292915	
857200000	-13.1508622851248	-80.0505814153976	-40.0960152800821	9.14050374594623	-40.0975975716127	5.57278377112725	-11.9160924065818	129.233836449809	
857720000	-13.2667406250724	-81.3880160173988	-40.1783845098435	5.73911983713053	-40.1312446089827	1.88588242793767	-11.9083833109305	127.645210140907	
858240000	-13.3429357856743	-82.9655172252965	-40.1662151822522	3.1518803712633	-40.2886665156125	0.452516552747559	-11.9064206275	126.104765002746	
858760000	-13.4486576872733	-84.4770397607217	-40.2095769796918	0.397405958263147	-40.2658157431757	-3.24331114567733	-11.9015685088508	124.627018433147	
859280000	-13.5434948782837	-85.9489477902929	-40.2271414759739	-2.02260937909965	-40.6387368696565	-5.65519026592614	-11.90671768426	122.980203778159	
859800000	-13.6355942707581	-87.4894155340165	-40.4259480976995	-4.02663022970248	-40.7876738389704	-8.84025476384545	-11.8777333080533	121.561240904874	
860320000	-13.736428209158	-89.0562880148385	-40.6245159265114	-7.28204971446486	-40.7577558247995	-11.5851906783762	-11.8578478235109	120.118778077151	
860840000	-13.8679625656438	-90.6280370320744	-40.7827337186796	-8.8022903150914	-41.0624078067854	-14.3011076921916	-11.8562251879331	118.629443405102	
861360000	-13.9797656608183	-92.3495164807844	-40.6906830457934	-11.8688392412442	-41.0528335870976	-15.5964593745702	-11.8393069609283	117.173032734295	
861880000	-14.1167307878838	-93.8349823508938	-40.6436717750557	-14.2042724329491	-41.2107254860202	-18.4623738477761	-11.8252853953895	115.720467631606	
862400000	-14.2544290048764	-95.3495272666757	-40.8607020548899	-18.0199303268808	-41.3853944411397	-20.2475355156796	-11.8071124431701	114.222296364276	
862920000	-14.4147780233512	-96.8603885904854	-40.9972044495108	-18.5576223616717	-41.3799558653602	-22.4294123176446	-11.7828480439518	112.785186810143	
863440000	-14.5578346471106	-98.2425073466009	-41.2207033547642	-21.9132676208894	-41.4960027367122	-25.0975815117807	-11.7570135332097	111.331188477062	
863960000	-14.7035558396702	-99.5158190986482	-41.2404370692345	-24.3662632033089	-41.4966671253091	-25.4079410561412	-11.7395868786169	109.780308819929	
864480000	-14.8389984219776	-100.955537838306	-41.0725647880318	-25.3935303531202	-41.7945847695274	-29.8327560494049	-11.716116739119	108.276300822928	
865000000	-14.9807937170197	-102.309014564473	-40.9904166058091	-28.2192571615931	-41.5906197221918	-31.3393440212763	-11.6818412142228	106.638893639894	
865520000	-15.1427795300443	-103.595513020165	-40.7187034761289	-31.1423959838966	-41.4644972156158	-33.5580754829873	-11.6616624789073	105.182032265012	
